(1498258064.346851) can0 156#0000000000000028
(1498258064.359838) can0 152#A9AC000000000080
(1498258064.366889) can0 156#0000000000000028
(1498258064.376867) can0 282#FE4300FEFE003A00
(1498258064.379884) can0 152#A1BC000000000080
(1498258064.386917) can0 156#0000000000000028
(1498258064.386940) can0 3D1#FF1F0000FD000000
(1498258064.389889) can0 376#AD
(1498258064.399923) can0 152#A9CC000000000080
(1498258064.406883) can0 156#0000000000000028
(1498258064.419918) can0 152#A1DC000000000080
(1498258064.426920) can0 156#0000000000000028
(1498258064.426948) can0 282#FE5300FEFE003A00
(1498258064.435901) can0 284#8108000E00000000
(1498258064.439942) can0 152#A1EC000000000080
(1498258064.439969) can0 376#AD
(1498258064.446977) can0 156#0000000000000028
(1498258064.459974) can0 152#A9FC000000000080
(1498258064.466971) can0 156#0000000000000028
(1498258064.476975) can0 282#FE6300FEFE003A00
(1498258064.479977) can0 152#A90C000000000080
(1498258064.486989) can0 156#0000000000000028
(1498258064.487011) can0 3D1#FF1F0000FD000000
(1498258064.489959) can0 376#AD
(1498258064.499966) can0 152#A11C000000000080
(1498258064.506885) can0 156#0000000000000028
(1498258064.519880) can0 152#A12C000000000080
(1498258064.526985) can0 156#0000000000000028
(1498258064.527007) can0 282#FE7300FEFE003A00
(1498258064.535930) can0 284#8109000E00000000
(1498258064.539896) can0 152#A93C000000000080
(1498258064.539923) can0 376#AD
(1498258064.546997) can0 156#0000000000000028
(1498258064.559909) can0 152#A14C000000000080
(1498258064.566882) can0 156#0000000000000028
(1498258064.576884) can0 282#FE8300FEFE003A00
(1498258064.579967) can0 152#A95C000000000080
(1498258064.586966) can0 156#0000000000000028
(1498258064.587951) can0 3D1#FF1F0000FD000000
(1498258064.589956) can0 376#AD
(1498258064.596974) can0 6D1#7835020000000000
(1498258064.599973) can0 152#A96C000000000080
(1498258064.606970) can0 156#0000000000000028
(1498258064.619885) can0 152#A17C000000000080
(1498258064.626986) can0 156#0000000000000028
(1498258064.627009) can0 282#FE9300FEFE003A00
(1498258064.635976) can0 284#810A000E00000000
(1498258064.639980) can0 152#A18C000000000080
(1498258064.640009) can0 376#AD
(1498258064.646970) can0 156#0000000000000028
(1498258064.659983) can0 152#A99C000000000080
(1498258064.666924) can0 156#0000000000000028
(1498258064.676975) can0 282#FEA300FEFE003A00
(1498258064.679971) can0 152#A9AC000000000080
(1498258064.686984) can0 156#0000000000000028
(1498258064.687894) can0 3D1#FF1F0000FD000000
(1498258064.689956) can0 376#AD
(1498258064.699972) can0 152#A1BC000000000080
(1498258064.706900) can0 156#0000000000000028
(1498258064.709956) can0 375#0300000120000000
(1498258064.719945) can0 152#A9CC000000000080
(1498258064.726970) can0 156#0000000000000028
(1498258064.726992) can0 282#FEB300FEFE003A00
(1498258064.735928) can0 284#810B000E00000000
(1498258064.739985) can0 152#A1DC000000000080
(1498258064.740017) can0 376#AD
(1498258064.740953) can0 660#FFFF0BAB00000163
(1498258064.746955) can0 156#0000000000000028
(1498258064.759967) can0 152#A1EC000000000080
(1498258064.766972) can0 156#0000000000000028
(1498258064.776889) can0 282#FEC300FEFE003A00
(1498258064.779972) can0 152#A9FC000000000080
(1498258064.786966) can0 156#0000000000000028
(1498258064.787972) can0 3D1#FF1F0000FD000000
(1498258064.789955) can0 376#AD
(1498258064.799972) can0 152#A90C000000000080
(1498258064.806965) can0 156#0000000000000028
(1498258064.819979) can0 152#A11C000000000080
(1498258064.826962) can0 156#0000000000000028
(1498258064.826983) can0 282#FED300FEFE003A00
(1498258064.835919) can0 284#810C000E00000000
(1498258064.839943) can0 152#A12C000000000080
(1498258064.839972) can0 376#AD
(1498258064.846972) can0 156#0000000000000028
(1498258064.859975) can0 152#A93C000000000080
(1498258064.866969) can0 156#0000000000000028
(1498258064.876973) can0 282#FEE300FEFE003A00
(1498258064.879958) can0 152#A14C000000000080
(1498258064.886973) can0 156#0000000000000028
(1498258064.887966) can0 3D1#FF1F0000FD000000
(1498258064.889958) can0 376#AD
(1498258064.899977) can0 152#A95C000000000080
(1498258064.906853) can0 156#0000000000000028
(1498258064.919880) can0 152#A96C000000000080
(1498258064.919913) can0 374#0808000080000000
(1498258064.926981) can0 156#0000000000000028
(1498258064.927003) can0 282#FEF300FEFE003A00
(1498258064.935934) can0 284#810D000E00000000
(1498258064.939934) can0 152#A17C000000000080
(1498258064.939963) can0 376#AD
(1498258064.946956) can0 156#0000000000000028
(1498258064.959941) can0 152#A18C000000000080
(1498258064.966955) can0 156#0000000000000028
(1498258064.976965) can0 282#FE0300FEFE003A00
(1498258064.979971) can0 152#A99C000000000080
(1498258064.986947) can0 156#0000000000000028
(1498258064.987954) can0 3D1#FF1F0000FD000000
(1498258064.989955) can0 376#AD
(1498258064.999958) can0 152#A9AC000000000080
(1498258065.006901) can0 156#0000000000000028
(1498258065.019970) can0 152#A1BC000000000080
(1498258065.026894) can0 156#0000000000000028
(1498258065.026919) can0 282#FE1300FEFE003A00
(1498258065.035837) can0 284#810E000E00000000
(1498258065.039841) can0 152#A9CC000000000080
(1498258065.039853) can0 376#AD
(1498258065.046864) can0 156#0000000000000028
(1498258065.059924) can0 152#A1DC000000000080
(1498258065.063918) can0 378#1100000000000000
(1498258065.066875) can0 156#0000000000000028
(1498258065.076992) can0 282#FE2300FEFE003A00
(1498258065.079959) can0 152#A1EC000000000080
(1498258065.087904) can0 156#0000000000000028
(1498258065.087942) can0 3D1#FF1F0000FD000000
(1498258065.089983) can0 376#AD
(1498258065.099960) can0 152#A9FC000000000080
(1498258065.106895) can0 156#0000000000000028
(1498258065.119943) can0 152#A90C000000000080
(1498258065.126977) can0 156#0000000000000028
(1498258065.127016) can0 282#FE3300FEFE003A00
(1498258065.135892) can0 284#810F000E00000000
(1498258065.139887) can0 152#A11C000000000080
(1498258065.139919) can0 376#AD
(1498258065.146947) can0 156#0000000000000028
(1498258065.159958) can0 152#A12C000000000080
(1498258065.165968) can0 37A#0000000000040000
(1498258065.166962) can0 156#0000000000000028
(1498258065.176967) can0 282#FE4300FEFE003A00
(1498258065.179934) can0 152#A93C000000000080
(1498258065.187979) can0 156#0000000000000028
(1498258065.188012) can0 3D1#FF1F0000FD000000
(1498258065.189954) can0 376#AD
(1498258065.199972) can0 152#A14C000000000080
(1498258065.206972) can0 156#0000000000000028
(1498258065.219960) can0 152#A95C000000000080
(1498258065.226947) can0 156#0000000000000028
(1498258065.227934) can0 282#FE5300FEFE003A00
(1498258065.235965) can0 284#8100000E00000000
(1498258065.239979) can0 152#A96C000000000080
(1498258065.240024) can0 376#AD
(1498258065.240951) can0 660#FFFF0BAB00000168
(1498258065.246963) can0 156#0000000000000028
(1498258065.259964) can0 152#A17C000000000080
(1498258065.266965) can0 156#0000000000000028
(1498258065.276966) can0 282#FE6300FEFE003A00
(1498258065.279965) can0 152#A18C000000000080
(1498258065.287895) can0 156#0000000000000028
(1498258065.287932) can0 3D1#FF1F0000FD000000
(1498258065.289950) can0 376#AD
(1498258065.295970) can0 284#8101000F00000000
(1498258065.299969) can0 152#A99C000000000080
(1498258065.306909) can0 156#0000000000000028
(1498258065.319933) can0 152#A9AC000000000080
(1498258065.326952) can0 156#0000000000000028
(1498258065.327882) can0 282#FE7300FEFE003A00
(1498258065.329963) can0 375#0300000120000200
(1498258065.339959) can0 152#E1BC000000000880
(1498258065.340000) can0 376#AD
(1498258065.348953) can0 156#0100000000000028
(1498258065.359962) can0 152#E9CC000000000880
(1498258065.366959) can0 156#0100000000000028
(1498258065.377967) can0 282#FE8300FEFE033A00
(1498258065.379900) can0 152#E1DC000000000880
(1498258065.387985) can0 156#0100000000000028
(1498258065.388018) can0 3D1#97100000FD000000
(1498258065.389946) can0 376#AD
(1498258065.395958) can0 284#C102000F00000000
(1498258065.399996) can0 152#E1EC000000000880
(1498258065.407896) can0 156#0100000000000028
(1498258065.419971) can0 152#E9FC000000000880
(1498258065.427968) can0 156#0100000000000028
(1498258065.427991) can0 282#FE9300FEFE033A00
(1498258065.439955) can0 152#E90C000000000880
(1498258065.439983) can0 376#AD
(1498258065.447953) can0 156#0100000000000028
(1498258065.455972) can0 284#C103000E00000000
(1498258065.459976) can0 152#E11C000000000880
(1498258065.460006) can0 372#0008030000000000
(1498258065.467950) can0 156#0100000000000028
(1498258065.477949) can0 282#FEA300FEFE033A00
(1498258065.479895) can0 152#E12C000000000880
(1498258065.487986) can0 156#0100000000000028
(1498258065.488008) can0 3D1#97100000FD000000
(1498258065.489871) can0 376#AD
(1498258065.499968) can0 152#E93C000000000880
(1498258065.507865) can0 156#0100000000000028
(1498258065.519934) can0 152#E14C000000000880
(1498258065.527940) can0 156#0100000000000028
(1498258065.527961) can0 282#FEB300FEFE033A00
(1498258065.529964) can0 374#0800000000000000
(1498258065.539905) can0 152#E95C000000000880
(1498258065.539933) can0 376#AD
(1498258065.546037) can0 0D0#00000000000000FF
(1498258065.546066) can0 0D1#00000080
(1498258065.546070) can0 0D2#0000FFFF10000000
(1498258065.546072) can0 0D3#884EC07E000001
(1498258065.546935) can0 0D4#0000000000000000
(1498258065.547919) can0 156#0100000000000028
(1498258065.555926) can0 284#C104000E00000000
(1498258065.559941) can0 152#E96C000000000880
(1498258065.559970) can0 372#0010030000000000
(1498258065.566036) can0 0D0#0000000000000000
(1498258065.566065) can0 0D1#00000080
(1498258065.566069) can0 0D2#0000FFFF10000000
(1498258065.566072) can0 0D3#884EC07E000002
(1498258065.567042) can0 0D4#0000000000000000
(1498258065.567064) can0 140#0004004000000401
(1498258065.567077) can0 141#5626712700803800
(1498258065.567079) can0 144#C000067D5024A000
(1498258065.567965) can0 360#00004E562F000100
(1498258065.567996) can0 156#0100000000000028
(1498258065.567999) can0 361#000124D164000000
(1498258065.568003) can0 362#127A7800FFFF0000
(1498258065.576984) can0 140#0005004000000201
(1498258065.577013) can0 141#5626722700803800
(1498258065.577957) can0 282#89C000FEFE033A00
(1498258065.579949) can0 152#E17C000000000880
(1498258065.585999) can0 0D0#0000000000000000
(1498258065.586021) can0 0D1#00000080
(1498258065.586024) can0 002#0014700084000000
(1498258065.586972) can0 0D2#0000FFFF10000000
(1498258065.586994) can0 0D3#084EC07E000003
(1498258065.587005) can0 0D4#0000000000000000
(1498258065.587008) can0 140#0006004000000201
(1498258065.587014) can0 141#5626712700803800
(1498258065.587967) can0 144#C000067D5024A000
(1498258065.587988) can0 156#0100000000000028
(1498258065.587991) can0 3D1#97100000FD000000
(1498258065.589949) can0 376#AD
(1498258065.595972) can0 002#0014700286000000
(1498258065.596978) can0 140#0007004000000201
(1498258065.597008) can0 141#5626712700803800
(1498258065.598961) can0 25C#2000000000000000
(1498258065.599967) can0 152#E18C000000000880
(1498258065.603966) can0 6C8#0402000000000000
(1498258065.605990) can0 0D0#ECFF000000000000
(1498258065.606021) can0 002#0014700488000000
(1498258065.606025) can0 0D1#00000080
(1498258065.606988) can0 0D2#0000FFFF10000000
(1498258065.607009) can0 0D3#884EC07E000004
(1498258065.607021) can0 0D4#0000000000000000
(1498258065.607024) can0 140#0008004000000201
(1498258065.607963) can0 141#5626712700803800
(1498258065.607986) can0 144#C000067D5024A000
(1498258065.607989) can0 156#0100000000000028
(1498258065.615972) can0 002#001470068A000000
(1498258065.616964) can0 140#0009004000000201
(1498258065.616999) can0 141#5626722700803800
(1498258065.617007) can0 360#00004E562F000100
(1498258065.617014) can0 361#000124D165000000
(1498258065.617968) can0 362#127A7800FFFF0000
(1498258065.619967) can0 152#E99C000000000880
(1498258065.625968) can0 0D0#ECFF000000000000
(1498258065.625989) can0 002#001470088C000000
(1498258065.626001) can0 0D1#00000080
(1498258065.627015) can0 0D2#0000FFFF10000000
(1498258065.627036) can0 0D3#084EC07E000005
(1498258065.627049) can0 0D4#0000000000000000
(1498258065.627052) can0 140#000A004000000E00
(1498258065.627058) can0 141#5626712700803800
(1498258065.628023) can0 144#C000067D5024A000
(1498258065.628046) can0 156#0100000000000028
(1498258065.628049) can0 282#89D000FEFE033A00
(1498258065.635966) can0 002#0014700A8E000000
(1498258065.636938) can0 140#000B004000000E00
(1498258065.636969) can0 141#5626712700803800
(1498258065.639975) can0 152#E9AC000000000880
(1498258065.640003) can0 376#AD
(1498258065.645995) can0 0D0#ECFF000000000000
(1498258065.646017) can0 002#0014700C90000000
(1498258065.646028) can0 0D1#00000080
(1498258065.646954) can0 0D2#0000FFFF10000000
(1498258065.646977) can0 0D3#084EC07E000006
(1498258065.646989) can0 0D4#0000000000000000
(1498258065.646992) can0 140#000C004000000E00
(1498258065.646996) can0 141#5626722700803800
(1498258065.647973) can0 144#C000067D5024A000
(1498258065.647995) can0 156#0100000000000028
(1498258065.647998) can0 371#0000000080008000
(1498258065.655977) can0 002#0014700E92000000
(1498258065.656981) can0 284#C105000E00000000
(1498258065.657010) can0 140#000D004000000E00
(1498258065.657016) can0 141#5626722700803800
(1498258065.658896) can0 25C#A100000000000000
(1498258065.659979) can0 152#E1BC000000000880
(1498258065.660007) can0 372#0020030000000000
(1498258065.661960) can0 280#0000000000000000
(1498258065.665993) can0 0D0#ECFF000000000000
(1498258065.666014) can0 002#0014700084000000
(1498258065.666026) can0 0D1#00000080
(1498258065.667042) can0 0D2#0000FFFF10000000
(1498258065.667065) can0 0D3#884EC07E000007
(1498258065.667076) can0 0D4#0000000000000000
(1498258065.667079) can0 140#000E004000000E00
(1498258065.667085) can0 141#5626722700803800
(1498258065.667963) can0 144#C000067D5024A000
(1498258065.667984) can0 156#0100000000000028
(1498258065.667988) can0 360#00004E562F000100
(1498258065.667995) can0 361#000124D166000000
(1498258065.668981) can0 362#127A7800FFFF0000
(1498258065.669003) can0 371#0000000080008000
(1498258065.671964) can0 280#0001000000000000
(1498258065.671993) can0 281#0000FCFC40000000
(1498258065.673954) can0 370#FFFF200180010000
(1498258065.675955) can0 002#0014700286000000
(1498258065.676963) can0 140#000F004000001100
(1498258065.676997) can0 141#5626722700803800
(1498258065.677941) can0 282#89E0008181033A00
(1498258065.679959) can0 152#E9CC000000000880
(1498258065.685971) can0 0D0#ECFF000000000000
(1498258065.686000) can0 002#0014700488000000
(1498258065.686015) can0 0D1#00000080
(1498258065.686022) can0 0D2#0000FFFF10000000
(1498258065.686968) can0 0D3#884EC07E000008
(1498258065.687002) can0 0D4#0000000000000000
(1498258065.687005) can0 140#0000004000001100
(1498258065.687009) can0 141#5626722700803800
(1498258065.687987) can0 144#C000067D5024A000
(1498258065.688010) can0 371#FFFF000080008000
(1498258065.688021) can0 156#0100000000000028
(1498258065.688024) can0 3D1#97100000FD000000
(1498258065.689946) can0 376#AD
(1498258065.691974) can0 280#0002000000000000
(1498258065.692004) can0 281#0000FCFC40000000
(1498258065.695967) can0 002#001470068A000000
(1498258065.696966) can0 140#0001004000001100
(1498258065.696996) can0 141#5626722700803800
(1498258065.699902) can0 152#E1DC000000000880
(1498258065.705886) can0 0D0#ECFF000000000000
(1498258065.705906) can0 002#001470088C000000
(1498258065.705918) can0 0D1#00000080
(1498258065.706849) can0 0D2#0000FFFF10000000
(1498258065.706898) can0 0D3#084EC07E000009
(1498258065.706911) can0 0D4#0000000000000000
(1498258065.706913) can0 140#0002004000001100
(1498258065.706932) can0 141#5626712700803800
(1498258065.707878) can0 144#C000067D5024A000
(1498258065.707895) can0 156#0100000000000028
(1498258065.707901) can0 371#FFFF000080008000
(1498258065.711881) can0 280#0003000000000000
(1498258065.711906) can0 281#0000FCFC40000000
(1498258065.715940) can0 002#0014700A8E000000
(1498258065.716989) can0 140#0003004000001100
(1498258065.717023) can0 141#5626712700803800
(1498258065.717028) can0 360#00004E562F000100
(1498258065.717031) can0 361#000124D167000000
(1498258065.717958) can0 362#127A7800FFFF0000
(1498258065.718970) can0 25C#A200000000000000
(1498258065.719932) can0 152#E1EC000000000880
(1498258065.721975) can0 370#FFFF200180020000
(1498258065.725958) can0 0D0#ECFF000000000000
(1498258065.725982) can0 002#0014700C90000000
(1498258065.725994) can0 0D1#00000080
(1498258065.727051) can0 0D2#0000FFFF10000000
(1498258065.727076) can0 0D3#084EC07E00000A
(1498258065.727088) can0 0D4#0000000000000000
(1498258065.727091) can0 140#0004004000001100
(1498258065.727094) can0 141#5626722700803800
(1498258065.728012) can0 144#C000067D5024A000
(1498258065.728031) can0 156#0100000000000028
(1498258065.728035) can0 371#FFFF000080008000
(1498258065.728038) can0 282#89F0008181033A00
(1498258065.731957) can0 280#0004000000000000
(1498258065.735961) can0 002#0014700E92000000
(1498258065.736960) can0 140#0005004000001100
(1498258065.736993) can0 141#5626722700803800
(1498258065.739950) can0 152#E9FC000000000880
(1498258065.739981) can0 376#AD
(1498258065.740959) can0 660#FFFF0BAC00000004
(1498258065.745997) can0 002#0014700084000000
(1498258065.746030) can0 0D0#ECFF000000000000
(1498258065.746034) can0 0D1#00000080
(1498258065.746993) can0 0D2#0000FFFF10000000
(1498258065.747017) can0 0D3#884EC07E00000B
(1498258065.747029) can0 0D4#0000000000000000
(1498258065.747032) can0 140#0006004000001100
(1498258065.747036) can0 141#5626722700803800
(1498258065.748040) can0 144#C000067D5024A000
(1498258065.748065) can0 156#0100000000000028
(1498258065.748068) can0 371#FFFF000080008000
(1498258065.751978) can0 280#0005000000000000
(1498258065.755960) can0 002#0014700286000000
(1498258065.756964) can0 284#C106000E00000000
(1498258065.756997) can0 140#0007004000001100
(1498258065.757003) can0 141#5626722700803800
(1498258065.759985) can0 372#0038030000000000
(1498258065.760019) can0 152#E90C000000000880
(1498258065.766001) can0 0D0#ECFF000000000000
(1498258065.766025) can0 002#0014700488000000
(1498258065.766039) can0 0D1#00000080
(1498258065.766992) can0 0D2#0000FFFF10000000
(1498258065.767017) can0 0D3#084EC07E00000C
(1498258065.767029) can0 0D4#0000000000000000
(1498258065.767031) can0 140#0008004000001100
(1498258065.768053) can0 141#5626722700803800
(1498258065.768079) can0 144#C000067D5024A000
(1498258065.768082) can0 156#0100000000000028
(1498258065.768085) can0 360#00004E562F000100
(1498258065.768088) can0 361#000124D168000000
(1498258065.768952) can0 362#127A7800FFFF0000
(1498258065.768977) can0 371#FFFF000080008000
(1498258065.769970) can0 370#FFFF200180030000
(1498258065.771973) can0 280#0006000000000000
(1498258065.775942) can0 002#001470068A000000
(1498258065.776968) can0 140#0009004000001100
(1498258065.777001) can0 141#5626712700803800
(1498258065.777969) can0 282#8900008181033A00
(1498258065.778963) can0 25C#2300000000000000
(1498258065.779972) can0 152#E11C000000000880
(1498258065.785987) can0 002#001470088C000000
(1498258065.786019) can0 0D0#ECFF000000000000
(1498258065.786023) can0 0D1#00000080
(1498258065.787025) can0 0D2#0000FFFF10000000
(1498258065.787052) can0 0D3#884EC07E00000D
(1498258065.787064) can0 0D4#0000000000000000
(1498258065.787067) can0 140#000A004000001100
(1498258065.787915) can0 141#5626722700803800
(1498258065.787942) can0 144#C000067D5024A000
(1498258065.787947) can0 371#FFFF000080008000
(1498258065.787954) can0 156#0100000000000028
(1498258065.788007) can0 3D1#97100000FD000000
(1498258065.789945) can0 376#AD
(1498258065.791956) can0 280#0007000000000000
(1498258065.795949) can0 002#0014700A8E000000
(1498258065.796960) can0 140#000B004000001100
(1498258065.796992) can0 141#5626712700803800
(1498258065.797952) can0 6D1#7835020000000000
(1498258065.799955) can0 152#E12C000000000880
(1498258065.805955) can0 002#0014700C90000000
(1498258065.805992) can0 0D0#ECFF000000000000
(1498258065.805995) can0 0D1#00000080
(1498258065.807006) can0 0D2#0000FFFF10000000
(1498258065.807033) can0 0D3#884EC07E00000E
(1498258065.807044) can0 0D4#0000000000000000
(1498258065.807048) can0 140#000C004000001100
(1498258065.807052) can0 141#5626712700803800
(1498258065.808018) can0 144#C000067D5024A000
(1498258065.808042) can0 156#0100000000000028
(1498258065.808045) can0 371#FFFF000080008000
(1498258065.811961) can0 280#0008000000000000
(1498258065.815957) can0 002#0014700E92000000
(1498258065.816952) can0 140#000D004000001100
(1498258065.816983) can0 141#5626722700803800
(1498258065.816987) can0 360#00004E562F000100
(1498258065.816990) can0 361#000124D169000000
(1498258065.816994) can0 362#127A7800FFFF0000
(1498258065.817946) can0 370#FFFF200180040000
(1498258065.819950) can0 152#E93C000000000880
(1498258065.825978) can0 002#0014700084000000
(1498258065.826010) can0 0D0#ECFF000000000000
(1498258065.826014) can0 0D1#00000080
(1498258065.826977) can0 0D2#0000FFFF10000000
(1498258065.826999) can0 0D3#084EC07E00000F
(1498258065.827014) can0 0D4#0000000000000000
(1498258065.827022) can0 140#000E004000001100
(1498258065.827026) can0 141#5626712700803800
(1498258065.827996) can0 144#C000067D5024A000
(1498258065.828021) can0 156#0100000000000028
(1498258065.828024) can0 371#FFFF000080008000
(1498258065.828028) can0 282#8910008181033A00
(1498258065.831960) can0 280#0009000000000000
(1498258065.835960) can0 002#0014700286000000
(1498258065.836958) can0 140#000F004000001100
(1498258065.836989) can0 141#5626712700803800
(1498258065.838947) can0 25C#A400000000000000
(1498258065.839947) can0 152#E14C000000000880
(1498258065.839980) can0 376#AD
(1498258065.845977) can0 002#0014700488000000
(1498258065.846008) can0 0D0#ECFF000000000000
(1498258065.846012) can0 0D1#00000080
(1498258065.846957) can0 0D2#0000FFFF10000000
(1498258065.846985) can0 0D3#884EC07E000010
(1498258065.846996) can0 0D4#0000000000000000
(1498258065.846999) can0 140#0000004000001100
(1498258065.847002) can0 141#5626712700803800
(1498258065.848017) can0 144#C000067D5024A000
(1498258065.848040) can0 156#0100000000000028
(1498258065.848043) can0 371#FFFF000080008000
(1498258065.851945) can0 280#000A000000000000
(1498258065.855951) can0 002#001470068A000000
(1498258065.856968) can0 140#0001004000001100
(1498258065.857002) can0 141#5626712700803800
(1498258065.857005) can0 284#C107000E00000000
(1498258065.859943) can0 372#0040030000000000
(1498258065.859979) can0 152#E95C000000000880
(1498258065.865963) can0 002#001470088C000000
(1498258065.866005) can0 0D0#ECFF000000000000
(1498258065.866008) can0 0D1#00000080
(1498258065.866910) can0 0D2#0000FFFF10000000
(1498258065.866942) can0 0D3#084EC07E000011
(1498258065.866958) can0 0D4#0000000000000000
(1498258065.866962) can0 140#0002004000001100
(1498258065.867934) can0 141#5626712700803800
(1498258065.867957) can0 144#C000067D5024A000
(1498258065.867962) can0 360#00004E562F000100
(1498258065.867965) can0 156#0100000000000028
(1498258065.867968) can0 361#000124D16A000000
(1498258065.869006) can0 362#127A7800FFFF0000
(1498258065.869031) can0 370#FFFF200180050000
(1498258065.869044) can0 371#FFFF000080008000
(1498258065.871914) can0 280#000B180000000000
(1498258065.875963) can0 002#0014700A8E000000
(1498258065.876959) can0 140#0003004000001100
(1498258065.876988) can0 141#5626712700803800
(1498258065.877958) can0 282#8920008181033A00
(1498258065.879934) can0 152#E96C000000000880
(1498258065.885976) can0 002#0014700C90000000
(1498258065.886008) can0 0D0#ECFF000000000000
(1498258065.886012) can0 0D1#00000080
(1498258065.887036) can0 0D2#0000FFFF10000000
(1498258065.887059) can0 0D3#084EC07E000012
(1498258065.887072) can0 0D4#0000000000000000
(1498258065.887075) can0 140#0004004000001100
(1498258065.887078) can0 141#5626712700803800
(1498258065.887953) can0 144#C000067D5024A000
(1498258065.887976) can0 371#FFFF000080008000
(1498258065.887980) can0 156#0100000000000028
(1498258065.888947) can0 3D1#96100000FD000000
(1498258065.889945) can0 376#AD
(1498258065.891962) can0 280#000C180000000000
(1498258065.895966) can0 002#0014700E92000000
(1498258065.895997) can0 140#0005004000001100
(1498258065.896960) can0 141#5626712700803800
(1498258065.898937) can0 25C#2500000000000000
(1498258065.899867) can0 152#E17C000000000880
(1498258065.905875) can0 002#0014700084000000
(1498258065.905898) can0 0D0#ECFF000000000000
(1498258065.905901) can0 0D1#00000080
(1498258065.906985) can0 0D2#0000FFFF10000000
(1498258065.907006) can0 0D3#884EC07E000013
(1498258065.907017) can0 0D4#0000000000000000
(1498258065.907020) can0 140#0006004000001100
(1498258065.907026) can0 141#5626712700803800
(1498258065.907886) can0 144#C000067D5024A000
(1498258065.907903) can0 371#FFFF000080008000
(1498258065.907907) can0 156#0100000000000028
(1498258065.911884) can0 280#000D180000000000
(1498258065.913963) can0 370#FFFF200180060000
(1498258065.915928) can0 002#0014700286000000
(1498258065.915956) can0 140#0007004000001100
(1498258065.915961) can0 141#5626712700803800
(1498258065.917024) can0 360#00004E562F000100
(1498258065.917045) can0 361#000124D16B000000
(1498258065.917058) can0 362#127A7800FFFF0000
(1498258065.919929) can0 152#E18C000000000880
(1498258065.925992) can0 002#0014700488000000
(1498258065.926022) can0 0D0#ECFF000000000000
(1498258065.926025) can0 0D1#00000080
(1498258065.926981) can0 0D2#0000FFFF10000000
(1498258065.927003) can0 0D3#084EC07E000014
(1498258065.927019) can0 0D4#0000000000000000
(1498258065.927022) can0 140#0008004000001100
(1498258065.927026) can0 141#5626712700803800
(1498258065.927939) can0 144#C000067D5024A000
(1498258065.927957) can0 371#FFFF000080008000
(1498258065.927961) can0 156#0100000000000028
(1498258065.927963) can0 282#8930008181033A00
(1498258065.931942) can0 280#000E180000000000
(1498258065.935953) can0 002#001470068A000000
(1498258065.935982) can0 140#0009004000001100
(1498258065.935987) can0 141#5626712700803800
(1498258065.939967) can0 152#E99C000000000880
(1498258065.939994) can0 376#AD
(1498258065.945959) can0 002#001470088C000000
(1498258065.945989) can0 140#000A004000001100
(1498258065.945994) can0 141#5626722700803800
(1498258065.946969) can0 0D0#ECFF000000000000
(1498258065.946990) can0 0D1#00000080
(1498258065.946993) can0 0D2#0000FFFF10000000
(1498258065.946996) can0 0D3#884EC07E000015
(1498258065.948030) can0 0D4#0000000000000000
(1498258065.948052) can0 144#C000067D5024A000
(1498258065.948056) can0 371#FFFF000080008000
(1498258065.948058) can0 156#0100000000000028
(1498258065.951964) can0 280#000F180000000000
(1498258065.955961) can0 002#0014700A8E000000
(1498258065.955992) can0 140#000B004000001100
(1498258065.955996) can0 141#5626722700803800
(1498258065.956933) can0 284#C108000E00000000
(1498258065.958960) can0 25C#2600000000000000
(1498258065.959907) can0 372#0058030000000000
(1498258065.959937) can0 152#E9AC000000000880
(1498258065.961958) can0 370#FFFF200180070000
(1498258065.966036) can0 002#0014700C90000000
(1498258065.966067) can0 0D0#ECFF000000000000
(1498258065.966070) can0 0D1#00000080
(1498258065.966962) can0 0D2#0000FFFF10000000
(1498258065.966985) can0 0D3#884EC07E000016
(1498258065.966997) can0 0D4#0000000000000000
(1498258065.967000) can0 140#000C004000001100
(1498258065.967004) can0 141#5626712700803800
(1498258065.967913) can0 144#C000067D5024A000
(1498258065.967929) can0 360#00004E562F000100
(1498258065.967933) can0 156#0100000000000028
(1498258065.967936) can0 361#000124D16C000000
(1498258065.968975) can0 362#127A7800FFFF0000
(1498258065.968998) can0 371#FFFF000080008000
(1498258065.971962) can0 280#0000180000000000
(1498258065.975935) can0 002#0014700E92000000
(1498258065.975965) can0 140#000D004000001100
(1498258065.975969) can0 141#5626712700803800
(1498258065.977963) can0 282#8940008181033A00
(1498258065.979964) can0 152#E1BC000000000880
(1498258065.985989) can0 002#0014700084000000
(1498258065.986020) can0 0D0#ECFF000000000000
(1498258065.986024) can0 0D1#00000080
(1498258065.987039) can0 0D2#0000FFFF10000000
(1498258065.987061) can0 0D3#084EC07E000017
(1498258065.987073) can0 0D4#0000000000000000
(1498258065.987076) can0 140#000E004000001100
(1498258065.987081) can0 141#5626712700803800
(1498258065.987955) can0 144#C000067D5024A000
(1498258065.987976) can0 371#FFFF000080008000
(1498258065.987980) can0 156#0100000000000028
(1498258065.988938) can0 3D1#97100000FD000000
(1498258065.989948) can0 376#AD
(1498258065.991958) can0 280#0001180000000000
(1498258065.995974) can0 002#0014700286000000
(1498258065.996005) can0 140#000F004000001100
(1498258065.996010) can0 141#5626722700803800
(1498258065.999967) can0 152#E9CC000000000880
(1498258066.006032) can0 002#0014700488000000
(1498258066.006061) can0 0D0#ECFF000000000000
(1498258066.006069) can0 0D1#00000080
(1498258066.007044) can0 0D2#0000FFFF10000000
(1498258066.007067) can0 0D3#084EC07E000018
(1498258066.007078) can0 0D4#0000000000000000
(1498258066.007080) can0 140#0000004000001100
(1498258066.007084) can0 141#5626712700803800
(1498258066.007916) can0 144#C000067D5024A000
(1498258066.007933) can0 371#FFFF000080008000
(1498258066.007937) can0 156#0100000000000028
(1498258066.009956) can0 370#FFFF200180080000
(1498258066.011949) can0 280#0002180000000000
(1498258066.015986) can0 002#001470068A000000
(1498258066.016016) can0 140#0001004000001100
(1498258066.016021) can0 141#5626712700803800
(1498258066.016981) can0 360#00004E562F000100
(1498258066.017003) can0 361#000124D16D000000
(1498258066.017015) can0 362#127A7800FFFF0000
(1498258066.018961) can0 25C#A700000000000000
(1498258066.019960) can0 152#E1DC000000000880
(1498258066.025961) can0 002#001470088C000000
(1498258066.026005) can0 0D0#ECFF000000000000
(1498258066.026009) can0 0D1#00000080
(1498258066.026014) can0 0D2#0000FFFF10000000
(1498258066.026948) can0 0D3#884EC07E000019
(1498258066.026983) can0 0D4#0000000000000000
(1498258066.026987) can0 140#0002004000001100
(1498258066.026990) can0 141#5626712700803800
(1498258066.028026) can0 144#C000067D5024A000
(1498258066.028050) can0 371#FFFF000080008000
(1498258066.028054) can0 156#0100000000000028
(1498258066.028056) can0 282#8950008181033A00
(1498258066.031866) can0 280#0003180000000000
(1498258066.035972) can0 002#0014700A8E000000
(1498258066.036005) can0 140#0003004000001100
(1498258066.036010) can0 141#5626712700803800
(1498258066.039985) can0 152#E1EC000000000880
(1498258066.040016) can0 376#AD
(1498258066.045971) can0 002#0014700C90000000
(1498258066.046005) can0 0D0#ECFF000000000000
(1498258066.046009) can0 0D1#00000080
(1498258066.047039) can0 0D2#0000FFFF10000000
(1498258066.047064) can0 0D3#884EC07E00001A
(1498258066.047077) can0 0D4#0000000000000000
(1498258066.047080) can0 140#0004004000001100
(1498258066.047085) can0 141#5626712700803800
(1498258066.047996) can0 144#C000067D5024A000
(1498258066.048021) can0 371#FFFF000080008000
(1498258066.048026) can0 156#0100000000000028
(1498258066.051887) can0 280#0004180000000000
(1498258066.055855) can0 002#0014700E92000000
(1498258066.055871) can0 140#0005004000001100
(1498258066.055876) can0 141#5626712700803800
(1498258066.056854) can0 284#C109000E00000000
(1498258066.057862) can0 370#FFFF200180090000
(1498258066.059911) can0 372#0068030000000000
(1498258066.059932) can0 152#E9FC000000000880
(1498258066.064958) can0 378#2100000000000000
(1498258066.066040) can0 002#0014700084000000
(1498258066.066074) can0 0D0#ECFF000000000000
(1498258066.066077) can0 0D1#00000080
(1498258066.066080) can0 0D2#0000FFFF10000000
(1498258066.066978) can0 0D3#084EC07E00001B
(1498258066.067013) can0 0D4#0000000000000000
(1498258066.067017) can0 140#0006004000001100
(1498258066.067021) can0 141#5626712700803800
(1498258066.068036) can0 144#C000067D5024A000
(1498258066.068063) can0 360#00004E562F000100
(1498258066.068068) can0 156#0100000000000028
(1498258066.068070) can0 361#000124D16E000000
(1498258066.068888) can0 362#127A7800FFFF0000
(1498258066.068903) can0 371#FFFF000080008000
(1498258066.071909) can0 280#0005180000000000
(1498258066.075989) can0 002#0014700286000000
(1498258066.076023) can0 140#0007004000001100
(1498258066.076028) can0 141#5626712700803800
(1498258066.077969) can0 282#8960008181033A00
(1498258066.078979) can0 25C#2000000000000000
(1498258066.079972) can0 152#E90C000000000880
(1498258066.085918) can0 002#0014700488000000
(1498258066.085968) can0 0D0#ECFF000000000000
(1498258066.085973) can0 0D1#00000080
(1498258066.085976) can0 0D2#0000FFFF10000000
(1498258066.087057) can0 0D3#884EC07E00001C
(1498258066.087090) can0 0D4#0000000000000000
(1498258066.087093) can0 140#0008004000001100
(1498258066.087098) can0 141#5626712700803800
(1498258066.087978) can0 144#C000067D5024A000
(1498258066.088002) can0 371#FFFF000080008000
(1498258066.088006) can0 156#0100000000000028
(1498258066.088979) can0 3D1#96100000FD000000
(1498258066.089966) can0 376#AD
(1498258066.091990) can0 280#0006180000000000
(1498258066.095978) can0 002#001470068A000000
(1498258066.096011) can0 140#0009004000001100
(1498258066.096016) can0 141#5626712700803800
(1498258066.099909) can0 152#E11C000000000880
(1498258066.105924) can0 002#001470088C000000
(1498258066.105947) can0 0D0#ECFF000000000000
(1498258066.105951) can0 0D1#00000080
(1498258066.105953) can0 0D2#0000FFFF10000000
(1498258066.106894) can0 0D3#084EC07E00001D
(1498258066.106908) can0 0D4#0000000000000000
(1498258066.106911) can0 140#000A004000001100
(1498258066.106915) can0 141#5626712700803800
(1498258066.107977) can0 144#C000067D5024A000
(1498258066.107987) can0 370#FFFF2001800A0000
(1498258066.107995) can0 156#0100000000000028
(1498258066.107998) can0 371#FFFF000080008000
(1498258066.111903) can0 280#0007180000000000
(1498258066.115950) can0 002#0014700A8E000000
(1498258066.115983) can0 140#000B004000001100
(1498258066.115989) can0 141#5626712700803800
(1498258066.116985) can0 360#00004E562F000100
(1498258066.117011) can0 361#000124D16F000000
(1498258066.117024) can0 362#127A7800FFFF0000
(1498258066.119946) can0 152#E12C000000000880
(1498258066.125959) can0 002#0014700C90000000
(1498258066.125992) can0 0D0#ECFF000000000000
(1498258066.125996) can0 0D1#00000080
(1498258066.125998) can0 0D2#0000FFFF10000000
(1498258066.126992) can0 0D3#084EC07E00001E
(1498258066.127026) can0 0D4#0000000000000000
(1498258066.127030) can0 140#000C004000001100
(1498258066.127034) can0 141#5626712700803800
(1498258066.127984) can0 144#C000067D5024A000
(1498258066.128007) can0 371#FFFF000080008000
(1498258066.128011) can0 156#0100000000000028
(1498258066.128014) can0 282#8970008181033A00
(1498258066.131934) can0 280#0008180000000000
(1498258066.135941) can0 002#0014700E92000000
(1498258066.135967) can0 140#000D004000001100
(1498258066.135972) can0 141#5626712700803800
(1498258066.138840) can0 25C#A100000000000000
(1498258066.139887) can0 152#E93C000000000880
(1498258066.139909) can0 376#AD
(1498258066.145954) can0 140#000E004000001100
(1498258066.145987) can0 002#0014700084000000
(1498258066.145992) can0 0D0#ECFF000000000000
(1498258066.145995) can0 0D1#00000080
(1498258066.146984) can0 0D2#0000FFFF10000000
(1498258066.147011) can0 0D3#884EC07E00001F
(1498258066.147023) can0 0D4#0000000000000000
(1498258066.147026) can0 141#5626712700803800
(1498258066.147982) can0 144#C000067D5024A000
(1498258066.148008) can0 371#FFFF000080008000
(1498258066.148012) can0 156#0100000000000028
(1498258066.151928) can0 280#0009180000000000
(1498258066.153954) can0 370#FFFF2001800B0000
(1498258066.155959) can0 002#0014700286000000
(1498258066.156005) can0 140#000F004000001100
(1498258066.156011) can0 141#5626712700803800
(1498258066.156863) can0 284#C10A000E00000000
(1498258066.159948) can0 372#0070030000000000
(1498258066.159979) can0 152#E14C000000000880
(1498258066.166020) can0 002#0014700488000000
(1498258066.166052) can0 0D0#ECFF000000000000
(1498258066.166055) can0 0D1#00000080
(1498258066.166057) can0 0D2#0000FFFF10000000
(1498258066.166955) can0 0D3#884EC07E000020
(1498258066.167013) can0 0D4#0000000000000000
(1498258066.167018) can0 140#0000004000001100
(1498258066.167022) can0 141#5626712700803800
(1498258066.167135) can0 144#C000067D5024A000
(1498258066.167926) can0 360#00004E562F000100
(1498258066.167950) can0 361#000124D160000000
(1498258066.167961) can0 156#0100000000000028
(1498258066.168955) can0 362#C46B8900FFFF0000
(1498258066.168986) can0 371#FFFF000080008000
(1498258066.168990) can0 37A#0000000000040000
(1498258066.171932) can0 280#000A180000000000
(1498258066.175879) can0 002#001470068A000000
(1498258066.175906) can0 140#0001004000001100
(1498258066.175911) can0 141#5626712700803800
(1498258066.177876) can0 282#8A80008181033A00
(1498258066.179927) can0 152#E95C000000000880
(1498258066.185972) can0 140#0002004000001100
(1498258066.186017) can0 002#001470088C000000
(1498258066.186023) can0 0D0#ECFF000000000000
(1498258066.186025) can0 0D1#00000080
(1498258066.187008) can0 0D2#0000FFFF10000000
(1498258066.187046) can0 0D3#084EC07E000021
(1498258066.187058) can0 0D4#0000000000000000
(1498258066.187061) can0 141#5626712700803800
(1498258066.187895) can0 144#C000067D5024A000
(1498258066.187915) can0 371#FFFF000080008000
(1498258066.188936) can0 156#0100000000000028
(1498258066.188970) can0 3D1#97100000FD000000
(1498258066.189940) can0 376#AD
(1498258066.191953) can0 280#000B180000000000
(1498258066.195960) can0 002#0014700A8E000000
(1498258066.196000) can0 140#0003004000001100
(1498258066.196004) can0 141#5626712700803800
(1498258066.198955) can0 25C#A200000000000000
(1498258066.199956) can0 152#E96C000000000880
(1498258066.201946) can0 370#FFFF2001800C0000
(1498258066.205987) can0 002#0014700C90000000
(1498258066.206029) can0 0D0#ECFF000000000000
(1498258066.206034) can0 0D1#00000080
(1498258066.206037) can0 0D2#0000FFFF10000000
(1498258066.207012) can0 0D3#084EC07E000022
(1498258066.207062) can0 0D4#0000000000000000
(1498258066.207066) can0 140#0004004000001100
(1498258066.207072) can0 141#5626712700803800
(1498258066.208004) can0 144#C000067D5024A000
(1498258066.208031) can0 371#FFFF000080008000
(1498258066.208038) can0 156#0100000000000028
(1498258066.211944) can0 280#000C180000000000
(1498258066.215989) can0 002#0014700E92000000
(1498258066.216026) can0 140#0005004000001100
(1498258066.216033) can0 141#5626712700803800
(1498258066.216988) can0 360#00004E562F000100
(1498258066.217026) can0 361#000124D161000000
(1498258066.217042) can0 362#C46B8900FFFFBE00
(1498258066.219987) can0 152#E17C000000000880
(1498258066.226060) can0 140#0006004000001100
(1498258066.226097) can0 002#0014700084000000
(1498258066.226104) can0 0D0#ECFF000000000000
(1498258066.226108) can0 0D1#00000080
(1498258066.226977) can0 0D2#0000FFFF10000000
(1498258066.227015) can0 0D3#884EC07E000023
(1498258066.227031) can0 0D4#0000000000000000
(1498258066.227034) can0 141#5626712700803800
(1498258066.228054) can0 144#C000067D5024A000
(1498258066.228081) can0 371#FFFF000080008000
(1498258066.228088) can0 156#0100000000000028
(1498258066.228092) can0 282#8A90008181033A00
(1498258066.232968) can0 280#000D180000000000
(1498258066.236039) can0 140#0007004000001100
(1498258066.236077) can0 002#0014700286000000
(1498258066.236083) can0 141#5626712700803800
(1498258066.239986) can0 152#E18C000000000880
(1498258066.240033) can0 376#AD
(1498258066.240964) can0 660#FFFF0BAC00000009
(1498258066.246030) can0 002#0014700488000000
(1498258066.246088) can0 0D0#ECFF000000000000
(1498258066.246096) can0 0D1#00000080
(1498258066.246100) can0 0D2#0000FFFF10000000
(1498258066.246104) can0 0D3#084EC07E000024
(1498258066.246901) can0 0D4#0000000000000000
(1498258066.246923) can0 140#0008004000001100
(1498258066.246940) can0 141#5626712700803800
(1498258066.247982) can0 144#C000067D5024A000
(1498258066.248003) can0 371#FFFF000080008000
(1498258066.248007) can0 156#0100000000000028
(1498258066.249954) can0 370#FFFF2001800D0000
(1498258066.251888) can0 280#000E180000000000
(1498258066.256025) can0 002#001470068A000000
(1498258066.256053) can0 140#0009004000001100
(1498258066.256058) can0 141#5626712700803800
(1498258066.256958) can0 284#C10B000E00000000
(1498258066.258956) can0 25C#2300000000000000
(1498258066.259978) can0 372#0080030000000000
(1498258066.260009) can0 152#E99C000000000880
(1498258066.266034) can0 140#000A004000001100
(1498258066.266064) can0 002#001470088C000000
(1498258066.266069) can0 0D0#ECFF000000000000
(1498258066.266072) can0 0D1#00000080
(1498258066.266988) can0 0D2#0000FFFF10000000
(1498258066.267008) can0 0D3#884EC07E000025
(1498258066.267019) can0 0D4#0000000000000000
(1498258066.267022) can0 141#5626712700803800
(1498258066.267025) can0 144#C000067D5024A000
(1498258066.267960) can0 360#00004E562F000100
(1498258066.267982) can0 361#000124D162000000
(1498258066.267993) can0 156#0100000000000028
(1498258066.267996) can0 362#096B8900FFFFBE00
(1498258066.268891) can0 371#FFFF000080008000
(1498258066.271960) can0 280#000F180000000000
(1498258066.275967) can0 140#000B004000001100
(1498258066.276005) can0 002#0014700A8E000000
(1498258066.276011) can0 141#5626712700803800
(1498258066.277969) can0 282#89A0008181033A00
(1498258066.279974) can0 152#E9AC000000000880
(1498258066.285977) can0 002#0014700C90000000
(1498258066.286015) can0 0D0#ECFF000000000000
(1498258066.286021) can0 0D1#00000080
(1498258066.286024) can0 0D2#0000FFFF10000000
(1498258066.287040) can0 0D3#884EC07E000026
(1498258066.287078) can0 0D4#0000000000000000
(1498258066.287083) can0 140#000C004000001100
(1498258066.287088) can0 141#5626712700803800
(1498258066.287963) can0 144#C000067D5024A000
(1498258066.287988) can0 371#FFFF000080008000
(1498258066.288912) can0 156#0100000000000028
(1498258066.288939) can0 3D1#97100000FD000000
(1498258066.289888) can0 376#AD
(1498258066.292955) can0 280#0000180000000000
(1498258066.295958) can0 140#000D004000001100
(1498258066.295994) can0 002#0014700E92000000
(1498258066.296000) can0 141#5626712700803800
(1498258066.297971) can0 370#FFFF2001800E0000
(1498258066.299908) can0 152#E1BC000000000880
(1498258066.305874) can0 140#000E004000001100
(1498258066.305905) can0 002#0014700084000000
(1498258066.305913) can0 0D0#ECFF000000000000
(1498258066.305916) can0 0D1#00000080
(1498258066.306949) can0 0D2#0000FFFF10000000
(1498258066.306965) can0 0D3#084EC07E000027
(1498258066.306976) can0 0D4#0000000000000000
(1498258066.306980) can0 141#5626712700803800
(1498258066.307903) can0 144#C000067D5024A000
(1498258066.307920) can0 371#FFFF000080008000
(1498258066.307925) can0 156#0100000000000028
(1498258066.311903) can0 280#0001180000000000
(1498258066.315943) can0 140#000F004000001100
(1498258066.315977) can0 002#0014700286000000
(1498258066.315984) can0 141#5626712700803800
(1498258066.315988) can0 360#00004E562F000100
(1498258066.316977) can0 361#000124D163000000
(1498258066.317014) can0 362#096B8900FFFFBD00
(1498258066.318900) can0 25C#A400000000000000
(1498258066.319924) can0 152#E9CC000000000880
(1498258066.326042) can0 140#0000004000001100
(1498258066.326080) can0 002#0014700488000000
(1498258066.326087) can0 0D0#ECFF000000000000
(1498258066.326091) can0 0D1#00000080
(1498258066.326970) can0 0D2#0000FFFF10000000
(1498258066.326996) can0 0D3#084EC07E000028
(1498258066.327014) can0 0D4#0000000000000000
(1498258066.327018) can0 141#5626712700803800
(1498258066.328006) can0 144#C000067D5024A000
(1498258066.328033) can0 371#FFFF000080008000
(1498258066.328039) can0 156#0100000000000028
(1498258066.328043) can0 282#89B0008181033A00
(1498258066.329967) can0 375#0300000120000200
(1498258066.331939) can0 280#0002180000000000
(1498258066.335964) can0 140#0001004000001100
(1498258066.336000) can0 002#001470068A000000
(1498258066.336007) can0 141#5626712700803800
(1498258066.339967) can0 152#E1DC000000000880
(1498258066.340003) can0 376#AD
(1498258066.346050) can0 140#0002004000001100
(1498258066.346087) can0 141#5626712700803800
(1498258066.346092) can0 002#001470088C000000
(1498258066.346099) can0 0D0#ECFF000000000000
(1498258066.346103) can0 0D1#00000080
(1498258066.346933) can0 0D2#0000FFFF10000000
(1498258066.346959) can0 0D3#884EC07E000029
(1498258066.346974) can0 0D4#0000000000000000
(1498258066.346979) can0 144#C000067D5024A000
(1498258066.347959) can0 370#FFFF2001800F0000
(1498258066.347997) can0 371#FFFF000080008000
(1498258066.348002) can0 156#0100000000000028
(1498258066.352952) can0 280#0003180000000000
(1498258066.356029) can0 140#0003004000001100
(1498258066.356067) can0 002#0014700A8E000000
(1498258066.356074) can0 141#5626712700803800
(1498258066.356964) can0 284#C10C000E00000000
(1498258066.359953) can0 372#0098030000000000
(1498258066.359992) can0 152#E1EC000000000880
(1498258066.366049) can0 140#0004004000001100
(1498258066.366089) can0 002#0014700C90000000
(1498258066.366100) can0 0D0#ECFF000000000000
(1498258066.366104) can0 0D1#00000080
(1498258066.367040) can0 0D2#0000FFFF10000000
(1498258066.367065) can0 0D3#884EC07E00002A
(1498258066.367082) can0 0D4#0000000000000000
(1498258066.367087) can0 141#5626712700803800
(1498258066.367971) can0 144#C000067D5024A000
(1498258066.367997) can0 360#00004E562F000100
(1498258066.368003) can0 361#000124D164000000
(1498258066.368019) can0 362#606A8900FFFFBD00
(1498258066.368024) can0 156#0100000000000028
(1498258066.368938) can0 371#FFFF000080008000
(1498258066.372950) can0 280#0004180000000000
(1498258066.375974) can0 002#0014700E92000000
(1498258066.376017) can0 140#0005004000001100
(1498258066.376024) can0 141#5626712700803800
(1498258066.377964) can0 282#8AC0008181033A00
(1498258066.378947) can0 25C#2500000000000000
(1498258066.379973) can0 152#E9FC000000000880
(1498258066.385967) can0 140#0006004000001100
(1498258066.386005) can0 002#0014700084000000
(1498258066.386014) can0 0D0#ECFF000000000000
(1498258066.386019) can0 0D1#00000080
(1498258066.386979) can0 0D2#0000FFFF10000000
(1498258066.387003) can0 0D3#084EC07E00002B
(1498258066.387021) can0 0D4#0000000000000000
(1498258066.387025) can0 141#5626712700803800
(1498258066.387051) can0 144#C000067D5024A000
(1498258066.387946) can0 371#FFFF000080008000
(1498258066.388984) can0 156#0100000000000028
(1498258066.389010) can0 3D1#97100000FD000000
(1498258066.389914) can0 376#AD
(1498258066.391964) can0 280#0005180000000000
(1498258066.393970) can0 370#FFFF200180000000
(1498258066.396038) can0 140#0007004000001100
(1498258066.396076) can0 002#0014700286000000
(1498258066.396082) can0 141#5626712700803800
(1498258066.399972) can0 152#E90C000000000880
(1498258066.405958) can0 002#0014700488000000
(1498258066.405996) can0 0D0#ECFF000000000000
(1498258066.406001) can0 0D1#00000080
(1498258066.406005) can0 0D2#0000FFFF10000000
(1498258066.406987) can0 0D3#884EC07E00002C
(1498258066.407023) can0 0D4#0000000000000000
(1498258066.407028) can0 140#0008004000001100
(1498258066.407034) can0 141#5626712700803800
(1498258066.407970) can0 144#C000067D5024A000
(1498258066.407998) can0 371#FFFF000080008000
(1498258066.408004) can0 156#0100000000000028
(1498258066.411954) can0 280#0006180000000000
(1498258066.415897) can0 002#001470068A000000
(1498258066.415937) can0 140#0009004000001100
(1498258066.415946) can0 141#5626712700803800
(1498258066.415951) can0 360#00004E562F000100
(1498258066.416931) can0 361#000124D165000000
(1498258066.416961) can0 362#606A8900FFFFBD00
(1498258066.419965) can0 152#E11C000000000880
(1498258066.426049) can0 140#000A004000001100
(1498258066.426086) can0 002#001470088C000000
(1498258066.426092) can0 0D0#ECFF000000000000
(1498258066.426097) can0 0D1#00000080
(1498258066.426100) can0 0D2#0000FFFF10000000
(1498258066.426941) can0 0D3#084EC07E00002D
(1498258066.426978) can0 0D4#0000000000000000
(1498258066.426983) can0 141#5626712700803800
(1498258066.426987) can0 144#C000067D5024A000
(1498258066.427988) can0 371#FFFF000080008000
(1498258066.428013) can0 156#0100000000000028
(1498258066.428020) can0 282#8AD0008181033A00
(1498258066.432913) can0 280#0007180000000000
(1498258066.435946) can0 140#000B004000001100
(1498258066.435985) can0 002#0014700A8E000000
(1498258066.435992) can0 141#5626712700803800
(1498258066.438969) can0 25C#2600000000000000
(1498258066.439940) can0 152#E12C000000000880
(1498258066.439974) can0 376#AD
(1498258066.441973) can0 370#FFFF200180010000
(1498258066.446048) can0 140#000C004000001100
(1498258066.446085) can0 002#0014700C90000000
(1498258066.446093) can0 0D0#ECFF000000000000
(1498258066.446096) can0 0D1#00000080
(1498258066.446958) can0 0D2#0000FFFF10000000
(1498258066.446984) can0 0D3#084EC07E00002E
(1498258066.447002) can0 0D4#0000000000000000
(1498258066.447007) can0 141#5626712700803800
(1498258066.447979) can0 144#C000067D5024A000
(1498258066.448005) can0 371#FFFF000080008000
(1498258066.448017) can0 156#0100000000000028
(1498258066.452954) can0 280#0008180000000000
(1498258066.456032) can0 140#000D004000001100
(1498258066.456069) can0 002#0014700E92000000
(1498258066.456075) can0 141#5626712700803800
(1498258066.456966) can0 284#C10D000E00000000
(1498258066.459961) can0 372#00A8030000000000
(1498258066.459998) can0 152#E93C000000000880
(1498258066.466054) can0 140#000E004000001100
(1498258066.466091) can0 002#0014700084000000
(1498258066.466097) can0 0D0#ECFF000000000000
(1498258066.466101) can0 0D1#00000080
(1498258066.466104) can0 0D2#0000FFFF10000000
(1498258066.467035) can0 0D3#884EC07E00002F
(1498258066.467069) can0 0D4#0000000000000000
(1498258066.467074) can0 141#5626712700803800
(1498258066.467078) can0 144#C000067D5024A000
(1498258066.467977) can0 360#00004E562F000100
(1498258066.468004) can0 361#000124D166000000
(1498258066.468022) can0 362#E1698900FFFFBD00
(1498258066.468028) can0 156#0100000000000028
(1498258066.468953) can0 371#FFFF000080EA0000
(1498258066.471969) can0 280#0009180000000000
(1498258066.475905) can0 140#000F004000001100
(1498258066.475934) can0 002#0014700286000000
(1498258066.475939) can0 141#5626712700803800
(1498258066.477960) can0 282#89E0008181033A00
(1498258066.479959) can0 152#E14C000000000880
(1498258066.485984) can0 140#0000004000001100
(1498258066.486020) can0 002#0014700488000000
(1498258066.486026) can0 0D0#ECFF000000000000
(1498258066.486029) can0 0D1#00000080
(1498258066.487037) can0 0D2#0000FFFF10000000
(1498258066.487060) can0 0D3#084EC07E000030
(1498258066.487070) can0 0D4#0000000000000000
(1498258066.487073) can0 141#5626712700803800
(1498258066.487076) can0 144#C000067D5024A000
(1498258066.487959) can0 371#FFFF000080EB0000
(1498258066.488947) can0 156#0100000000000028
(1498258066.488970) can0 3D1#97100000FD000000
(1498258066.489956) can0 370#FFFF200180020000
(1498258066.489989) can0 376#AD
(1498258066.492942) can0 280#000A180000000000
(1498258066.495951) can0 140#0001004000001100
(1498258066.495981) can0 002#001470068A000000
(1498258066.495985) can0 141#5626712700803800
(1498258066.498894) can0 25C#A700000000000000
(1498258066.499890) can0 152#E95C000000000880
(1498258066.505871) can0 140#0002004000001100
(1498258066.505999) can0 141#5626712700803800
(1498258066.506013) can0 002#001470088C000000
(1498258066.506024) can0 0D0#ECFF000000000000
(1498258066.506027) can0 0D1#00000080
(1498258066.506866) can0 0D2#0000FFFF10000000
(1498258066.506886) can0 0D3#884EC07E000031
(1498258066.506897) can0 0D4#0000000000000000
(1498258066.506901) can0 144#C000067D5024A000
(1498258066.507918) can0 371#FFFF000080EB0000
(1498258066.507931) can0 156#0100000000000028
(1498258066.512937) can0 280#000B180000000000
(1498258066.515935) can0 140#0003004000001100
(1498258066.515971) can0 002#0014700A8E000000
(1498258066.515984) can0 141#5626712700803800
(1498258066.515990) can0 360#00004E562F000100
(1498258066.515997) can0 361#000124D167000000
(1498258066.516950) can0 362#E1698900FFFFBD04
(1498258066.519920) can0 152#E96C000000000880
(1498258066.525949) can0 140#0004004000001100
(1498258066.525980) can0 002#0014700C90000000
(1498258066.525984) can0 0D0#ECFF010000000000
(1498258066.525989) can0 0D1#00000080
(1498258066.526966) can0 0D2#0000FFFF10000000
(1498258066.526987) can0 0D3#884EC07E000032
(1498258066.526997) can0 0D4#0000000000000000
(1498258066.527000) can0 141#5626712700803800
(1498258066.527004) can0 144#C000067D5024A000
(1498258066.527934) can0 371#FFFF000080EA0000
(1498258066.527961) can0 156#0100000000000028
(1498258066.528065) can0 282#89F0008181033A00
(1498258066.529955) can0 374#0800000000000000
(1498258066.532891) can0 280#000C180000000000
(1498258066.536010) can0 140#0005004000001100
(1498258066.536047) can0 002#0014700E92000000
(1498258066.536054) can0 141#5626712700803800
(1498258066.537966) can0 370#FFFF200180030000
(1498258066.539958) can0 152#E17C000000000880
(1498258066.539995) can0 376#AD
(1498258066.544976) can0 140#0006004000001100
(1498258066.546030) can0 141#5626712700803800
(1498258066.546057) can0 002#0014700084000000
(1498258066.546074) can0 0D0#ECFF000000000000
(1498258066.546081) can0 0D1#00000080
(1498258066.546084) can0 0D2#0000FFFF10000000
(1498258066.547038) can0 0D3#084EC07E000033
(1498258066.547075) can0 0D4#0000000000000000
(1498258066.547079) can0 144#C000067D5024A000
(1498258066.547083) can0 371#FFFF000080EA0000
(1498258066.547956) can0 156#0100000000000028
(1498258066.551956) can0 280#000D180000000000
(1498258066.554898) can0 140#0007004000001100
(1498258066.555981) can0 141#5626712700803800
(1498258066.556008) can0 002#0014700286000000
(1498258066.556969) can0 284#C10E000E00000000
(1498258066.558966) can0 25C#2000000000000000
(1498258066.559987) can0 372#00B0030000000000
(1498258066.560027) can0 152#E18C000000000880
(1498258066.564965) can0 140#0008004000001100
(1498258066.565988) can0 141#5626712700803800
(1498258066.566013) can0 002#0014700488000000
(1498258066.566029) can0 0D0#ECFF000000000000
(1498258066.566033) can0 0D1#00000080
(1498258066.567044) can0 0D2#0000FFFF10000000
(1498258066.567071) can0 0D3#884EC07E000034
(1498258066.567087) can0 0D4#0000000000000000
(1498258066.567090) can0 144#C000067D5024A000
(1498258066.567956) can0 360#00004E562F000100
(1498258066.567982) can0 361#000124D168000000
(1498258066.568001) can0 362#67698900FFFFBD04
(1498258066.568008) can0 371#FFFF000080EB0000
(1498258066.568014) can0 156#0100000000000028
(1498258066.572953) can0 280#000E180000000000
(1498258066.574961) can0 140#0009004000001100
(1498258066.575981) can0 141#5626712700803800
(1498258066.576008) can0 002#001470068A000000
(1498258066.577968) can0 282#8900008181033A00
(1498258066.579969) can0 152#E99C000000000880
(1498258066.584976) can0 140#000A004000001100
(1498258066.586044) can0 141#5626712700803800
(1498258066.586070) can0 144#C000067D5024A000
(1498258066.586076) can0 002#001470098D000000
(1498258066.586093) can0 0D0#ECFF000000000000
(1498258066.586097) can0 0D1#00000080
(1498258066.586929) can0 0D2#0000FFFF10000000
(1498258066.586954) can0 0D3#084EC07E000035
(1498258066.586971) can0 0D4#0000000000000000
(1498258066.586976) can0 370#FFFF200180040000
(1498258066.587963) can0 371#FFFF000080EB0000
(1498258066.588980) can0 156#0100000000000028
(1498258066.589005) can0 3D1#96100000FD000000
(1498258066.589873) can0 376#AD
(1498258066.592955) can0 280#000F180000000000
(1498258066.594963) can0 140#000B004000001100
(1498258066.595979) can0 141#5626712700803800
(1498258066.596004) can0 002#0014700B8F000000
(1498258066.599970) can0 152#E9AC000000000880
(1498258066.603965) can0 6C8#1402000000000000
(1498258066.604928) can0 140#000C004000001100
(1498258066.606046) can0 141#5626712700803800
(1498258066.606074) can0 002#0014700D91000000
(1498258066.606090) can0 0D0#ECFF000000000000
(1498258066.606096) can0 0D1#00000080
(1498258066.606099) can0 0D2#0000FFFF10000000
(1498258066.606953) can0 0D3#084EC07E000036
(1498258066.606991) can0 0D4#0000000000000000
(1498258066.606995) can0 144#C000067D5024A000
(1498258066.606999) can0 371#FFFF000080EA0000
(1498258066.607965) can0 156#0100000000000028
(1498258066.612954) can0 280#0000180000000000
(1498258066.614961) can0 140#000D004000001100
(1498258066.616043) can0 141#5626712700803800
(1498258066.616071) can0 002#0014700F93000000
(1498258066.616087) can0 360#00004E562F000100
(1498258066.616092) can0 361#000124D169000000
(1498258066.616097) can0 362#676989007E6DBD04
(1498258066.618941) can0 25C#A100000000000000
(1498258066.619972) can0 152#E1BC000000000880
(1498258066.624981) can0 140#000E004000001100
(1498258066.625018) can0 141#5626712700803800
(1498258066.625984) can0 144#C000067D5024A000
(1498258066.626010) can0 002#0014700185000000
(1498258066.626027) can0 0D0#ECFF000000000000
(1498258066.626032) can0 0D1#00000080
(1498258066.627036) can0 0D2#0000FFFF10000000
(1498258066.627061) can0 0D3#884EC07E000037
(1498258066.627078) can0 0D4#0000000000000000
(1498258066.627082) can0 371#FFFF000080EA0000
(1498258066.627960) can0 156#0100000000000028
(1498258066.628964) can0 282#8910008181033A00
(1498258066.632915) can0 280#0001180000000000
(1498258066.633966) can0 370#FFFF200180050000
(1498258066.635981) can0 140#000F004000001100
(1498258066.636018) can0 141#5626712700803800
(1498258066.636022) can0 002#0014700387000000
(1498258066.639976) can0 152#E9CC000000000880
(1498258066.640014) can0 376#AD
(1498258066.644971) can0 140#0000004000001100
(1498258066.645987) can0 141#5626712700803800
(1498258066.646011) can0 002#0014700589000000
(1498258066.646028) can0 0D0#ECFF000000000000
(1498258066.646033) can0 0D1#00000080
(1498258066.646036) can0 0D2#0000FFFF10000000
(1498258066.647041) can0 0D3#884EC07E000038
(1498258066.647077) can0 0D4#0000000000000000
(1498258066.647082) can0 144#C000067D5024A000
(1498258066.647086) can0 371#FFFF000080EB0000
(1498258066.647953) can0 156#0100000000000028
(1498258066.652947) can0 280#0002180000000000
(1498258066.654971) can0 140#0001004000001100
(1498258066.655974) can0 141#5626712700803800
(1498258066.656002) can0 002#001470078B000000
(1498258066.656963) can0 284#C10F000E00000000
(1498258066.659955) can0 372#00C8030000000000
(1498258066.659993) can0 152#E1DC000000000880
(1498258066.664983) can0 140#0002004000001100
(1498258066.665020) can0 141#5626712700803800
(1498258066.665970) can0 144#C000067D5024A000
(1498258066.665997) can0 002#001470098D000000
(1498258066.666020) can0 0D0#ECFF000000000000
(1498258066.666027) can0 0D1#00000080
(1498258066.666030) can0 0D2#0000FFFF10000000
(1498258066.666960) can0 0D3#084EC07E000039
(1498258066.666997) can0 0D4#0000000000000000
(1498258066.667001) can0 360#00004E562F000100
(1498258066.667005) can0 361#000124D16A000000
(1498258066.667992) can0 362#5F6989B87E6DBD04
(1498258066.668029) can0 371#FFFF000080EA0000
(1498258066.668945) can0 156#0100000000000028
(1498258066.672949) can0 280#0003180000000000
(1498258066.674969) can0 140#0003004000001100
(1498258066.675974) can0 141#5626712700803800
(1498258066.675999) can0 002#0014700B8F000000
(1498258066.677968) can0 282#8A20008181033A00
(1498258066.678968) can0 25C#A200000000000000
(1498258066.679970) can0 152#E1EC000000000880
(1498258066.681965) can0 370#FFFF200180060000
(1498258066.684886) can0 140#0004004000001100
(1498258066.686044) can0 141#5626712700803800
(1498258066.686069) can0 002#0014700D91000000
(1498258066.686082) can0 0D0#ECFF000000000000
(1498258066.686085) can0 0D1#00000080
(1498258066.686087) can0 0D2#0000FFFF10000000
(1498258066.687039) can0 0D3#084EC07E00003A
(1498258066.687071) can0 0D4#0000000000000000
(1498258066.687075) can0 144#C000067D5024A000
(1498258066.687078) can0 371#FFFF000080EA0000
(1498258066.688915) can0 156#0100000000000028
(1498258066.688940) can0 3D1#96100000FD000000
(1498258066.689954) can0 376#AD
(1498258066.691957) can0 280#0004180000000000
(1498258066.694971) can0 140#0005004000001100
(1498258066.695004) can0 141#5626712700803800
(1498258066.695965) can0 002#0014700F93000000
(1498258066.699946) can0 152#E9FC000000000880
(1498258066.704882) can0 140#0006004000001100
(1498258066.704909) can0 141#5626712700803800
(1498258066.705931) can0 144#C000067D5024A000
(1498258066.705946) can0 002#0014700185000000
(1498258066.705961) can0 0D0#ECFF000000000000
(1498258066.705965) can0 0D1#00000080
(1498258066.705968) can0 0D2#0000FFFF10000000
(1498258066.706905) can0 0D3#884EC07E00003B
(1498258066.706918) can0 0D4#0000000000000000
(1498258066.706921) can0 371#FFFF000080EB0000
(1498258066.707907) can0 156#0100000000000028
(1498258066.712967) can0 280#0005180000000000
(1498258066.713001) can0 281#0000FCFC40000000
(1498258066.714949) can0 140#0007004000001100
(1498258066.714983) can0 141#5626712700803800
(1498258066.715955) can0 360#00004E562F000100
(1498258066.715975) can0 002#0014700387000000
(1498258066.715984) can0 361#000124D16B000000
(1498258066.715988) can0 362#5F6989B87E6DBD04
(1498258066.719931) can0 152#E90C000000000880
(1498258066.724968) can0 140#0008004000001100
(1498258066.725954) can0 141#5626712700803800
(1498258066.725977) can0 002#0014700589000000
(1498258066.725990) can0 0D0#ECFF000000000000
(1498258066.725994) can0 0D1#00000080
(1498258066.725996) can0 0D2#0000FFFF10000000
(1498258066.726017) can0 0D3#084EC07E00003C
(1498258066.727023) can0 0D4#0000000000000000
(1498258066.727050) can0 144#C000067D5024A000
(1498258066.727054) can0 371#FFFF000080EA0000
(1498258066.727948) can0 156#0100000000000028
(1498258066.728920) can0 282#8A30008181033A00
(1498258066.729961) can0 370#FFFF200180070000
(1498258066.732927) can0 280#0006180000000000
(1498258066.734948) can0 140#0009004000001100
(1498258066.735965) can0 141#5626712700803800
(1498258066.735990) can0 002#001470078B000000
(1498258066.738958) can0 25C#2300000000000000
(1498258066.739901) can0 152#E11C000000000880
(1498258066.739937) can0 376#AD
(1498258066.740064) can0 660#FFFF0BAC0000000E
(1498258066.744980) can0 140#000A004000001100
(1498258066.745013) can0 141#5626712700803800
(1498258066.746030) can0 144#C000067D5024A000
(1498258066.746056) can0 002#001470098D000000
(1498258066.746069) can0 371#FFFF000080EA0000
(1498258066.746072) can0 0D0#ECFF000000000000
(1498258066.746074) can0 0D1#00000080
(1498258066.746934) can0 0D2#0000FFFF10000000
(1498258066.746960) can0 0D3#884EC07E00003D
(1498258066.746972) can0 0D4#0000000000000000
(1498258066.747915) can0 156#0100000000000028
(1498258066.752945) can0 280#0007180000000000
(1498258066.754972) can0 140#000B004000001100
(1498258066.755005) can0 141#5626712700803800
(1498258066.755899) can0 002#0014700B8F000000
(1498258066.756962) can0 284#C100000E00000000
(1498258066.759918) can0 372#00D0030000000000
(1498258066.759949) can0 152#E12C000000000880
(1498258066.764971) can0 140#000C004000001100
(1498258066.765004) can0 141#5626712700803800
(1498258066.765946) can0 144#C000067D5024A000
(1498258066.765972) can0 002#0014700D91000000
(1498258066.765984) can0 0D0#ECFF000000000000
(1498258066.765987) can0 0D1#00000080
(1498258066.766973) can0 0D2#0000FFFF10000000
(1498258066.766999) can0 0D3#884EC07E00003E
(1498258066.767012) can0 0D4#0000000000000000
(1498258066.767015) can0 360#00004E562F000100
(1498258066.767018) can0 361#000124D16C000000
(1498258066.767893) can0 362#6B6989B87E6DBD04
(1498258066.767918) can0 371#FFFF000080EB0000
(1498258066.768912) can0 156#0100000000000028
(1498258066.772945) can0 280#0008180000000000
(1498258066.774973) can0 140#000D004000001100
(1498258066.775007) can0 141#5626712700803800
(1498258066.775922) can0 002#0014700F93000000
(1498258066.777967) can0 370#FFFF200180080000
(1498258066.777999) can0 282#8940008181033A00
(1498258066.779949) can0 152#E93C000000000880
(1498258066.784983) can0 140#000E004000001100
(1498258066.785015) can0 141#5626722700803800
(1498258066.785020) can0 144#C000067D5024A000
(1498258066.785984) can0 002#0014700185000000
(1498258066.786016) can0 371#FFFF000080EA0000
(1498258066.786022) can0 0D0#ECFF000000000000
(1498258066.786025) can0 0D1#00000080
(1498258066.786913) can0 0D2#0000FFFF10000000
(1498258066.786937) can0 0D3#084EC07E00003F
(1498258066.786949) can0 0D4#0000000000000000
(1498258066.788980) can0 156#0100000000000028
(1498258066.789005) can0 3D1#97100000FD000000
(1498258066.789951) can0 376#AD
(1498258066.792955) can0 280#0009180000000000
(1498258066.794960) can0 140#000F004000001100
(1498258066.794992) can0 141#5626712700803800
(1498258066.795901) can0 002#0014700387000000
(1498258066.798966) can0 25C#A400000000000000
(1498258066.799912) can0 152#E14C000000000880
(1498258066.804981) can0 140#0000004000001100
(1498258066.805013) can0 141#5626712700803800
(1498258066.805987) can0 144#C000067D5024A000
(1498258066.806012) can0 002#0014700589000000
(1498258066.806024) can0 0D0#ECFF000000000000
(1498258066.806027) can0 0D1#00000080
(1498258066.806029) can0 0D2#0000FFFF10000000
(1498258066.806993) can0 0D3#884EC07E000040
(1498258066.807023) can0 0D4#0000000000000000
(1498258066.807031) can0 371#FFFF000080EA0000
(1498258066.808947) can0 156#0100000000000028
(1498258066.812891) can0 280#000A180000000000
(1498258066.814974) can0 140#0001004000001100
(1498258066.815006) can0 141#5626712700803800
(1498258066.815990) can0 360#00004E562F000100
(1498258066.816014) can0 002#001470078B000000
(1498258066.816027) can0 361#000124D16D000000
(1498258066.816031) can0 362#6B6989B87E6DBD04
(1498258066.819965) can0 152#E95C000000000880
(1498258066.824993) can0 140#0002004000001100
(1498258066.825025) can0 141#5626712700803800
(1498258066.825029) can0 144#C000067D5024A000
(1498258066.825958) can0 370#FFFF200180090000
(1498258066.825988) can0 002#001470098D000000
(1498258066.825993) can0 0D0#ECFF000000000000
(1498258066.825996) can0 0D1#00000080
(1498258066.826947) can0 0D2#0000FFFF10000000
(1498258066.826972) can0 0D3#084EC07E000041
(1498258066.826984) can0 0D4#0000000000000000
(1498258066.826987) can0 371#FFFF000080EB0000
(1498258066.828971) can0 156#0100000000000028
(1498258066.828996) can0 282#8950008181033A00
(1498258066.832953) can0 280#000B180000000000
(1498258066.834973) can0 140#0003004000001100
(1498258066.835007) can0 141#5626722700803800
(1498258066.835957) can0 002#0014700B8F000000
(1498258066.839976) can0 152#E96C000000000880
(1498258066.840010) can0 376#AD
(1498258066.844987) can0 140#0004004000001100
(1498258066.845019) can0 141#5626712700803800
(1498258066.845958) can0 144#C000067D5024A000
(1498258066.845983) can0 002#0014700D91000000
(1498258066.845995) can0 0D0#ECFF000000000000
(1498258066.845998) can0 0D1#00000080
(1498258066.846001) can0 0D2#0000FFFF10000000
(1498258066.846960) can0 0D3#084EC07E000042
(1498258066.846991) can0 0D4#0000000000000000
(1498258066.846995) can0 371#FFFF000080EB0000
(1498258066.848957) can0 156#0100000000000028
(1498258066.852955) can0 280#000C180000000000
(1498258066.854980) can0 140#0005004000001100
(1498258066.855012) can0 141#5626712700803800
(1498258066.855964) can0 002#0014700F93000000
(1498258066.856963) can0 284#C101000E00000000
(1498258066.858943) can0 25C#2500000000000000
(1498258066.859983) can0 372#00E0030000000000
(1498258066.860016) can0 152#E17C000000000880
(1498258066.864979) can0 140#0006004000001100
(1498258066.865013) can0 141#5626712700803800
(1498258066.865016) can0 144#C000067D5024A000
(1498258066.866039) can0 360#00004E562F000100
(1498258066.866065) can0 002#0014700185000000
(1498258066.866077) can0 0D0#ECFF000000000000
(1498258066.866080) can0 0D1#00000080
(1498258066.866960) can0 0D2#0000FFFF10000000
(1498258066.866984) can0 0D3#884EC07E000043
(1498258066.866996) can0 0D4#0000000000000000
(1498258066.866999) can0 361#000124D16E000000
(1498258066.867003) can0 362#7F6989B87E6DBD04
(1498258066.867963) can0 371#FFFF000080EA0000
(1498258066.868967) can0 156#0100000000000028
(1498258066.872958) can0 280#000D180000000000
(1498258066.873877) can0 370#FFFF2001800A0000
(1498258066.874848) can0 140#0007004000001100
(1498258066.874862) can0 141#5626722700803800
(1498258066.875851) can0 002#0014700387000000
(1498258066.878948) can0 282#8860008181033A00
(1498258066.879965) can0 152#E18C000000000880
(1498258066.884923) can0 140#0008004000001100
(1498258066.884956) can0 141#5626712700803800
(1498258066.886027) can0 144#C000067D5024A000
(1498258066.886051) can0 002#0014700589000000
(1498258066.886066) can0 0D0#ECFF000000000000
(1498258066.886070) can0 0D1#00000080
(1498258066.886073) can0 0D2#0000FFFF10000000
(1498258066.886983) can0 0D3#084EC07E000044
(1498258066.887017) can0 0D4#0000000000000000
(1498258066.887021) can0 371#FFFF000080EA0000
(1498258066.888984) can0 156#0100000000000028
(1498258066.889008) can0 3D1#97100000FD000000
(1498258066.889950) can0 376#AD
(1498258066.892951) can0 280#000E180000000000
(1498258066.894978) can0 140#0009004000001100
(1498258066.895011) can0 141#5626712700803800
(1498258066.895967) can0 002#001470078B000000
(1498258066.899957) can0 152#E99C000000000880
(1498258066.904943) can0 140#000A004000001100
(1498258066.904966) can0 141#5626712700803800
(1498258066.904969) can0 144#C000067D5024A000
(1498258066.905929) can0 002#001470098D000000
(1498258066.905954) can0 371#FFFF000080EA0000
(1498258066.905958) can0 0D0#ECFF000000000000
(1498258066.905961) can0 0D1#00000080
(1498258066.906882) can0 0D2#0000FFFF10000000
(1498258066.906899) can0 0D3#884EC07E000045
(1498258066.906907) can0 0D4#0000000000000000
(1498258066.908873) can0 156#0100000000000028
(1498258066.912840) can0 280#000F180000000000
(1498258066.914906) can0 140#000B004000001100
(1498258066.914935) can0 141#5626712700803800
(1498258066.914939) can0 360#00004E562F000100
(1498258066.915959) can0 361#000124D16F000000
(1498258066.915991) can0 002#0014700B8F000000
(1498258066.915995) can0 362#7F6989B87E6DBD04
(1498258066.918938) can0 25C#2600000000000000
(1498258066.919904) can0 152#E9AC000000000880
(1498258066.921942) can0 370#FFFF2001800B0000
(1498258066.924958) can0 140#000C004000001100
(1498258066.924991) can0 141#5626712700803800
(1498258066.924994) can0 144#C000067D5024A000
(1498258066.925930) can0 002#0014700D91000000
(1498258066.925966) can0 371#FFFF000080EB0000
(1498258066.925971) can0 0D0#ECFF000000000000
(1498258066.925974) can0 0D1#00000080
(1498258066.926958) can0 0D2#0000FFFF10000000
(1498258066.926983) can0 0D3#884EC07E000046
(1498258066.926995) can0 0D4#0000000000000000
(1498258066.928923) can0 156#0100000000000028
(1498258066.928953) can0 282#8870008181033A00
(1498258066.932938) can0 280#0000180000000000
(1498258066.934965) can0 140#000D004000001100
(1498258066.934995) can0 141#5626722700803800
(1498258066.935924) can0 002#0014700F93000000
(1498258066.939925) can0 152#E1BC000000000880
(1498258066.939953) can0 376#AD
(1498258066.945019) can0 140#000E004000001100
(1498258066.945048) can0 141#5626712700803800
(1498258066.945053) can0 144#C000067D5024A000
(1498258066.945950) can0 371#FFFF000080EB0000
(1498258066.945971) can0 002#0014700185000000
(1498258066.945984) can0 0D0#ECFF000000000000
(1498258066.945987) can0 0D1#00000080
(1498258066.946966) can0 0D2#0000FFFF10000000
(1498258066.946987) can0 0D3#084EC07E000047
(1498258066.946999) can0 0D4#0000000000000000
(1498258066.948943) can0 156#0100000000000028
(1498258066.952944) can0 280#0001180000000000
(1498258066.954947) can0 140#000F004000001100
(1498258066.954979) can0 141#5626712700803800
(1498258066.955931) can0 002#0014700387000000
(1498258066.956950) can0 284#C102000E00000000
(1498258066.959946) can0 372#00F8030000000000
(1498258066.959976) can0 152#E9CC000000000880
(1498258066.964974) can0 140#0000004000001100
(1498258066.965004) can0 141#5626712700803800
(1498258066.965964) can0 144#C000067D5024A000
(1498258066.965990) can0 002#0014700589000000
(1498258066.966006) can0 0D0#ECFF000000000000
(1498258066.966013) can0 0D1#00000080
(1498258066.966017) can0 0D2#0000FFFF10000000
(1498258066.966131) can0 0D3#084EC07E000048
(1498258066.966983) can0 0D4#0000000000000000
(1498258066.967012) can0 360#00004E562F000100
(1498258066.967017) can0 361#000124D160000000
(1498258066.967957) can0 362#B06989B87E6DBD04
(1498258066.967987) can0 371#FFFF000080EA0000
(1498258066.968951) can0 156#0100000000000028
(1498258066.969952) can0 370#FFFF2001800C0000
(1498258066.972945) can0 280#0002180000000000
(1498258066.974946) can0 140#0001004000001100
(1498258066.974980) can0 141#5626712700803800
(1498258066.975941) can0 002#001470078B000000
(1498258066.978959) can0 282#8A80008181033A00
(1498258066.978990) can0 25C#A700000000000000
(1498258066.979957) can0 152#E1DC000000000880
(1498258066.984942) can0 140#0002004000001100
(1498258066.984973) can0 141#5626712700803800
(1498258066.984976) can0 144#C000067D5024A000
(1498258066.985981) can0 371#FFFF000080EB0000
(1498258066.986011) can0 002#001470098D000000
(1498258066.986016) can0 0D0#ECFF000000000000
(1498258066.986019) can0 0D1#00000080
(1498258066.986022) can0 0D2#0000FFFF10000000
(1498258066.986913) can0 0D3#884EC07E000049
(1498258066.986942) can0 0D4#0000000000000000
(1498258066.988973) can0 156#0100000000000028
(1498258066.988997) can0 3D1#97100000FD000000
(1498258066.989941) can0 376#AD
(1498258066.992943) can0 280#0003180000000000
(1498258066.994966) can0 140#0003004000001100
(1498258066.994998) can0 141#5626722700803800
(1498258066.995955) can0 002#0014700B8F000000
(1498258066.998952) can0 6D1#7835020000000000
(1498258066.999956) can0 152#E1EC000000000880
(1498258067.005030) can0 140#0004004000001100
(1498258067.005059) can0 141#5626712700803800
(1498258067.005063) can0 144#C000067D5024A000
(1498258067.005944) can0 371#FFFF000080EA0000
(1498258067.005975) can0 002#0014700D91000000
(1498258067.005980) can0 0D0#ECFF000000000000
(1498258067.005983) can0 0D1#00000080
(1498258067.005987) can0 0D2#0000FFFF10000000
(1498258067.006944) can0 0D3#884EC07E00004A
(1498258067.006978) can0 0D4#0000000000000000
(1498258067.008949) can0 156#0100000000000028
(1498258067.012935) can0 280#0004180000000000
(1498258067.014926) can0 140#0005004000001100
(1498258067.014961) can0 141#5626712700803800
(1498258067.014964) can0 360#00004E562F000100
(1498258067.015962) can0 361#000124D161000000
(1498258067.015995) can0 002#0014700F93000000
(1498258067.015999) can0 362#B06989B87E6DBC04
(1498258067.017879) can0 370#FFFF2001800D0000
(1498258067.019865) can0 152#E9FC000000000880
(1498258067.024901) can0 140#0006004000001100
(1498258067.024916) can0 141#5626722700803800
(1498258067.024921) can0 144#C000067D5024A000
(1498258067.025027) can0 371#FFFF000080EA0000
(1498258067.025947) can0 002#0014700185000000
(1498258067.025974) can0 0D0#ECFF000000000000
(1498258067.025978) can0 0D1#00000080
(1498258067.025982) can0 0D2#0000FFFF10000000
(1498258067.026960) can0 0D3#084EC07E00004B
(1498258067.026992) can0 0D4#0000000000000000
(1498258067.028940) can0 156#0100000000000028
(1498258067.028963) can0 282#8A90008181033A00
(1498258067.032939) can0 280#0005180000000000
(1498258067.034939) can0 140#0007004000001100
(1498258067.034967) can0 141#5626712700803800
(1498258067.035954) can0 002#0014700387000000
(1498258067.038951) can0 25C#2000000000000000
(1498258067.039960) can0 152#E90C000000000880
(1498258067.039990) can0 376#AD
(1498258067.044974) can0 140#0008004000001100
(1498258067.045012) can0 141#5626712700803800
(1498258067.045018) can0 144#C000067D5024A000
(1498258067.045982) can0 002#0014700589000000
(1498258067.046013) can0 371#FFFF000080EA0000
(1498258067.046017) can0 0D0#ECFF000000000000
(1498258067.046020) can0 0D1#00000080
(1498258067.046960) can0 0D2#0000FFFF10000000
(1498258067.046982) can0 0D3#884EC07E00004C
(1498258067.046994) can0 0D4#0000000000000000
(1498258067.048956) can0 156#0100000000000028
(1498258067.052870) can0 280#0006180000000000
(1498258067.054906) can0 140#0009004000001100
(1498258067.054937) can0 141#5626712700803800
(1498258067.055867) can0 002#001470078B000000
(1498258067.056854) can0 284#C103000E00000000
(1498258067.059877) can0 372#0008030000000000
(1498258067.059893) can0 152#E11C000000000880
(1498258067.065034) can0 378#3100000000000000
(1498258067.065064) can0 140#000A004000001100
(1498258067.065069) can0 141#5626722700803800
(1498258067.065072) can0 144#C000067D5024A000
(1498258067.065077) can0 360#00004E562F000100
(1498258067.066029) can0 002#001470098D000000
(1498258067.066059) can0 0D0#ECFF000000000000
(1498258067.066062) can0 0D1#00000080
(1498258067.066065) can0 0D2#0000FFFF10000000
(1498258067.066919) can0 0D3#084EC07E00004D
(1498258067.066959) can0 0D4#0000000000000000
(1498258067.066964) can0 361#000124D162000000
(1498258067.066972) can0 362#C66989B87E6DBC04
(1498258067.067962) can0 370#FFFF2001800E0000
(1498258067.067993) can0 371#FFFF000080EB0000
(1498258067.068941) can0 156#0100000000000028
(1498258067.072959) can0 280#0007180000000000
(1498258067.074970) can0 140#000B004000001100
(1498258067.075001) can0 141#5626712700803800
(1498258067.075948) can0 002#0014700B8F000000
(1498258067.078954) can0 282#89A0008181033A00
(1498258067.079944) can0 152#E12C000000000880
(1498258067.084976) can0 140#000C004000001100
(1498258067.085013) can0 141#5626722700803800
(1498258067.085021) can0 144#C000067D5024A000
(1498258067.085027) can0 371#FFFF000080EA0000
(1498258067.085956) can0 002#0014700D91000000
(1498258067.085986) can0 0D0#ECFF000000000000
(1498258067.085989) can0 0D1#00000080
(1498258067.085991) can0 0D2#0000FFFF10000000
(1498258067.086962) can0 0D3#084EC07E00004E
(1498258067.086993) can0 0D4#0000000000000000
(1498258067.088970) can0 156#0100000000000028
(1498258067.088991) can0 3D1#97100000FD000000
(1498258067.089938) can0 376#AD
(1498258067.092958) can0 280#0008180000000000
(1498258067.094968) can0 140#000D004000001100
(1498258067.094998) can0 141#5626722700803800
(1498258067.095948) can0 002#0014700F93000000
(1498258067.098933) can0 25C#A100000000000000
(1498258067.099920) can0 152#E93C000000000880
(1498258067.104947) can0 140#000E004000001100
(1498258067.104969) can0 141#5626722700803800
(1498258067.104972) can0 144#C000067D5024A000
(1498258067.105901) can0 371#FFFF000080EA0000
(1498258067.105917) can0 002#0014700185000000
(1498258067.105930) can0 0D0#ECFF000000000000
(1498258067.105934) can0 0D1#00000080
(1498258067.105938) can0 0D2#0000FFFF10000000
(1498258067.106870) can0 0D3#884EC07E00004F
(1498258067.106886) can0 0D4#0000000000000000
(1498258067.108953) can0 156#0100000000000028
(1498258067.112944) can0 280#0009180000000000
(1498258067.113884) can0 370#FFFF2001800F0000
(1498258067.115011) can0 140#000F004000001100
(1498258067.115045) can0 141#5626722700803800
(1498258067.115048) can0 360#00004E562F000100
(1498258067.115051) can0 361#000124D163000000
(1498258067.115949) can0 362#C66989B87E6DBC04
(1498258067.115976) can0 002#0014700387000000
(1498258067.119921) can0 152#E14C000000000880
(1498258067.125023) can0 140#0000004000001100
(1498258067.125055) can0 141#5626712700803800
(1498258067.125059) can0 144#C000067D5024A000
(1498258067.126027) can0 371#FFFF000080EA0000
(1498258067.126054) can0 002#0014700589000000
(1498258067.126073) can0 0D0#ECFF000000000000
(1498258067.126079) can0 0D1#00000080
(1498258067.126084) can0 0D2#0000FFFF10000000
(1498258067.126088) can0 0D3#084EC07E000050
(1498258067.126884) can0 0D4#0000000000000000
(1498258067.128916) can0 156#0100000000000028
(1498258067.128938) can0 282#89B0008181033A00
(1498258067.132952) can0 280#000A180000000000
(1498258067.134876) can0 140#0001004000001100
(1498258067.134908) can0 141#5626712700803800
(1498258067.135849) can0 002#001470078B000000
(1498258067.139892) can0 152#E95C000000000880
(1498258067.139921) can0 376#AD
(1498258067.143969) can0 140#0002004000001100
(1498258067.144952) can0 141#5626712700803800
(1498258067.144983) can0 144#C000067D5024A000
(1498258067.145917) can0 371#FFFF000080EA0000
(1498258067.145964) can0 002#001470098D000000
(1498258067.145986) can0 0D0#ECFF000000000000
(1498258067.145991) can0 0D1#00000080
(1498258067.145997) can0 0D2#0000FFFF10000000
(1498258067.146920) can0 0D3#884EC07E000051
(1498258067.146953) can0 0D4#0000000000000000
(1498258067.148929) can0 156#0100000000000028
(1498258067.152939) can0 280#000B180000000000
(1498258067.154877) can0 140#0003004000001100
(1498258067.154913) can0 141#5626712700803800
(1498258067.155850) can0 002#0014700B8F000000
(1498258067.156851) can0 284#C104000E00000000
(1498258067.158945) can0 25C#A200000000000000
(1498258067.159906) can0 372#0010030000000000
(1498258067.159932) can0 152#E96C000000000880
(1498258067.161945) can0 370#FFFF200180000000
(1498258067.164941) can0 140#0004004000001100
(1498258067.164974) can0 141#5626722700803800
(1498258067.164978) can0 144#C000067D5024A000
(1498258067.166027) can0 360#00004E562F000100
(1498258067.166053) can0 002#0014700D91000000
(1498258067.166066) can0 0D0#ECFF000000000000
(1498258067.166069) can0 0D1#00000080
(1498258067.166071) can0 0D2#0000FFFF10000000
(1498258067.167027) can0 0D3#884EC07E000052
(1498258067.167061) can0 0D4#0000000000000000
(1498258067.167065) can0 361#000124D164000000
(1498258067.167069) can0 362#D56989B87E6DBC04
(1498258067.167926) can0 371#FFFF000080EB0000
(1498258067.168957) can0 156#0100000000000028
(1498258067.170939) can0 37A#0000000000040000
(1498258067.172956) can0 280#000C180000000000
(1498258067.174967) can0 140#0005004000001100
(1498258067.174999) can0 141#5626712700803800
(1498258067.175917) can0 002#0014700F93000000
(1498258067.178941) can0 282#89C0008181033A00
(1498258067.179922) can0 152#E17C000000000880
(1498258067.184967) can0 140#0006004000001100
(1498258067.185001) can0 141#5626722700803800
(1498258067.185005) can0 144#C000067D5024A000
(1498258067.185953) can0 371#FFFF000080EA0000
(1498258067.185987) can0 002#0014700185000000
(1498258067.185992) can0 0D0#0E00000000000000
(1498258067.185996) can0 0D1#00000080
(1498258067.186984) can0 0D2#0000FFFF10000000
(1498258067.187011) can0 0D3#084EC07E000053
(1498258067.187022) can0 0D4#0000000000000000
(1498258067.188953) can0 156#0100000000000028
(1498258067.188979) can0 3D1#97100000FD000000
(1498258067.189949) can0 376#AD
(1498258067.192968) can0 280#000D180000000000
(1498258067.194947) can0 140#0007004000001100
(1498258067.194981) can0 141#5626722700803800
(1498258067.195965) can0 002#0014700387000000
(1498258067.199952) can0 152#E18C000000000880
(1498258067.205037) can0 140#0008004000001100
(1498258067.205069) can0 141#5626722700803800
(1498258067.205073) can0 144#C000067D5024A000
(1498258067.205075) can0 371#FFFF000080EB0000
(1498258067.205963) can0 002#0014700589000000
(1498258067.205997) can0 0D0#0E00000000000000
(1498258067.206001) can0 0D1#00000080
(1498258067.206985) can0 0D2#0000FFFF10000000
(1498258067.207010) can0 0D3#884EC07E000054
(1498258067.207022) can0 0D4#0000000000000000
(1498258067.208973) can0 156#0100000000000028
(1498258067.209948) can0 370#FFFF200180010000
(1498258067.212903) can0 280#000E180000000000
(1498258067.215051) can0 140#0009004000001100
(1498258067.215084) can0 141#5626722700803800
(1498258067.215092) can0 360#00004E562F000100
(1498258067.215095) can0 361#000124D165000000
(1498258067.215099) can0 362#D56989B87E6DBC04
(1498258067.215924) can0 002#001470078B000000
(1498258067.218960) can0 25C#2300000000000000
(1498258067.219962) can0 152#E99C000000000880
(1498258067.223957) can0 140#000A004000001100
(1498258067.224962) can0 141#5626722700803800
(1498258067.224988) can0 144#C000067D5024A000
(1498258067.225964) can0 371#FFFF000080EA0000
(1498258067.225998) can0 002#001470098D000000
(1498258067.226003) can0 0D0#0E00000000000000
(1498258067.226006) can0 0D1#00000080
(1498258067.226951) can0 0D2#0000FFFF10000000
(1498258067.226978) can0 0D3#084EC07E000055
(1498258067.226991) can0 0D4#0000000000000000
(1498258067.228978) can0 156#0100000000000028
(1498258067.229004) can0 282#89D0008181033A00
(1498258067.232965) can0 280#000F180000000000
(1498258067.234911) can0 140#000B004000001100
(1498258067.234946) can0 141#5626722700803800
(1498258067.235960) can0 002#0014700B8F000000
(1498258067.239970) can0 152#E9AC000000000880
(1498258067.240002) can0 376#AD
(1498258067.240948) can0 660#FFFF0BAC00000013
(1498258067.244967) can0 140#000C004000001100
(1498258067.245003) can0 141#5626722700803800
(1498258067.245006) can0 144#C000067D5024A000
(1498258067.245009) can0 371#FFFF000080EA0000
(1498258067.245935) can0 002#0014700D91000000
(1498258067.245973) can0 0D0#0E00000000000000
(1498258067.245977) can0 0D1#00000080
(1498258067.246919) can0 0D2#0000FFFF10000000
(1498258067.246943) can0 0D3#084EC07E000056
(1498258067.246953) can0 0D4#0000000000000000
(1498258067.248963) can0 156#0100000000000028
(1498258067.252964) can0 280#0000180000000000
(1498258067.254942) can0 140#000D004000001100
(1498258067.254975) can0 141#5626722700803800
(1498258067.255947) can0 002#0014700F93000000
(1498258067.256963) can0 284#C105000E00000000
(1498258067.257952) can0 370#FFFF200180020000
(1498258067.258933) can0 372#0020030000000000
(1498258067.259961) can0 152#E1BC000000000880
(1498258067.264946) can0 140#000E004000001100
(1498258067.264980) can0 141#5626722700803800
(1498258067.264984) can0 144#C000067D5024A000
(1498258067.264986) can0 360#00004E562F000100
(1498258067.264989) can0 361#000124D166000000
(1498258067.265975) can0 002#0014700185000000
(1498258067.266008) can0 362#DE6989B87E6DBC04
(1498258067.266014) can0 371#FFFF000080EA0000
(1498258067.266017) can0 0D0#0E00000000000000
(1498258067.267008) can0 0D1#00000080
(1498258067.267034) can0 0D2#0000FFFF10000000
(1498258067.267038) can0 0D3#884EC07E000057
(1498258067.267048) can0 0D4#0000000000000000
(1498258067.268957) can0 156#0100000000000028
(1498258067.272963) can0 280#0001180000000000
(1498258067.274945) can0 140#000F004000001100
(1498258067.274979) can0 141#5626722700803800
(1498258067.275954) can0 002#0014700387000000
(1498258067.278968) can0 25C#A400000000000000
(1498258067.279002) can0 282#89E0008181033A00
(1498258067.279966) can0 152#E9CC000000000880
(1498258067.284032) can0 140#0000004000001100
(1498258067.284940) can0 141#5626722700803800
(1498258067.284963) can0 144#C000067D5024A000
(1498258067.284967) can0 371#FFFF000080EA0000
(1498258067.285949) can0 002#0014700589000000
(1498258067.285981) can0 0D0#0E00000000000000
(1498258067.285985) can0 0D1#00000080
(1498258067.286975) can0 0D2#0000FFFF10000000
(1498258067.287002) can0 0D3#884EC07E000058
(1498258067.287013) can0 0D4#0000000000000000
(1498258067.288960) can0 156#0100000000000028
(1498258067.288986) can0 3D1#97100000FD000000
(1498258067.289952) can0 376#AD
(1498258067.292973) can0 280#0002180000000000
(1498258067.294960) can0 140#0001004000001100
(1498258067.294991) can0 141#5626722700803800
(1498258067.295958) can0 002#001470078B000000
(1498258067.299897) can0 152#E1DC000000000880
(1498258067.303881) can0 140#0002004000001100
(1498258067.304890) can0 141#5626722700803800
(1498258067.304903) can0 144#C000067D5024A000
(1498258067.304908) can0 370#FFFF200180030000
(1498258067.305902) can0 002#001470098D000000
(1498258067.305921) can0 371#FFFF000080EA0000
(1498258067.305926) can0 0D0#0E00000000000000
(1498258067.305929) can0 0D1#00000080
(1498258067.306895) can0 0D2#0000FFFF10000000
(1498258067.306910) can0 0D3#084EC07E000059
(1498258067.306918) can0 0D4#0000000000000000
(1498258067.308928) can0 156#0100000000000028
(1498258067.312938) can0 280#0003180000000000
(1498258067.313939) can0 140#0003004000001100
(1498258067.314950) can0 141#5626722700803800
(1498258067.314968) can0 360#00004E562F000100
(1498258067.314974) can0 361#000124D167000000
(1498258067.314986) can0 362#DE6989B87E6DBC04
(1498258067.315894) can0 002#0014700B8F000000
(1498258067.319914) can0 152#E1EC000000000880
(1498258067.323906) can0 140#0004004000001100
(1498258067.324918) can0 141#5626722700803800
(1498258067.324945) can0 144#C000067D5024A000
(1498258067.325961) can0 371#FFFF000080EA0000
(1498258067.325990) can0 002#0014700D91000000
(1498258067.326002) can0 0D0#0E00000000000000
(1498258067.326005) can0 0D1#00000080
(1498258067.326948) can0 0D2#0000FFFF10000000
(1498258067.326979) can0 0D3#084EC07E00005A
(1498258067.326991) can0 0D4#0000000000000000
(1498258067.328856) can0 156#0100000000000028
(1498258067.328883) can0 282#89F0008181033A00
(1498258067.329943) can0 375#0300000120000200
(1498258067.332942) can0 280#0004180000000000
(1498258067.333906) can0 140#0005004000001100
(1498258067.334861) can0 141#5626722700803800
(1498258067.335902) can0 002#0014700F93000000
(1498258067.338920) can0 25C#2500000000000000
(1498258067.339949) can0 152#E9FC000000000880
(1498258067.339984) can0 376#AD
(1498258067.343883) can0 140#0006004000001100
(1498258067.344900) can0 141#5626722700803800
(1498258067.344918) can0 144#C000067D5024A000
(1498258067.344921) can0 371#FFFF000080EB0000
(1498258067.345921) can0 002#0014700185000000
(1498258067.345949) can0 0D0#0E00000000000000
(1498258067.345953) can0 0D1#00000080
(1498258067.346932) can0 0D2#0000FFFF10000000
(1498258067.346960) can0 0D3#8046C04E00005B
(1498258067.346972) can0 0D4#0000000000000000
(1498258067.348942) can0 156#0100000000000028
(1498258067.352949) can0 280#0005180000000000
(1498258067.353939) can0 370#FFFF200180040000
(1498258067.353977) can0 140#0007004000001100
(1498258067.354912) can0 141#5626722700803800
(1498258067.355895) can0 002#0014700387000000
(1498258067.356918) can0 284#C106000E00000000
(1498258067.358936) can0 372#0038030000000000
(1498258067.359899) can0 152#E90C000000000880
(1498258067.364963) can0 140#0008004000001100
(1498258067.364998) can0 141#5626722700803800
(1498258067.365002) can0 144#C000067D5024A000
(1498258067.365005) can0 360#00004E562F000100
(1498258067.365008) can0 361#000124D168000000
(1498258067.365939) can0 002#0014700589000000
(1498258067.365978) can0 362#1E6A89B87E6DBC04
(1498258067.365982) can0 0D0#0E00000000000000
(1498258067.365985) can0 0D1#00000080
(1498258067.367012) can0 0D2#0000FFFF10000000
(1498258067.367040) can0 0D3#0046C04E00005C
(1498258067.367051) can0 0D4#0000000000000000
(1498258067.367054) can0 371#FFFF000080EA0000
(1498258067.368940) can0 156#0100000000000028
(1498258067.372943) can0 280#0006180000000000
(1498258067.374957) can0 140#0009004000001100
(1498258067.374993) can0 141#5626722700803800
(1498258067.375933) can0 002#001470078B000000
(1498258067.378932) can0 282#8900008181033A00
(1498258067.379944) can0 152#E11C000000000880
(1498258067.383954) can0 140#000A004000001100
(1498258067.383989) can0 141#5626722700803800
(1498258067.384891) can0 144#C000067D5024A000
(1498258067.384915) can0 371#FFFF000080EA0000
(1498258067.385928) can0 002#001470098D000000
(1498258067.385962) can0 0D0#0E00000000000000
(1498258067.385965) can0 0D1#00000080
(1498258067.386944) can0 0D2#0000FFFF10000000
(1498258067.386970) can0 0D3#8046C04E00005D
(1498258067.386981) can0 0D4#0000000000000000
(1498258067.388941) can0 156#0100000000000028
(1498258067.388973) can0 3D1#96100000FD000000
(1498258067.389927) can0 376#AD
(1498258067.392944) can0 280#0007180000000000
(1498258067.393945) can0 140#000B004000001100
(1498258067.394928) can0 141#5626722700803800
(1498258067.395936) can0 002#0014700B8F000000
(1498258067.398890) can0 25C#2600000000000000
(1498258067.399939) can0 152#E12C000000000880
(1498258067.400933) can0 370#FFFF200180050000
(1498258067.403921) can0 140#000C004000001100
(1498258067.404951) can0 141#5626712700803800
(1498258067.404984) can0 144#C000067D5024A000
(1498258067.404988) can0 371#FFFF000080EA0000
(1498258067.405957) can0 002#0014700D91000000
(1498258067.405992) can0 0D0#0E00000000000000
(1498258067.405996) can0 0D1#00000080
(1498258067.406956) can0 0D2#0000FFFF10000000
(1498258067.406983) can0 0D3#8046C04E00005E
(1498258067.406994) can0 0D4#0000000000000000
(1498258067.408944) can0 156#0100000000000028
(1498258067.412947) can0 280#0008180000000000
(1498258067.413939) can0 140#000D004000001100
(1498258067.414918) can0 141#5626712700803800
(1498258067.414949) can0 360#00004E562F000100
(1498258067.414952) can0 361#000124D169000000
(1498258067.414963) can0 362#1E6A89B87E6DBC04
(1498258067.415853) can0 002#0014700F93000000
(1498258067.419964) can0 152#E93C000000000880
(1498258067.423975) can0 140#000E004000001100
(1498258067.424011) can0 141#5626722700803800
(1498258067.424904) can0 144#C000067D5024A000
(1498258067.424928) can0 371#FFFF000080EA0000
(1498258067.425974) can0 002#0014700185000000
(1498258067.426007) can0 0D0#0E00000000000000
(1498258067.426014) can0 0D1#00000080
(1498258067.426961) can0 0D2#0000FFFF10000000
(1498258067.426985) can0 0D3#0046C04E00005F
(1498258067.426998) can0 0D4#0000000000000000
(1498258067.428982) can0 156#0100000000000028
(1498258067.429007) can0 282#8910008181033A00
(1498258067.432964) can0 280#0009180000000000
(1498258067.433962) can0 140#000F004000001100
(1498258067.434900) can0 141#5626722700803800
(1498258067.435886) can0 002#0014700387000000
(1498258067.439969) can0 152#E14C000000000880
(1498258067.440003) can0 376#AD
(1498258067.443968) can0 140#0000004000001100
(1498258067.444956) can0 141#5626722700803800
(1498258067.444979) can0 144#C000067D5024A000
(1498258067.444983) can0 371#FFFF000080EA0000
(1498258067.445977) can0 002#0014700589000000
(1498258067.446011) can0 0D0#0E00000000000000
(1498258067.446017) can0 0D1#00000080
(1498258067.446976) can0 0D2#0000FFFF10000000
(1498258067.447000) can0 0D3#0046C04E000060
(1498258067.447013) can0 0D4#0000000000000000
(1498258067.448977) can0 156#0100000000000028
(1498258067.449001) can0 370#FFFF200180060000
(1498258067.452957) can0 280#000A180000000000
(1498258067.453964) can0 140#0001004000001100
(1498258067.454946) can0 141#5626722700803800
(1498258067.455949) can0 002#001470078B000000
(1498258067.456955) can0 284#C107000E00000000
(1498258067.458972) can0 25C#A700000000000000
(1498258067.459005) can0 372#0040030000000000
(1498258067.459964) can0 152#E95C000000000880
(1498258067.463930) can0 140#0002004000001100
(1498258067.464954) can0 141#5626722700803800
(1498258067.464981) can0 144#C000067D5024A000
(1498258067.464984) can0 360#00004E562F000100
(1498258067.464987) can0 361#000124D16A000000
(1498258067.464997) can0 362#966A89B87E6DBC04
(1498258067.465908) can0 002#001470098D000000
(1498258067.465945) can0 371#FFFF000080EA0000
(1498258067.465949) can0 0D0#0E00000000000000
(1498258067.465952) can0 0D1#00000080
(1498258067.466941) can0 0D2#0000FFFF10000000
(1498258067.466969) can0 0D3#8046C04E000061
(1498258067.466980) can0 0D4#0000000000000000
(1498258067.468929) can0 156#0100000000000028
(1498258067.472907) can0 280#000B180000000000
(1498258067.473844) can0 140#0003004000001100
(1498258067.473874) can0 141#5626722700803800
(1498258067.475932) can0 002#0014700B8F000000
(1498258067.478943) can0 282#8920008181033A00
(1498258067.479936) can0 152#E96C000000000880
(1498258067.483887) can0 140#0004004000001100
(1498258067.484915) can0 141#5626722700803800
(1498258067.484939) can0 144#C000067D5024A000
(1498258067.484942) can0 371#FFFF000080EA0000
(1498258067.485929) can0 002#0014700D91000000
(1498258067.485967) can0 0D0#0E00000000000000
(1498258067.485970) can0 0D1#00000080
(1498258067.486943) can0 0D2#0000FFFF10000000
(1498258067.486967) can0 0D3#8046C04E000062
(1498258067.486979) can0 0D4#0000000000000000
(1498258067.488945) can0 156#0100000000000028
(1498258067.489934) can0 3D1#97100000FD000000
(1498258067.489967) can0 376#AD
(1498258067.492946) can0 280#000C180000000000
(1498258067.493949) can0 140#0005004000001100
(1498258067.493987) can0 141#5626722700803800
(1498258067.495934) can0 002#0014700F93000000
(1498258067.496921) can0 370#FFFF200180070000
(1498258067.499878) can0 152#E17C000000000880
(1498258067.503863) can0 140#0006004000001100
(1498258067.503897) can0 141#5626722700803800
(1498258067.504869) can0 144#C000067D5024A000
(1498258067.504883) can0 371#FFFF000080EA0000
(1498258067.505894) can0 002#0014700185000000
(1498258067.505922) can0 0D0#0E00000000000000
(1498258067.505926) can0 0D1#00000080
(1498258067.506908) can0 0D2#0000FFFF10000000
(1498258067.506928) can0 0D3#0046C04E000063
(1498258067.506939) can0 0D4#0000000000000000
(1498258067.508936) can0 156#0100000000000028
(1498258067.512924) can0 280#000D180000000000
(1498258067.513971) can0 140#0007004000001100
(1498258067.514002) can0 141#5626712700803800
(1498258067.514940) can0 360#00004E562F000100
(1498258067.514963) can0 361#000124D16B000000
(1498258067.514974) can0 362#966A89B87E6DBC04
(1498258067.515889) can0 002#0014700387000000
(1498258067.518938) can0 25C#2000000000000000
(1498258067.519923) can0 152#E18C000000000880
(1498258067.523956) can0 140#0008004000001100
(1498258067.523985) can0 141#5626722700803800
(1498258067.524942) can0 144#C000067D5024A000
(1498258067.524964) can0 371#FFFF000080EA0000
(1498258067.525968) can0 002#0014700589000000
(1498258067.525997) can0 0D0#0E00000000000000
(1498258067.526001) can0 0D1#00000080
(1498258067.526960) can0 0D2#0000FFFF10000000
(1498258067.526982) can0 0D3#8046C04E000064
(1498258067.526994) can0 0D4#0000000000000000
(1498258067.528958) can0 156#0100000000000028
(1498258067.528988) can0 282#8930008181033A00
(1498258067.529949) can0 374#0800000000000000
(1498258067.532952) can0 280#000E180000000000
(1498258067.533922) can0 140#0009004000001100
(1498258067.533952) can0 141#5626722700803800
(1498258067.535896) can0 002#001470078B000000
(1498258067.539959) can0 152#E99C000000000880
(1498258067.539989) can0 376#AD
(1498258067.543974) can0 140#000A004000001100
(1498258067.544005) can0 141#5626722700803800
(1498258067.544008) can0 144#C000067D5024A000
(1498258067.544946) can0 370#FFFF200180080000
(1498258067.546022) can0 002#001470098D000000
(1498258067.546051) can0 371#FFFF000080EA0000
(1498258067.546055) can0 0D0#0E00000000000000
(1498258067.546059) can0 0D1#00000080
(1498258067.546911) can0 0D2#0000FFFF10000000
(1498258067.546933) can0 0D3#0046C04E000065
(1498258067.546945) can0 0D4#0000000000000000
(1498258067.548953) can0 156#0100000000000028
(1498258067.552953) can0 280#000F180000000000
(1498258067.553957) can0 140#000B004000001100
(1498258067.553987) can0 141#5626722700803800
(1498258067.555944) can0 002#0014700B8F000000
(1498258067.557933) can0 284#C108000E00000000
(1498258067.558947) can0 372#0058030000000000
(1498258067.559908) can0 152#E9AC000000000880
(1498258067.563958) can0 140#000C004000001100
(1498258067.565032) can0 141#5626722700803800
(1498258067.565054) can0 144#C000067D5024A000
(1498258067.565057) can0 360#00004E562F000100
(1498258067.565060) can0 361#000124D16C000000
(1498258067.565072) can0 362#3A6B89B87E6DBC04
(1498258067.565949) can0 002#0014700D91000000
(1498258067.565979) can0 371#FFFF000080EB0000
(1498258067.565983) can0 0D0#0E00000000000000
(1498258067.565987) can0 0D1#00000080
(1498258067.566970) can0 0D2#0000FFFF10000000
(1498258067.566994) can0 0D3#0046C04E000066
(1498258067.567009) can0 0D4#0000000000000000
(1498258067.568945) can0 156#0100000000000028
(1498258067.572954) can0 280#0000180000000000
(1498258067.573962) can0 140#000D004000001100
(1498258067.573993) can0 141#5626712700803800
(1498258067.574942) can0 002#0014700F93000000
(1498258067.578938) can0 25C#A100000000000000
(1498258067.578969) can0 282#8940008181033A00
(1498258067.579949) can0 152#E1BC000000000880
(1498258067.583980) can0 140#000E004000001100
(1498258067.584009) can0 141#5626722700803800
(1498258067.584013) can0 144#C000067D5024A000
(1498258067.584943) can0 371#FFFF000080EA0000
(1498258067.585939) can0 002#0014700185000000
(1498258067.585968) can0 0D0#0E00000000000000
(1498258067.585971) can0 0D1#00000080
(1498258067.586981) can0 0D2#0000FFFF10000000
(1498258067.587003) can0 0D3#8046C04E000067
(1498258067.587014) can0 0D4#0000000000000000
(1498258067.588949) can0 156#0100000000000028
(1498258067.589944) can0 3D1#97100000FD000000
(1498258067.589967) can0 376#AD
(1498258067.592967) can0 280#0001180000000000
(1498258067.592997) can0 370#FFFF200180090000
(1498258067.593960) can0 140#000F004000001100
(1498258067.593991) can0 141#5626722700803800
(1498258067.595942) can0 002#0014700387000000
(1498258067.599956) can0 152#E9CC000000000880
(1498258067.603972) can0 140#0000004000001100
(1498258067.604002) can0 141#5626722700803800
(1498258067.604929) can0 144#C000067D5024A000
(1498258067.604952) can0 6C8#2402000000000000
(1498258067.604964) can0 371#FFFF000080EB0000
(1498258067.605967) can0 002#0014700589000000
(1498258067.605997) can0 0D0#0E00000000000000
(1498258067.606001) can0 0D1#00000080
(1498258067.606966) can0 0D2#0000FFFF10000000
(1498258067.606989) can0 0D3#8046C04E000068
(1498258067.607001) can0 0D4#0000000000000000
(1498258067.608947) can0 156#0100000000000028
(1498258067.612949) can0 280#0002180000000000
(1498258067.613967) can0 140#0001004000001100
(1498258067.613996) can0 141#5626722700803800
(1498258067.614936) can0 360#00004E562F000100
(1498258067.614958) can0 361#000124D16D000000
(1498258067.614970) can0 362#3A6B89B87E6DBD04
(1498258067.615935) can0 002#001470078B000000
(1498258067.619951) can0 152#E1DC000000000880
(1498258067.623969) can0 140#0002004000001100
(1498258067.623999) can0 141#5626722700803800
