(1498256978.901359) can0 152#E9AC000000000880
(1498256978.904383) can0 0D0#DDFF000000000000
(1498256978.904406) can0 0D1#00000080
(1498256978.904409) can0 0D2#0000FFFF10000000
(1498256978.904411) can0 0D3#0046C04E0000DB
(1498256978.905393) can0 0D4#0000000000000000
(1498256978.905407) can0 371#FFFF0000802C0000
(1498256978.906377) can0 002#0046700DC3000000
(1498256978.907430) can0 140#000B004000001600
(1498256978.907441) can0 141#5626722700803F00
(1498256978.910391) can0 25C#2500000000000000
(1498256978.910415) can0 156#0100000000000028
(1498256978.916353) can0 280#0003180000000000
(1498256978.916369) can0 002#0046700FC5000000
(1498256978.917349) can0 140#000C004000001600
(1498256978.917364) can0 141#5626722700803F00
(1498256978.917367) can0 144#C000067C5024A000
(1498256978.921372) can0 152#E1BC000000000880
(1498256978.921397) can0 376#AD
(1498256978.924383) can0 0D0#DDFF000000000000
(1498256978.924395) can0 0D1#00000080
(1498256978.924397) can0 0D2#0000FFFF10000000
(1498256978.924400) can0 0D3#8046C04E0000DC
(1498256978.925409) can0 0D4#0000000000000000
(1498256978.925420) can0 371#FFFF0000802C0000
(1498256978.925422) can0 372#00E0000000000000
(1498256978.926343) can0 002#00467001B7000000
(1498256978.927340) can0 140#000D004000001600
(1498256978.927354) can0 141#5626722700803F00
(1498256978.930336) can0 156#0100000000000028
(1498256978.930347) can0 282#8930008282013A00
(1498256978.936383) can0 280#0004180000000000
(1498256978.936400) can0 002#00467003B9000000
(1498256978.936566) can0 140#000E004000001600
(1498256978.937396) can0 141#5626722700803F00
(1498256978.937408) can0 144#C000067C5024A000
(1498256978.937411) can0 370#FFFF200180070000
(1498256978.941390) can0 152#E9CC000000000880
(1498256978.941406) can0 374#0808000080000000
(1498256978.944372) can0 0D0#DDFF000000000000
(1498256978.944398) can0 0D1#00000080
(1498256978.944406) can0 0D2#0000FFFF10000000
(1498256978.944409) can0 0D3#0046C04E0000DD
(1498256978.945410) can0 0D4#0000000000000000
(1498256978.945429) can0 371#FFFF0000802C0000
(1498256978.946360) can0 002#00467005BB000000
(1498256978.947441) can0 140#000F004000001600
(1498256978.947486) can0 141#5626722700803F00
(1498256978.947491) can0 360#000045462F000100
(1498256978.947494) can0 361#00013DD163000000
(1498256978.948331) can0 362#FE7189BD7561BE04
(1498256978.950347) can0 156#0100000000000028
(1498256978.956375) can0 280#0005180000000000
(1498256978.956392) can0 002#00467007BD000000
(1498256978.957406) can0 140#0000004000001600
(1498256978.957421) can0 141#5626722700803F00
(1498256978.957424) can0 144#C000067C5024A000
(1498256978.961432) can0 152#E1DC000000000880
(1498256978.964450) can0 0D0#DDFF000000000000
(1498256978.964471) can0 0D1#00000080
(1498256978.964474) can0 0D2#0000FFFF10000000
(1498256978.964478) can0 0D3#0046C04E0000DE
(1498256978.965389) can0 0D4#0000000000000000
(1498256978.965403) can0 371#FFFF0000802D0000
(1498256978.966392) can0 002#00467009BF000000
(1498256978.967467) can0 140#0001004000001600
(1498256978.967493) can0 141#5626722700803F00
(1498256978.970457) can0 25C#2600000000000000
(1498256978.970485) can0 156#0100000000000028
(1498256978.971432) can0 376#AD
(1498256978.975486) can0 280#0006180000000000
(1498256978.976452) can0 002#0046700BC1000000
(1498256978.977458) can0 140#0002004000001600
(1498256978.977489) can0 141#5626722700803F00
(1498256978.977492) can0 144#C000067C5024A000
(1498256978.980439) can0 282#8940008282013A00
(1498256978.981429) can0 152#E1EC000000000880
(1498256978.984513) can0 0D0#DDFF000000000000
(1498256978.984535) can0 0D1#00000080
(1498256978.984538) can0 0D2#0000FFFF10000000
(1498256978.984540) can0 0D3#8046C04E0000DF
(1498256978.985425) can0 0D4#0000000000000000
(1498256978.985448) can0 370#FFFF200180080000
(1498256978.985461) can0 371#FFFF0000802D0000
(1498256978.986446) can0 002#0046700DC3000000
(1498256978.987449) can0 140#0003004000001600
(1498256978.987482) can0 141#5626722700803F00
(1498256978.991438) can0 156#0100000000000028
(1498256978.991459) can0 3D1#9A100000FD000000
(1498256978.996395) can0 280#0007180000000000
(1498256978.996425) can0 002#0046700FC5000000
(1498256978.997513) can0 140#0004004000001600
(1498256978.997543) can0 141#5626722700803F00
(1498256978.997546) can0 144#C000067C5024A000
(1498256978.997549) can0 360#000045462F000100
(1498256978.998396) can0 361#00013DD164000000
(1498256978.998428) can0 362#FE7189BD7561BE04
(1498256978.999455) can0 284#C10A000E00000000
(1498256979.001440) can0 152#E9FC000000000880
(1498256979.004446) can0 0D0#DDFF000000000000
(1498256979.004467) can0 0D1#00000080
(1498256979.004469) can0 0D2#0000FFFF10000000
(1498256979.004472) can0 0D3#8046C04E0000E0
(1498256979.005449) can0 0D4#0000000000000000
(1498256979.005470) can0 371#FFFF0000802D0000
(1498256979.006442) can0 002#00467001B7000000
(1498256979.007408) can0 140#0005004000001600
(1498256979.007435) can0 141#5626722700803F00
(1498256979.010422) can0 156#0100000000000028
(1498256979.016462) can0 280#0008180000000000
(1498256979.016491) can0 002#00467003B9000000
(1498256979.016496) can0 140#0006004000001600
(1498256979.017427) can0 141#5626722700803F00
(1498256979.017448) can0 144#C000067C5024A000
(1498256979.019437) can0 37A#0000000000040000
(1498256979.021445) can0 152#E90C000000000880
(1498256979.021474) can0 376#AD
(1498256979.024426) can0 0D0#DDFF000000000000
(1498256979.024445) can0 0D1#00000080
(1498256979.024448) can0 0D2#0000FFFF10000000
(1498256979.024451) can0 0D3#0046C04E0000E1
(1498256979.025503) can0 0D4#0000000000000000
(1498256979.025525) can0 371#FFFF0000802D0000
(1498256979.025529) can0 372#00F8000000000000
(1498256979.026421) can0 002#00467005BB000000
(1498256979.027445) can0 140#0007004000001600
(1498256979.027483) can0 141#5626712700803F00
(1498256979.030467) can0 25C#A700000000000000
(1498256979.030497) can0 156#0100000000000028
(1498256979.031430) can0 282#8950008282013A00
(1498256979.033442) can0 370#FFFF200180090000
(1498256979.036452) can0 280#0009180000000000
(1498256979.036481) can0 002#00467007BD000000
(1498256979.037469) can0 140#0008004000001600
(1498256979.037500) can0 141#5626722700803F00
(1498256979.037505) can0 144#C000067C5024A000
(1498256979.041447) can0 152#E11C000000000880
(1498256979.044514) can0 0D0#DDFF000000000000
(1498256979.044534) can0 0D1#00000080
(1498256979.044537) can0 0D2#0000FFFF10000000
(1498256979.044539) can0 0D3#0046C04E0000E2
(1498256979.045454) can0 0D4#0000000000000000
(1498256979.045475) can0 371#FFFF0000802D0000
(1498256979.046429) can0 002#00467009BF000000
(1498256979.047529) can0 140#0009004000001600
(1498256979.047559) can0 141#5626722700803F00
(1498256979.047563) can0 360#000045462F000100
(1498256979.047566) can0 361#00013DD165000000
(1498256979.047569) can0 362#FE7189BD7561BE04
(1498256979.050428) can0 156#0100000000000028
(1498256979.055479) can0 280#000A180000000000
(1498256979.056453) can0 002#0046700BC1000000
(1498256979.056484) can0 140#000A004000001600
(1498256979.057459) can0 141#5626712700803F00
(1498256979.057488) can0 144#C000067C5024A000
(1498256979.061369) can0 152#E12C000000000880
(1498256979.064513) can0 0D0#DDFF000000000000
(1498256979.064533) can0 0D1#00000080
(1498256979.064537) can0 0D2#0000FFFF10000000
(1498256979.064539) can0 0D3#8046C04E0000E3
(1498256979.065420) can0 0D4#0000000000000000
(1498256979.065443) can0 371#FFFF0000802D0000
(1498256979.066449) can0 002#0046700DC3000000
(1498256979.067444) can0 140#000B004000001600
(1498256979.067473) can0 141#5626722700803F00
(1498256979.070440) can0 156#0100000000000028
(1498256979.071390) can0 376#AD
(1498256979.076440) can0 280#000B180000000000
(1498256979.076471) can0 002#0046700FC5000000
(1498256979.077459) can0 140#000C004000001600
(1498256979.077489) can0 141#5626722700803F00
(1498256979.077492) can0 144#C000067C5024A000
(1498256979.080446) can0 282#8960008282013A00
(1498256979.081443) can0 370#FFFF2001800A0000
(1498256979.081474) can0 152#E93C000000000880
(1498256979.084513) can0 0D0#DDFF000000000000
(1498256979.084534) can0 0D1#00000080
(1498256979.084536) can0 0D2#0000FFFF10000000
(1498256979.084539) can0 0D3#0046C04E0000E4
(1498256979.085436) can0 0D4#0000000000000000
(1498256979.085456) can0 371#FFFF0000802D0000
(1498256979.086444) can0 002#00467001B7000000
(1498256979.087443) can0 140#000D004000001600
(1498256979.087473) can0 141#5626722700803F00
(1498256979.090419) can0 25C#2000000000000000
(1498256979.091395) can0 156#0100000000000028
(1498256979.091413) can0 3D1#9B100000FD000000
(1498256979.096471) can0 280#000C180000000000
(1498256979.096500) can0 002#00467003B9000000
(1498256979.096505) can0 140#000E004000001600
(1498256979.097445) can0 141#5626722700803F00
(1498256979.097465) can0 144#C000067C5024A000
(1498256979.097468) can0 360#000045462F000100
(1498256979.097471) can0 361#00013DD166000000
(1498256979.098427) can0 362#FF7189BD7561BE04
(1498256979.099446) can0 284#C10B000E00000000
(1498256979.101373) can0 152#E14C000000000880
(1498256979.104443) can0 0D0#DDFF000000000000
(1498256979.104468) can0 0D1#00000080
(1498256979.104471) can0 0D2#0000FFFF10000000
(1498256979.104474) can0 0D3#8046C04E0000E5
(1498256979.105455) can0 0D4#0000000000000000
(1498256979.105476) can0 371#FFFF0000802C0000
(1498256979.106394) can0 002#00467005BB000000
(1498256979.107456) can0 140#000F004000001600
(1498256979.107488) can0 141#5626722700803F00
(1498256979.110433) can0 156#0100000000000028
(1498256979.116455) can0 280#000D180000000000
(1498256979.116484) can0 002#00467007BD000000
(1498256979.117345) can0 140#0000004000001600
(1498256979.117380) can0 141#5626722700803F00
(1498256979.117384) can0 144#C000067C5024A000
(1498256979.121447) can0 152#E95C000000000880
(1498256979.121477) can0 376#AD
(1498256979.124455) can0 0D0#DDFF000000000000
(1498256979.124480) can0 0D1#00000080
(1498256979.124483) can0 0D2#0000FFFF10000000
(1498256979.124485) can0 0D3#8046C04E0000E6
(1498256979.125487) can0 0D4#0000000000000000
(1498256979.125514) can0 371#FFFF0000802C0000
(1498256979.125517) can0 372#0008000000000000
(1498256979.126433) can0 002#00467009BF000000
(1498256979.126464) can0 140#0001004000001600
(1498256979.127366) can0 141#5626722700803F00
(1498256979.129446) can0 370#FFFF2001800B0000
(1498256979.130424) can0 156#0100000000000028
(1498256979.131431) can0 282#8970008282013A00
(1498256979.136367) can0 280#000E180000000000
(1498256979.136399) can0 002#0046700BC1000000
(1498256979.136404) can0 140#0002004000001600
(1498256979.136469) can0 141#5626712700803F00
(1498256979.137350) can0 144#C000067C5024A000
(1498256979.141385) can0 152#E96C000000000880
(1498256979.144406) can0 0D0#DDFF000000000000
(1498256979.144434) can0 0D1#00000080
(1498256979.144437) can0 0D2#0000FFFF10000000
(1498256979.144440) can0 0D3#0046C04E0000E7
(1498256979.145383) can0 0D4#0000000000000000
(1498256979.145401) can0 371#FFFF0000802C0000
(1498256979.146371) can0 002#0046700DC3000000
(1498256979.146391) can0 140#0003004000001600
(1498256979.147412) can0 141#5626722700803F00
(1498256979.147480) can0 360#000045462F000100
(1498256979.147484) can0 361#00013DD167000000
(1498256979.147487) can0 362#FF7189BD7561BE04
(1498256979.150364) can0 25C#A100000000000000
(1498256979.150380) can0 156#0100000000000028
(1498256979.156462) can0 280#000F180000000000
(1498256979.156491) can0 281#0000FCFC40000000
(1498256979.156495) can0 002#0046700FC5000000
(1498256979.156498) can0 140#0004004000001600
(1498256979.157366) can0 141#5626712700803F00
(1498256979.157387) can0 144#C000067C5024A000
(1498256979.161443) can0 152#E17C000000000880
(1498256979.164509) can0 0D0#DDFF000000000000
(1498256979.164529) can0 0D1#00000080
(1498256979.164532) can0 0D2#0000FFFF10000000
(1498256979.164534) can0 0D3#0046C04E0000E8
(1498256979.165432) can0 0D4#0000000000000000
(1498256979.165453) can0 371#FFFF0000802C0000
(1498256979.166454) can0 002#00467001B7000000
(1498256979.166484) can0 140#0005004000001600
(1498256979.167448) can0 141#5626722700803F00
(1498256979.170420) can0 156#0100000000000028
(1498256979.171407) can0 376#AD
(1498256979.176427) can0 280#0000180000000000
(1498256979.176455) can0 002#00467003B9000000
(1498256979.176459) can0 140#0006004000001600
(1498256979.176463) can0 141#5626722700803F00
(1498256979.177450) can0 144#C000067C5024A000
(1498256979.177471) can0 370#FFFF2001800C0000
(1498256979.180427) can0 282#8980008282013A00
(1498256979.181438) can0 152#E18C000000000880
(1498256979.184512) can0 0D0#DDFF000000000000
(1498256979.184532) can0 0D1#00000080
(1498256979.184535) can0 0D2#0000FFFF10000000
(1498256979.184538) can0 0D3#8046C04E0000E9
(1498256979.185421) can0 0D4#0000000000000000
(1498256979.185440) can0 371#FFFF0000802D0000
(1498256979.185452) can0 6C8#E000000000000000
(1498256979.186439) can0 002#00467005BB000000
(1498256979.186469) can0 140#0007004000001600
(1498256979.187408) can0 141#5626722700803F00
(1498256979.191436) can0 156#0100000000000028
(1498256979.191457) can0 3D1#9A100000FD000000
(1498256979.196470) can0 280#0001180000000000
(1498256979.196504) can0 002#00467007BD000000
(1498256979.196509) can0 140#0008004000001600
(1498256979.197436) can0 141#5626722700803F00
(1498256979.197462) can0 144#C000067C5024A000
(1498256979.197466) can0 360#000045462F000100
(1498256979.197471) can0 361#00013DD168000000
(1498256979.198424) can0 362#FF7189BD7561BE04
(1498256979.199443) can0 284#C10C000E00000000
(1498256979.201445) can0 6D1#7835020000000000
(1498256979.201466) can0 152#E99C000000000880
(1498256979.204514) can0 0D0#DDFF000000000000
(1498256979.204534) can0 0D1#00000080
(1498256979.204537) can0 0D2#0000FFFF10000000
(1498256979.204540) can0 0D3#8046C04E0000EA
(1498256979.205420) can0 0D4#0000000000000000
(1498256979.205441) can0 371#FFFF0000802C0000
(1498256979.206437) can0 002#00467009BF000000
(1498256979.207447) can0 140#0009004000001600
(1498256979.207476) can0 141#5626722700803F00
(1498256979.210452) can0 25C#A200000000000000
(1498256979.210481) can0 156#0100000000000028
(1498256979.216436) can0 280#0002180000000000
(1498256979.216464) can0 002#0046700BC1000000
(1498256979.216468) can0 140#000A004000001600
(1498256979.216472) can0 141#5626722700803F00
(1498256979.217430) can0 144#C000067C5024A000
(1498256979.221443) can0 152#E9AC000000000880
(1498256979.221472) can0 376#AD
(1498256979.221477) can0 660#FFFF0BA900000B30
(1498256979.224511) can0 0D0#DDFF000000000000
(1498256979.224532) can0 0D1#00000080
(1498256979.224536) can0 0D2#0000FFFF10000000
(1498256979.224538) can0 0D3#0046C04E0000EB
(1498256979.225413) can0 0D4#0000000000000000
(1498256979.225434) can0 370#FFFF2001800D0000
(1498256979.225446) can0 371#FFFF0000802C0000
(1498256979.225449) can0 372#0010000000000000
(1498256979.226461) can0 002#0046700DC3000000
(1498256979.226489) can0 140#000B004000001600
(1498256979.227427) can0 141#5626722700803F00
(1498256979.230434) can0 156#0100000000000028
(1498256979.231444) can0 282#8990008282013A00
(1498256979.236513) can0 280#0003180000000000
(1498256979.236544) can0 002#0046700FC5000000
(1498256979.236548) can0 140#000C004000001600
(1498256979.237423) can0 141#5626722700803F00
(1498256979.237445) can0 144#C000067C5024A000
(1498256979.241439) can0 152#E1BC000000000880
(1498256979.244514) can0 0D0#DDFF000000000000
(1498256979.244534) can0 0D1#00000080
(1498256979.244537) can0 0D2#0000FFFF10000000
(1498256979.244539) can0 0D3#8046C04E0000EC
(1498256979.245373) can0 0D4#0000000000000000
(1498256979.245389) can0 371#FFFF0000802C0000
(1498256979.246428) can0 002#00467001B7000000
(1498256979.246456) can0 140#000D004000001600
(1498256979.246466) can0 141#5626722700803F00
(1498256979.247421) can0 360#000045462F000100
(1498256979.247493) can0 361#00013DD169000000
(1498256979.247505) can0 362#FF7189BD7561BE04
(1498256979.250407) can0 156#0100000000000028
(1498256979.256389) can0 280#0004180000000000
(1498256979.256424) can0 002#00467003B9000000
(1498256979.256431) can0 140#000E004000001600
(1498256979.256437) can0 141#5626722700803F00
(1498256979.257416) can0 144#C000067C5024A000
(1498256979.261427) can0 152#E9CC000000000880
(1498256979.264460) can0 0D0#DDFF000000000000
(1498256979.264484) can0 0D1#00000080
(1498256979.264487) can0 0D2#0000FFFF10000000
(1498256979.264490) can0 0D3#0046C04E0000ED
(1498256979.265437) can0 0D4#0000000000000000
(1498256979.265465) can0 371#FFFF0000802D0000
(1498256979.266426) can0 002#00467005BB000000
(1498256979.266463) can0 140#000F004000001600
(1498256979.266471) can0 141#5626722700803F00
(1498256979.270446) can0 25C#2300000000000000
(1498256979.270476) can0 156#0100000000000028
(1498256979.271401) can0 376#AD
(1498256979.273375) can0 370#FFFF2001800E0000
(1498256979.276479) can0 280#0005180000000000
(1498256979.276511) can0 002#00467007BD000000
(1498256979.276516) can0 140#0000004000001600
(1498256979.277454) can0 141#5626722700803F00
(1498256979.277478) can0 144#C000067C5024A000
(1498256979.280452) can0 282#89A0008282013A00
(1498256979.281448) can0 152#E1DC000000000880
(1498256979.284464) can0 0D0#DDFF000000000000
(1498256979.284487) can0 0D1#00000080
(1498256979.284491) can0 0D2#0000FFFF10000000
(1498256979.284493) can0 0D3#0046C04E0000EE
(1498256979.285466) can0 0D4#0000000000000000
(1498256979.285490) can0 371#FFFF0000802D0000
(1498256979.286437) can0 002#00467009BF000000
(1498256979.286470) can0 140#0001004000001600
(1498256979.286479) can0 141#5626722700803F00
(1498256979.291469) can0 156#0100000000000028
(1498256979.291494) can0 3D1#9B100000FD000000
(1498256979.296472) can0 280#0006180000000000
(1498256979.296505) can0 002#0046700BC1000000
(1498256979.296509) can0 140#0002004000001600
(1498256979.296513) can0 141#5626722700803F00
(1498256979.297525) can0 144#C000067C5024A000
(1498256979.297549) can0 360#000045462F000100
(1498256979.297553) can0 361#00013DD16A000000
(1498256979.297563) can0 362#FF7189BD7561BE04
(1498256979.299439) can0 284#C10D000E00000000
(1498256979.301449) can0 152#E1EC000000000880
(1498256979.304457) can0 0D0#DDFF000000000000
(1498256979.304481) can0 0D1#00000080
(1498256979.304486) can0 0D2#0000FFFF10000000
(1498256979.304488) can0 0D3#8046C04E0000EF
(1498256979.305438) can0 0D4#0000000000000000
(1498256979.305462) can0 371#FFFF0000802D0000
(1498256979.306465) can0 002#0046700DC3000000
(1498256979.306496) can0 140#0003004000001600
(1498256979.307443) can0 141#5626712700803F00
(1498256979.310434) can0 156#0100000000000028
(1498256979.316448) can0 280#0007180000000000
(1498256979.316480) can0 002#0046700FC5000000
(1498256979.316485) can0 140#0004004000001600
(1498256979.316488) can0 141#5626722700803F00
(1498256979.317375) can0 144#C000067C5024A000
(1498256979.321448) can0 370#FFFF2001800F0000
(1498256979.321477) can0 152#E9FC000000000880
(1498256979.321481) can0 376#AD
(1498256979.324511) can0 0D0#DDFF000000000000
(1498256979.324533) can0 0D1#00000080
(1498256979.324536) can0 0D2#0000FFFF10000000
(1498256979.324538) can0 0D3#0046C04E0000F0
(1498256979.325441) can0 0D4#0000000000000000
(1498256979.325462) can0 371#FFFF0000802C0000
(1498256979.325475) can0 372#0020000000000000
(1498256979.326457) can0 002#00467001B7000000
(1498256979.326490) can0 140#0005004000001600
(1498256979.326494) can0 141#5626722700803F00
(1498256979.330429) can0 25C#A400000000000000
(1498256979.330458) can0 156#0100000000000028
(1498256979.331443) can0 282#89B0008282013A00
(1498256979.336528) can0 280#0008180000000000
(1498256979.336557) can0 002#00467003B9000000
(1498256979.336561) can0 140#0006004000001600
(1498256979.336565) can0 141#5626722700803F00
(1498256979.337425) can0 144#C000067C5024A000
(1498256979.341439) can0 152#E90C000000000880
(1498256979.344454) can0 0D0#DDFF000000000000
(1498256979.344477) can0 0D1#00000080
(1498256979.344480) can0 0D2#0000FFFF10000000
(1498256979.344484) can0 0D3#8046C04E0000F1
(1498256979.345386) can0 0D4#0000000000000000
(1498256979.345404) can0 371#FFFF0000802D0000
(1498256979.346371) can0 002#00467005BB000000
(1498256979.346391) can0 140#0007004000001600
(1498256979.346395) can0 141#5626712700803F00
(1498256979.347357) can0 360#000045462F000100
(1498256979.347392) can0 361#00013DD16B000000
(1498256979.347393) can0 362#FF7189BD7561BE04
(1498256979.351424) can0 156#0100000000000028
(1498256979.356515) can0 280#0009180000000000
(1498256979.356545) can0 002#00467007BD000000
(1498256979.356549) can0 140#0008004000001600
(1498256979.356552) can0 141#5626722700803F00
(1498256979.357425) can0 144#C000067C5024A000
(1498256979.361442) can0 152#E11C000000000880
(1498256979.364503) can0 0D0#DDFF000000000000
(1498256979.364525) can0 0D1#00000080
(1498256979.364528) can0 0D2#0000FFFF10000000
(1498256979.364530) can0 0D3#8046C04E0000F2
(1498256979.365451) can0 0D4#0000000000000000
(1498256979.365472) can0 371#FFFF0000802C0000
(1498256979.366441) can0 002#00467009BF000000
(1498256979.366472) can0 140#0009004000001600
(1498256979.366476) can0 141#5626712700803F00
(1498256979.369429) can0 370#FFFF200180000000
(1498256979.370389) can0 156#0100000000000028
(1498256979.371422) can0 376#AD
(1498256979.376519) can0 280#000A180000000000
(1498256979.376548) can0 002#0046700BC1000000
(1498256979.376552) can0 140#000A004000001600
(1498256979.376556) can0 141#5626722700803F00
(1498256979.377424) can0 144#C000067C5024A000
(1498256979.380439) can0 282#89C0008282013A00
(1498256979.381435) can0 152#E12C000000000880
(1498256979.384463) can0 0D0#DDFF000000000000
(1498256979.384485) can0 0D1#00000080
(1498256979.384488) can0 0D2#0000FFFF10000000
(1498256979.384491) can0 0D3#0046C04E0000F3
(1498256979.385448) can0 0D4#0000000000000000
(1498256979.385470) can0 371#FFFF0000802D0000
(1498256979.386462) can0 002#0046700DC3000000
(1498256979.386489) can0 140#000B004000001600
(1498256979.386494) can0 141#5626722700803F00
(1498256979.390440) can0 25C#2500000000000000
(1498256979.391456) can0 156#0100000000000028
(1498256979.391479) can0 3D1#9A100000FD000000
(1498256979.396473) can0 280#000B180000000000
(1498256979.396502) can0 002#0046700FC5000000
(1498256979.396506) can0 140#000C004000001600
(1498256979.396510) can0 141#5626722700803F00
(1498256979.397509) can0 144#C000067C5024A000
(1498256979.397532) can0 360#000045462F000100
(1498256979.397536) can0 361#00013DD16C000000
(1498256979.397546) can0 362#007289BD7561BE04
(1498256979.399433) can0 284#C10E000E00000000
(1498256979.401440) can0 152#E93C000000000880
(1498256979.404511) can0 0D0#DDFF000000000000
(1498256979.404533) can0 0D1#00000080
(1498256979.404536) can0 0D2#0000FFFF10000000
(1498256979.404539) can0 0D3#8046C04E0000F4
(1498256979.405433) can0 0D4#0000000000000000
(1498256979.405454) can0 371#FFFF0000802D0000
(1498256979.406435) can0 002#00467001B7000000
(1498256979.407444) can0 140#000D004000001600
(1498256979.407473) can0 141#5626722700803F00
(1498256979.411421) can0 156#0100000000000028
(1498256979.416409) can0 280#000C180000000000
(1498256979.416444) can0 002#00467003B9000000
(1498256979.416451) can0 140#000E004000001600
(1498256979.416463) can0 141#5626712700803F00
(1498256979.417440) can0 144#C000067C5024A000
(1498256979.417461) can0 370#FFFF200180010000
(1498256979.421438) can0 152#E14C000000000880
(1498256979.421467) can0 376#AD
(1498256979.424511) can0 0D0#DDFF000000000000
(1498256979.424533) can0 0D1#00000080
(1498256979.424536) can0 0D2#0000FFFF10000000
(1498256979.424538) can0 0D3#0046C04E0000F5
(1498256979.425446) can0 0D4#0000000000000000
(1498256979.425469) can0 371#FFFF0000802D0000
(1498256979.425472) can0 372#0038000000000000
(1498256979.426481) can0 002#00467005BB000000
(1498256979.426509) can0 140#000F004000001600
(1498256979.426513) can0 141#5626722700803F00
(1498256979.431440) can0 156#0100000000000028
(1498256979.431463) can0 282#89D0008282013A00
(1498256979.436457) can0 280#000D180000000000
(1498256979.436494) can0 002#00467007BD000000
(1498256979.436501) can0 140#0000004000001600
(1498256979.436508) can0 141#5626722700803F00
(1498256979.437435) can0 144#C000067C5024A000
(1498256979.441433) can0 152#E95C000000000880
(1498256979.444510) can0 0D0#DDFF000000000000
(1498256979.444532) can0 0D1#00000080
(1498256979.444535) can0 0D2#0000FFFF10000000
(1498256979.444538) can0 0D3#0046C04E0000F6
(1498256979.445446) can0 0D4#0000000000000000
(1498256979.445468) can0 371#FFFF0000802D0000
(1498256979.446504) can0 002#00467009BF000000
(1498256979.446534) can0 140#0001004000001600
(1498256979.446538) can0 141#5626722700803F00
(1498256979.447455) can0 360#000045462F000100
(1498256979.447476) can0 361#00013DD16D000000
(1498256979.447488) can0 362#007289BD7561BE04
(1498256979.450446) can0 25C#2600000000000000
(1498256979.451429) can0 156#0100000000000028
(1498256979.456521) can0 280#000E180000000000
(1498256979.456550) can0 002#0046700BC1000000
(1498256979.456554) can0 140#0002004000001600
(1498256979.456558) can0 141#5626722700803F00
(1498256979.457421) can0 144#C000067C5024A000
(1498256979.461444) can0 152#E96C000000000880
(1498256979.464519) can0 0D0#DDFF000000000000
(1498256979.464540) can0 0D1#00000080
(1498256979.464542) can0 0D2#0000FFFF10000000
(1498256979.464545) can0 0D3#8046C04E0000F7
(1498256979.465463) can0 0D4#0000000000000000
(1498256979.465484) can0 370#FFFF200180020000
(1498256979.465497) can0 371#FFFF0000802C0000
(1498256979.466461) can0 002#0046700DC3000000
(1498256979.466489) can0 140#0003004000001600
(1498256979.466494) can0 141#5626722700803F00
(1498256979.471435) can0 156#0100000000000028
(1498256979.471456) can0 376#AD
(1498256979.476528) can0 280#000F180000000000
(1498256979.476557) can0 002#0046700FC5000000
(1498256979.476562) can0 140#0004004000001600
(1498256979.476565) can0 141#5626722700803F00
(1498256979.477421) can0 144#C000067C5024A000
(1498256979.481436) can0 282#89E0008282013A00
(1498256979.481465) can0 152#E17C000000000880
(1498256979.484504) can0 0D0#DDFF000000000000
(1498256979.484525) can0 0D1#00000080
(1498256979.484528) can0 0D2#0000FFFF10000000
(1498256979.484530) can0 0D3#8046C04E0000F8
(1498256979.485446) can0 0D4#0000000000000000
(1498256979.485466) can0 371#FFFF0000802C0000
(1498256979.486506) can0 002#00467001B7000000
(1498256979.486535) can0 140#0005004000001600
(1498256979.486539) can0 141#5626722700803F00
(1498256979.491434) can0 156#0100000000000028
(1498256979.491455) can0 3D1#9A100000FD000000
(1498256979.496528) can0 280#0000180000000000
(1498256979.496558) can0 140#0006004000001600
(1498256979.496562) can0 002#00467003B9000000
(1498256979.496566) can0 141#5626722700803F00
(1498256979.497498) can0 144#C000067C5024A000
(1498256979.497520) can0 360#000045462F000100
(1498256979.497524) can0 361#00013DD16E000000
(1498256979.497536) can0 362#007289BD7561BE04
(1498256979.499465) can0 284#C10F000E00000000
(1498256979.501367) can0 152#E18C000000000880
(1498256979.504406) can0 0D0#DDFF000000000000
(1498256979.504423) can0 0D1#00000080
(1498256979.504426) can0 0D2#0000FFFF10000000
(1498256979.504429) can0 0D3#0046C04E0000F9
(1498256979.505418) can0 0D4#0000000000000000
(1498256979.505437) can0 371#FFFF0000802D0000
(1498256979.506410) can0 002#00467005BB000000
(1498256979.506439) can0 140#0007004000001600
(1498256979.506444) can0 141#5626722700803F00
(1498256979.510383) can0 25C#A700000000000000
(1498256979.511365) can0 156#0100000000000028
(1498256979.513314) can0 370#FFFF200180030000
(1498256979.516410) can0 280#0001180000000000
(1498256979.516433) can0 002#00467007BD000000
(1498256979.516441) can0 140#0008004000001600
(1498256979.516448) can0 141#5626722700803F00
(1498256979.517302) can0 144#C000067C5024A000
(1498256979.521326) can0 152#E99C000000000880
(1498256979.521351) can0 376#AD
(1498256979.524387) can0 0D0#DDFF000000000000
(1498256979.524396) can0 0D1#00000080
(1498256979.524397) can0 0D2#0000FFFF10000000
(1498256979.524399) can0 0D3#0046C04E0000FA
(1498256979.525343) can0 0D4#0000000000000000
(1498256979.525358) can0 371#FFFF0000802D0000
(1498256979.525361) can0 372#0040000000000000
(1498256979.526390) can0 002#00467009BF000000
(1498256979.526401) can0 140#0009004000001600
(1498256979.526404) can0 141#5626722700803F00
(1498256979.531331) can0 156#0100000000000028
(1498256979.531345) can0 282#89F0008282013A00
(1498256979.536529) can0 280#0002180000000000
(1498256979.536564) can0 140#000A004000001600
(1498256979.536567) can0 002#0046700BC1000000
(1498256979.536569) can0 141#5626722700803F00
(1498256979.537411) can0 144#C000067C5024A000
(1498256979.541357) can0 152#E9AC000000000880
(1498256979.544430) can0 0D0#DDFF000000000000
(1498256979.544442) can0 0D1#00000080
(1498256979.544443) can0 0D2#0000FFFF10000000
(1498256979.544446) can0 0D3#8046C04E0000FB
(1498256979.545369) can0 0D4#0000000000000000
(1498256979.545376) can0 371#FFFF0000802D0000
(1498256979.546417) can0 140#000B004000001600
(1498256979.546427) can0 002#0046700DC3000000
(1498256979.546430) can0 141#5626722700803F00
(1498256979.547356) can0 360#000045462F000100
(1498256979.547440) can0 361#00013DD16F000000
(1498256979.547449) can0 362#007289BD7561BE04
(1498256979.551510) can0 156#0100000000000028
(1498256979.556447) can0 280#0003180000000000
(1498256979.556478) can0 002#0046700FC5000000
(1498256979.556484) can0 140#000C004000001600
(1498256979.556492) can0 141#5626722700803F00
(1498256979.556543) can0 144#C000067C5024A000
(1498256979.561342) can0 370#FFFF200180040000
(1498256979.561359) can0 152#E1BC000000000880
(1498256979.564422) can0 0D0#DDFF000000000000
(1498256979.564434) can0 0D1#00000080
(1498256979.564436) can0 0D2#0000FFFF10000000
(1498256979.564438) can0 0D3#0046C04E0000FC
(1498256979.565350) can0 0D4#0000000000000000
(1498256979.565363) can0 371#FFFF0000802D0000
(1498256979.566415) can0 140#000D004000001600
(1498256979.566430) can0 002#00467001B7000000
(1498256979.566434) can0 141#5626722700803F00
(1498256979.570344) can0 25C#2000000000000000
(1498256979.571345) can0 156#0100000000000028
(1498256979.571358) can0 376#AD
(1498256979.576524) can0 280#0004180000000000
(1498256979.576554) can0 140#000E004000001600
(1498256979.576560) can0 002#00467003B9000000
(1498256979.576563) can0 141#5626722700803F00
(1498256979.577418) can0 144#C000067C5024A000
(1498256979.581443) can0 282#8900008282013A00
(1498256979.581474) can0 152#E9CC000000000880
(1498256979.584512) can0 0D0#DDFF000000000000
(1498256979.584534) can0 0D1#00000080
(1498256979.584537) can0 0D2#0000FFFF10000000
(1498256979.584540) can0 0D3#8046C04E0000FD
(1498256979.585454) can0 0D4#0000000000000000
(1498256979.585475) can0 371#FFFF0000802C0000
(1498256979.586483) can0 140#000F004000001600
(1498256979.586516) can0 002#00467005BB000000
(1498256979.586521) can0 141#5626722700803F00
(1498256979.591521) can0 156#0100000000000028
(1498256979.591540) can0 3D1#9A100000FD000000
(1498256979.596525) can0 280#0005180000000000
(1498256979.596555) can0 140#0000004000001600
(1498256979.596559) can0 002#00467007BD000000
(1498256979.596563) can0 141#5626722700803F00
(1498256979.597496) can0 144#C000067C5024A000
(1498256979.597518) can0 360#000045462F000100
(1498256979.597521) can0 361#00013DD160000000
(1498256979.597534) can0 362#FF7189BD7561BE04
(1498256979.599433) can0 284#C100000E00000000
(1498256979.601437) can0 152#E1DC000000000880
(1498256979.604431) can0 0D0#DDFF000000000000
(1498256979.604452) can0 0D1#00000080
(1498256979.604455) can0 0D2#0000FFFF10000000
(1498256979.604457) can0 0D3#8046C04E0000FE
(1498256979.605429) can0 0D4#0000000000000000
(1498256979.605450) can0 371#FFFF0000802D0000
(1498256979.606427) can0 002#00467009BF000000
(1498256979.606456) can0 140#0001004000001600
(1498256979.606461) can0 141#5626722700803F00
(1498256979.608433) can0 370#FFFF200180050000
(1498256979.611434) can0 156#0100000000000028
(1498256979.616459) can0 280#0006180000000000
(1498256979.616497) can0 140#0002004000001600
(1498256979.616506) can0 002#0046700BC1000000
(1498256979.616512) can0 141#5626722700803F00
(1498256979.616522) can0 144#C000067C5024A000
(1498256979.621435) can0 152#E1EC000000000880
(1498256979.621465) can0 376#AD
(1498256979.624413) can0 0D0#DDFF000000000000
(1498256979.624434) can0 0D1#00000080
(1498256979.624437) can0 0D2#0000FFFF10000000
(1498256979.624439) can0 0D3#0046C04E0000FF
(1498256979.625500) can0 0D4#0000000000000000
(1498256979.625521) can0 371#FFFF0000802C0000
(1498256979.625534) can0 372#0058000000000000
(1498256979.626418) can0 140#0003004000001600
(1498256979.626447) can0 002#0046700DC3000000
(1498256979.626451) can0 141#5626722700803F00
(1498256979.630444) can0 25C#A100000000000000
(1498256979.631451) can0 156#0100000000000028
(1498256979.631473) can0 282#8910008282013A00
(1498256979.636429) can0 280#0007180000000000
(1498256979.636468) can0 140#0004004000001600
(1498256979.636477) can0 002#0046700FC5000000
(1498256979.636483) can0 141#5626722700803F00
(1498256979.636553) can0 144#C000067C5024A000
(1498256979.641443) can0 152#E9FC000000000880
(1498256979.644427) can0 0D0#DDFF000000000000
(1498256979.644447) can0 0D1#00000080
(1498256979.644450) can0 0D2#0000FFFF10000000
(1498256979.644452) can0 0D3#0046C04E000000
(1498256979.645439) can0 0D4#0000000000000000
(1498256979.645461) can0 371#FFFF0000802D0000
(1498256979.646406) can0 140#0005004000001600
(1498256979.646447) can0 002#00467001B7000000
(1498256979.646456) can0 141#5626722700803F00
(1498256979.646461) can0 360#000045462F000100
(1498256979.647451) can0 361#00013DD161000000
(1498256979.647480) can0 362#FF7189BD7561BE04
(1498256979.651428) can0 156#0100000000000028
(1498256979.656527) can0 280#0008180000000000
(1498256979.656556) can0 140#0006004000001600
(1498256979.656562) can0 002#00467003B9000000
(1498256979.656566) can0 141#5626722700803F00
(1498256979.657422) can0 144#C000067C5024A000
(1498256979.657443) can0 370#FFFF200180060000
(1498256979.661430) can0 152#E90C000000000880
(1498256979.664509) can0 0D0#DDFF000000000000
(1498256979.664531) can0 0D1#00000080
(1498256979.664538) can0 0D2#0000FFFF10000000
(1498256979.664540) can0 0D3#8046C04E000001
(1498256979.665369) can0 0D4#0000000000000000
(1498256979.665383) can0 371#FFFF0000802D0000
(1498256979.666482) can0 140#0007004000001600
(1498256979.666512) can0 002#00467005BB000000
(1498256979.666516) can0 141#5626722700803F00
(1498256979.671470) can0 156#0100000000000028
(1498256979.671491) can0 376#AD
(1498256979.676428) can0 280#0009180000000000
(1498256979.676457) can0 140#0008004000001600
(1498256979.676462) can0 002#00467007BD000000
(1498256979.676466) can0 141#5626722700803F00
(1498256979.677364) can0 144#C000067C5024A000
(1498256979.681440) can0 282#8920008282013A00
(1498256979.681469) can0 152#E11C000000000880
(1498256979.684508) can0 0D0#DDFF000000000000
(1498256979.684530) can0 0D1#00000080
(1498256979.684533) can0 0D2#0000FFFF10000000
(1498256979.684535) can0 0D3#8046C04E000002
(1498256979.685437) can0 0D4#0000000000000000
(1498256979.685458) can0 371#FFFF0000802D0000
(1498256979.686499) can0 140#0009004000001600
(1498256979.686530) can0 002#00467009BF000000
(1498256979.686534) can0 141#5626722700803F00
(1498256979.690442) can0 25C#A200000000000000
(1498256979.691440) can0 156#0100000000000028
(1498256979.691461) can0 3D1#9A100000FD000000
(1498256979.696526) can0 140#000A004000001600
(1498256979.696556) can0 141#5626712700803F00
(1498256979.696560) can0 002#0046700BC1000000
(1498256979.696564) can0 144#C000067C5024A000
(1498256979.697420) can0 280#000A180000000000
(1498256979.697450) can0 360#000045462F000100
(1498256979.697453) can0 361#00013DD162000000
(1498256979.697457) can0 362#FF7189BD7561BE04
(1498256979.699440) can0 284#C101000E00000000
(1498256979.701440) can0 152#E12C000000000880
(1498256979.704436) can0 0D0#DDFF000000000000
(1498256979.704455) can0 0D1#00000080
(1498256979.704458) can0 0D2#0000FFFF10000000
(1498256979.704461) can0 0D3#0046C04E000003
(1498256979.705456) can0 0D4#0000000000000000
(1498256979.705477) can0 370#FFFF200180070000
(1498256979.705495) can0 371#FFFF0000802C0000
(1498256979.706421) can0 002#0046700DC3000000
(1498256979.706452) can0 140#000B004000001600
(1498256979.706457) can0 141#5626722700803F00
(1498256979.711498) can0 156#0100000000000028
(1498256979.716454) can0 280#000B180000000000
(1498256979.716484) can0 002#0046700FC5000000
(1498256979.716489) can0 140#000C004000001600
(1498256979.716493) can0 141#5626722700803F00
(1498256979.717367) can0 144#C000067C5024A000
(1498256979.721427) can0 152#E93C000000000880
(1498256979.721463) can0 376#AD
(1498256979.722411) can0 660#FFFF0BA900000B35
(1498256979.724418) can0 0D0#DDFF000000000000
(1498256979.724442) can0 0D1#00000080
(1498256979.724446) can0 0D2#0000FFFF10000000
(1498256979.724448) can0 0D3#8046C04E000004
(1498256979.725448) can0 0D4#0000000000000000
(1498256979.725475) can0 371#FFFF0000802C0000
(1498256979.725479) can0 372#0068000000000000
(1498256979.726488) can0 140#000D004000001600
(1498256979.726521) can0 002#00467001B7000000
(1498256979.726525) can0 141#5626722700803F00
(1498256979.727366) can0 378#0100000000000000
(1498256979.731441) can0 156#0100000000000028
(1498256979.731464) can0 282#8930008282013A00
(1498256979.736509) can0 140#000E004000001600
(1498256979.736542) can0 141#5626712700803F00
(1498256979.736547) can0 002#00467003B9000000
(1498256979.736551) can0 144#C000067C5024A000
(1498256979.736553) can0 280#000C180000000000
(1498256979.741424) can0 152#E14C000000000880
(1498256979.741457) can0 375#0300000120000200
(1498256979.744445) can0 0D0#DDFF000000000000
(1498256979.744472) can0 0D1#00000080
(1498256979.744476) can0 0D2#0000FFFF10000000
(1498256979.744478) can0 0D3#0046C04E000005
(1498256979.745349) can0 0D4#0000000000000000
(1498256979.745373) can0 371#FFFF0000802C0000
(1498256979.746400) can0 140#000F004000001600
(1498256979.746434) can0 141#5626712700803F00
(1498256979.746438) can0 002#00467005BB000000
(1498256979.746441) can0 360#000045462F000100
(1498256979.747321) can0 361#00013DD163000000
(1498256979.747345) can0 362#FF7189BD7561BE04
(1498256979.750342) can0 25C#2300000000000000
(1498256979.751421) can0 156#0100000000000028
(1498256979.752364) can0 370#FFFF200180080000
(1498256979.756432) can0 280#000D180000000000
(1498256979.756464) can0 002#00467007BD000000
(1498256979.756469) can0 140#0000004000001600
(1498256979.756472) can0 141#5626722700803F00
(1498256979.757409) can0 144#C000067C5024A000
(1498256979.761356) can0 152#E95C000000000880
(1498256979.764434) can0 0D0#DDFF000000000000
(1498256979.764459) can0 0D1#00000080
(1498256979.764462) can0 0D2#0000FFFF10000000
(1498256979.764465) can0 0D3#0046C04E000006
(1498256979.765414) can0 0D4#0000000000000000
(1498256979.765441) can0 371#FFFF0000802D0000
(1498256979.766429) can0 140#0001004000001600
(1498256979.766465) can0 141#5626722700803F00
(1498256979.766468) can0 002#00467009BF000000
(1498256979.771368) can0 156#0100000000000028
(1498256979.771457) can0 376#AD
(1498256979.775418) can0 140#0002004000001600
(1498256979.776442) can0 141#5626722700803F00
(1498256979.776468) can0 002#0046700BC1000000
(1498256979.776480) can0 144#C000067C5024A000
(1498256979.776483) can0 280#000E180000000000
(1498256979.781441) can0 282#8940008282013A00
(1498256979.781473) can0 152#E96C000000000880
(1498256979.784445) can0 0D0#DDFF000000000000
(1498256979.784468) can0 0D1#00000080
(1498256979.784472) can0 0D2#0000FFFF10000000
(1498256979.784474) can0 0D3#8046C04E000007
(1498256979.785412) can0 0D4#0000000000000000
(1498256979.785438) can0 371#FFFF0000802C0000
(1498256979.786436) can0 140#0003004000001600
(1498256979.786471) can0 141#5626722700803F00
(1498256979.786474) can0 002#0046700DC3000000
(1498256979.791444) can0 156#0100000000000028
(1498256979.791470) can0 3D1#9B100000FD000000
(1498256979.796500) can0 140#0004004000001600
(1498256979.796532) can0 002#0046700FC5000000
(1498256979.796537) can0 141#5626722700803F00
(1498256979.796539) can0 144#C000067C5024A000
(1498256979.797495) can0 280#000F180000000000
(1498256979.797528) can0 360#000045462F000100
(1498256979.797532) can0 361#00013DD164000000
(1498256979.797536) can0 362#017289BD7561BE04
(1498256979.799433) can0 284#C102000E00000000
(1498256979.800411) can0 370#FFFF200180090000
(1498256979.801426) can0 152#E17C000000000880
(1498256979.804483) can0 0D0#DDFF000000000000
(1498256979.804507) can0 0D1#00000080
(1498256979.804510) can0 0D2#0000FFFF10000000
(1498256979.804513) can0 0D3#8046C04E000008
(1498256979.805410) can0 0D4#0000000000000000
(1498256979.805439) can0 371#FFFF0000802D0000
(1498256979.806489) can0 140#0005004000001600
(1498256979.806522) can0 002#00467001B7000000
(1498256979.806527) can0 141#5626722700803F00
(1498256979.810403) can0 25C#A400000000000000
(1498256979.811325) can0 156#0100000000000028
(1498256979.815426) can0 140#0006004000001600
(1498256979.816481) can0 141#5626722700803F00
(1498256979.816505) can0 002#00467003B9000000
(1498256979.816517) can0 144#C000067C5024A000
(1498256979.816520) can0 280#0000180000000000
(1498256979.821411) can0 152#E18C000000000880
(1498256979.821449) can0 376#AD
(1498256979.824435) can0 0D0#DDFF000000000000
(1498256979.824455) can0 0D1#00000080
(1498256979.824458) can0 0D2#0000FFFF10000000
(1498256979.824461) can0 0D3#0046C04E000009
(1498256979.825345) can0 0D4#0000000000000000
(1498256979.825361) can0 371#FFFF0000802C0000
(1498256979.825374) can0 372#0070000000000000
(1498256979.825397) can0 140#0007004000001600
(1498256979.826337) can0 141#5626722700803F00
(1498256979.826349) can0 002#00467005BB000000
(1498256979.831346) can0 156#0100000000000028
(1498256979.831358) can0 282#8950008282013A00
(1498256979.836430) can0 140#0008004000001600
(1498256979.836446) can0 141#5626722700803F00
(1498256979.836449) can0 002#00467007BD000000
(1498256979.836454) can0 144#C000067C5024A000
(1498256979.836486) can0 280#0001180000000000
(1498256979.841343) can0 152#E99C000000000880
(1498256979.844418) can0 0D0#DDFF000000000000
(1498256979.844430) can0 0D1#00000080
(1498256979.844432) can0 0D2#0000FFFF10000000
(1498256979.844434) can0 0D3#0046C04E00000A
(1498256979.845346) can0 0D4#0000000000000000
(1498256979.845363) can0 371#FFFF0000802C0000
(1498256979.845442) can0 140#0009004000001600
(1498256979.846420) can0 141#5626722700803F00
(1498256979.846432) can0 002#00467009BF000000
(1498256979.846439) can0 360#000045462F000100
(1498256979.846443) can0 361#00013DD165000000
(1498256979.847329) can0 362#017289BD7561BE04
(1498256979.848344) can0 370#FFFF2001800A0000
(1498256979.851341) can0 156#0100000000000028
(1498256979.855340) can0 140#000A004000001600
(1498256979.856358) can0 141#5626722700803F00
(1498256979.856374) can0 002#0046700BC1000000
(1498256979.856385) can0 144#C000067C5024A000
(1498256979.856388) can0 280#0002180000000000
(1498256979.861350) can0 152#E9AC000000000880
(1498256979.864468) can0 0D0#DDFF000000000000
(1498256979.864488) can0 0D1#00000080
(1498256979.864491) can0 0D2#0000FFFF10000000
(1498256979.864493) can0 0D3#8046C04E00000B
(1498256979.865458) can0 0D4#0000000000000000
(1498256979.865478) can0 371#FFFF0000802C0000
(1498256979.865482) can0 140#000B004000001600
(1498256979.866448) can0 141#5626722700803F00
(1498256979.866471) can0 002#0046700DC3000000
(1498256979.870424) can0 25C#2500000000000000
(1498256979.871441) can0 156#0100000000000028
(1498256979.871462) can0 376#AD
(1498256979.876467) can0 140#000C004000001600
(1498256979.876497) can0 141#5626722700803F00
(1498256979.876500) can0 002#0046700FC5000000
(1498256979.876504) can0 144#C000067C5024A000
(1498256979.876506) can0 280#0003180000000000
(1498256979.881459) can0 282#8960008282013A00
(1498256979.881489) can0 152#E1BC000000000880
(1498256979.884463) can0 0D0#DDFF000000000000
(1498256979.884484) can0 0D1#00000080
(1498256979.884487) can0 0D2#0000FFFF10000000
(1498256979.884489) can0 0D3#0046C04E00000C
(1498256979.885461) can0 0D4#0000000000000000
(1498256979.885482) can0 371#FFFF0000802D0000
(1498256979.885495) can0 140#000D004000001600
(1498256979.886448) can0 141#5626722700803F00
(1498256979.886469) can0 002#00467001B7000000
(1498256979.891457) can0 156#0100000000000028
(1498256979.891479) can0 3D1#9A100000FD000000
(1498256979.895438) can0 140#000E004000001600
(1498256979.896453) can0 141#5626712700803F00
(1498256979.896484) can0 144#C000067C5024A000
(1498256979.896487) can0 002#00467003B9000000
(1498256979.896491) can0 280#0004180000000000
(1498256979.897433) can0 360#000045462F000100
(1498256979.897458) can0 361#00013DD166000000
(1498256979.897468) can0 362#017289BD7561BE04
(1498256979.897472) can0 370#FFFF2001800B0000
(1498256979.899435) can0 284#C103000E00000000
(1498256979.901371) can0 152#E9CC000000000880
(1498256979.904510) can0 0D0#DDFF000000000000
(1498256979.904531) can0 0D1#00000080
(1498256979.904534) can0 0D2#0000FFFF10000000
(1498256979.904537) can0 0D3#8046C04E00000D
(1498256979.905426) can0 0D4#0000000000000000
(1498256979.905446) can0 371#FFFF0000802D0000
(1498256979.906467) can0 140#000F004000001600
(1498256979.906498) can0 002#00467005BB000000
(1498256979.906502) can0 141#5626712700803F00
(1498256979.911439) can0 156#0100000000000028
(1498256979.916516) can0 140#0000004000001600
(1498256979.916544) can0 141#5626712700803F00
(1498256979.916547) can0 002#00467007BD000000
(1498256979.916551) can0 144#C000067C5024A000
(1498256979.916554) can0 280#0005180000000000
(1498256979.921324) can0 152#E1DC000000000880
(1498256979.921346) can0 376#AD
(1498256979.924462) can0 0D0#DDFF000000000000
(1498256979.924481) can0 0D1#00000080
(1498256979.924483) can0 0D2#0000FFFF10000000
(1498256979.924485) can0 0D3#8046C04E00000E
(1498256979.925461) can0 0D4#0000000000000000
(1498256979.925482) can0 371#FFFF0000802D0000
(1498256979.925486) can0 372#0080000000000000
(1498256979.925497) can0 140#0001004000001600
(1498256979.926441) can0 141#5626722700803F00
(1498256979.926473) can0 002#00467009BF000000
(1498256979.930438) can0 25C#2600000000000000
(1498256979.931445) can0 156#0100000000000028
(1498256979.931466) can0 282#8970008282013A00
(1498256979.935455) can0 140#0002004000001600
(1498256979.936504) can0 141#5626722700803F00
(1498256979.936526) can0 144#C000067C5024A000
(1498256979.936530) can0 002#0046700BC1000000
(1498256979.936542) can0 280#0006180000000000
(1498256979.941429) can0 152#E1EC000000000880
(1498256979.941460) can0 374#0808000080000000
(1498256979.944448) can0 0D0#DDFF000000000000
(1498256979.944470) can0 0D1#00000080
(1498256979.944473) can0 0D2#0000FFFF10000000
(1498256979.944476) can0 0D3#0046C04E00000F
(1498256979.945465) can0 0D4#0000000000000000
(1498256979.945484) can0 370#FFFF2001800C0000
(1498256979.945497) can0 371#FFFF0000802D0000
(1498256979.945500) can0 140#0003004000001600
(1498256979.946376) can0 141#5626722700803F00
(1498256979.946393) can0 002#0046700DC3000000
(1498256979.946407) can0 360#000045462F000100
(1498256979.946412) can0 361#00013DD167000000
(1498256979.947334) can0 362#017289BD7561BE04
(1498256979.951398) can0 156#0100000000000028
(1498256979.955432) can0 140#0004004000001600
(1498256979.956438) can0 141#5626722700803F00
(1498256979.956459) can0 002#0046700FC5000000
(1498256979.956471) can0 144#C000067C5024A000
(1498256979.956473) can0 280#0007180000000000
(1498256979.961353) can0 152#E9FC000000000880
(1498256979.964458) can0 0D0#DDFF000000000000
(1498256979.964478) can0 0D1#00000080
(1498256979.964481) can0 0D2#0000FFFF10000000
(1498256979.964483) can0 0D3#8046C04E000010
(1498256979.965507) can0 0D4#0000000000000000
(1498256979.965527) can0 371#FFFF0000802D0000
(1498256979.965530) can0 140#0005004000001600
(1498256979.966429) can0 141#5626722700803F00
(1498256979.966450) can0 002#00467001B7000000
(1498256979.971437) can0 156#0100000000000028
(1498256979.971459) can0 376#AD
(1498256979.975449) can0 140#0006004000001600
(1498256979.975477) can0 141#5626722700803F00
(1498256979.976448) can0 144#C000067C5024A000
(1498256979.976468) can0 002#00467003B9000000
(1498256979.976481) can0 280#0008180000000000
(1498256979.981450) can0 282#8A80008282013A00
(1498256979.981480) can0 152#E90C000000000880
(1498256979.984466) can0 0D0#DDFF000000000000
(1498256979.984486) can0 0D1#00000080
(1498256979.984489) can0 0D2#0000FFFF10000000
(1498256979.984491) can0 0D3#0046C04E000011
(1498256979.985509) can0 0D4#0000000000000000
(1498256979.985531) can0 371#FFFF0000802C0000
(1498256979.985545) can0 140#0007004000001600
(1498256979.986410) can0 141#5626712700803F00
(1498256979.986441) can0 002#00467005BB000000
(1498256979.990422) can0 25C#A700000000000000
(1498256979.991443) can0 156#0100000000000028
(1498256979.991465) can0 3D1#9A100000FD000000
(1498256979.992437) can0 370#FFFF2001800D0000
(1498256979.995431) can0 140#0008004000001600
(1498256979.996450) can0 141#5626712700803F00
(1498256979.996473) can0 002#00467007BD000000
(1498256979.996489) can0 144#C000067C5024A000
(1498256979.996493) can0 280#0009180000000000
(1498256979.997447) can0 360#000045462F000100
(1498256979.997468) can0 361#00013DD168000000
(1498256979.997480) can0 362#027289BD7561BE04
(1498256979.999434) can0 284#C104000E00000000
(1498256980.001436) can0 152#E11C000000000880
(1498256980.004509) can0 0D0#DDFF000000000000
(1498256980.004529) can0 0D1#00000080
(1498256980.004533) can0 0D2#0000FFFF10000000
(1498256980.004535) can0 0D3#0046C04E000012
(1498256980.005427) can0 0D4#0000000000000000
(1498256980.005449) can0 371#FFFF0000802C0000
(1498256980.005453) can0 140#0009004000001600
(1498256980.006450) can0 141#5626722700803F00
(1498256980.006478) can0 002#00467009BF000000
(1498256980.011441) can0 156#0100000000000028
(1498256980.015427) can0 140#000A004000001600
(1498256980.015455) can0 141#5626722700803F00
(1498256980.016495) can0 144#C000067C5024A000
(1498256980.016517) can0 002#0046700BC1000000
(1498256980.016529) can0 280#000A180000000000
(1498256980.019443) can0 37A#0000000000040000
(1498256980.021443) can0 152#E12C000000000880
(1498256980.021471) can0 376#AD
(1498256980.024507) can0 0D0#DDFF000000000000
(1498256980.024526) can0 0D1#00000080
(1498256980.024529) can0 0D2#0000FFFF10000000
(1498256980.024532) can0 0D3#8046C04E000013
(1498256980.025438) can0 0D4#0000000000000000
(1498256980.025458) can0 371#FFFF0000802D0000
(1498256980.025471) can0 372#0098000000000000
(1498256980.025474) can0 140#000B004000001600
(1498256980.026442) can0 141#5626722700803F00
(1498256980.026464) can0 002#0046700DC3000000
(1498256980.031436) can0 156#0100000000000028
(1498256980.031457) can0 282#8A90008282013A00
(1498256980.035447) can0 140#000C004000001600
(1498256980.036473) can0 141#5626722700803F00
(1498256980.036494) can0 144#C000067C5024A000
(1498256980.036497) can0 002#0046700FC5000000
(1498256980.036508) can0 280#000B180000000000
(1498256980.040442) can0 370#FFFF2001800E0000
(1498256980.041428) can0 152#E93C000000000880
(1498256980.044509) can0 0D0#DDFF000000000000
(1498256980.044529) can0 0D1#00000080
(1498256980.044532) can0 0D2#0000FFFF10000000
(1498256980.044535) can0 0D3#0046C04E000014
(1498256980.045427) can0 0D4#0000000000000000
(1498256980.045443) can0 371#FFFF0000802D0000
(1498256980.045447) can0 140#000D004000001600
(1498256980.045456) can0 141#5626722700803F00
(1498256980.046439) can0 360#000045462F000100
(1498256980.046458) can0 002#00467001B7000000
(1498256980.046470) can0 361#00013DD169000000
(1498256980.046474) can0 362#027289BD7561BE04
(1498256980.050420) can0 25C#2000000000000000
(1498256980.051434) can0 156#0100000000000028
(1498256980.055455) can0 140#000E004000001600
(1498256980.055485) can0 141#5626712700803F00
(1498256980.056457) can0 144#C000067C5024A000
(1498256980.056478) can0 002#00467003B9000000
(1498256980.056490) can0 280#000C180000000000
(1498256980.061368) can0 152#E14C000000000880
(1498256980.064392) can0 0D0#DDFF000000000000
(1498256980.064413) can0 0D1#00000080
(1498256980.064417) can0 0D2#0000FFFF10000000
(1498256980.064420) can0 0D3#8046C04E000015
(1498256980.065511) can0 0D4#0000000000000000
(1498256980.065532) can0 371#FFFF0000802C0000
(1498256980.065544) can0 140#000F004000001600
(1498256980.065548) can0 141#5626722700803F00
(1498256980.066389) can0 002#00467005BB000000
(1498256980.071443) can0 156#0100000000000028
(1498256980.071464) can0 376#AD
(1498256980.075451) can0 140#0000004000001600
(1498256980.075479) can0 141#5626722700803F00
(1498256980.076438) can0 144#C000067C5024A000
(1498256980.076458) can0 002#00467007BD000000
(1498256980.076469) can0 280#000D180000000000
(1498256980.081449) can0 282#89A0008282013A00
(1498256980.081476) can0 152#E95C000000000880
(1498256980.084461) can0 0D0#DDFF000000000000
(1498256980.084481) can0 0D1#00000080
(1498256980.084484) can0 0D2#0000FFFF10000000
(1498256980.084486) can0 0D3#8046C04E000016
(1498256980.085506) can0 0D4#0000000000000000
(1498256980.085527) can0 371#FFFF0000802C0000
(1498256980.085531) can0 140#0001004000001600
(1498256980.085542) can0 141#5626722700803F00
(1498256980.086421) can0 002#00467009BF000000
(1498256980.088443) can0 370#FFFF2001800F0000
(1498256980.091446) can0 156#0100000000000028
(1498256980.091467) can0 3D1#9A100000FD000000
(1498256980.095458) can0 140#0002004000001600
(1498256980.095487) can0 141#5626712700803F00
(1498256980.096514) can0 144#C000067C5024A000
(1498256980.096535) can0 002#0046700BC1000000
(1498256980.096547) can0 280#000E180000000000
(1498256980.096551) can0 360#000045462F000100
(1498256980.096554) can0 361#00013DD16A000000
(1498256980.097431) can0 362#047289BD7561BE04
(1498256980.099366) can0 284#C105000E00000000
(1498256980.101370) can0 152#E96C000000000880
(1498256980.104498) can0 0D0#DDFF000000000000
(1498256980.104518) can0 0D1#00000080
(1498256980.104521) can0 0D2#0000FFFF10000000
(1498256980.104523) can0 0D3#0046C04E000017
(1498256980.105422) can0 0D4#0000000000000000
(1498256980.105443) can0 371#FFFF0000802D0000
(1498256980.105455) can0 140#0003004000001600
(1498256980.106444) can0 141#5626722700803F00
(1498256980.106474) can0 002#0046700DC3000000
(1498256980.110439) can0 25C#A100000000000000
(1498256980.111343) can0 156#0100000000000028
(1498256980.115392) can0 140#0004004000001600
(1498256980.115457) can0 141#5626722700803F00
(1498256980.116489) can0 144#C000067C5024A000
(1498256980.116510) can0 002#0046700FC5000000
(1498256980.116522) can0 280#000F180000000000
(1498256980.121363) can0 152#E17C000000000880
(1498256980.121392) can0 376#AD
(1498256980.124384) can0 372#00A8000000000000
(1498256980.124441) can0 0D0#DDFF000000000000
(1498256980.124446) can0 0D1#00000080
(1498256980.124450) can0 0D2#0000FFFF10000000
(1498256980.125342) can0 0D3#0046C04E000018
(1498256980.125361) can0 0D4#0000000000000000
(1498256980.125365) can0 371#FFFF0000802D0000
(1498256980.125367) can0 140#0005004000001600
(1498256980.126339) can0 141#5626722700803F00
(1498256980.126354) can0 002#00467001B7000000
(1498256980.131477) can0 156#0100000000000028
(1498256980.131497) can0 282#89B0008282013A00
(1498256980.135458) can0 140#0006004000001600
(1498256980.135530) can0 141#5626722700803F00
(1498256980.136350) can0 144#C000067C5024A000
(1498256980.136369) can0 002#00467003B9000000
(1498256980.136376) can0 280#0000180000000000
(1498256980.136380) can0 370#FFFF200180000000
(1498256980.141327) can0 152#E18C000000000880
(1498256980.144519) can0 0D0#DDFF000000000000
(1498256980.144542) can0 0D1#00000080
(1498256980.144546) can0 0D2#0000FFFF10000000
(1498256980.144548) can0 0D3#8046C04E000019
(1498256980.145485) can0 0D4#0000000000000000
(1498256980.145503) can0 371#FFFF0000802D0000
(1498256980.145506) can0 140#0007004000001600
(1498256980.145515) can0 141#5626722700803F00
(1498256980.146427) can0 360#000045462F000100
(1498256980.146451) can0 002#00467005BB000000
(1498256980.146463) can0 361#00013DD16B000000
(1498256980.146467) can0 362#047289BD7561BE04
(1498256980.151423) can0 156#0100000000000028
(1498256980.155351) can0 140#0008004000001600
(1498256980.155392) can0 141#5626712700803F00
(1498256980.156338) can0 144#C000067C5024A000
(1498256980.156363) can0 002#00467007BD000000
(1498256980.156387) can0 280#0001180000000000
(1498256980.156401) can0 281#0000FCFC40000000
(1498256980.161420) can0 152#E99C000000000880
(1498256980.164439) can0 0D0#DDFF000000000000
(1498256980.164463) can0 0D1#00000080
(1498256980.164466) can0 0D2#0000FFFF10000000
(1498256980.164468) can0 0D3#8046C04E00001A
(1498256980.165502) can0 0D4#0000000000000000
(1498256980.165527) can0 371#FFFF0000802D0000
(1498256980.165531) can0 140#0009004000001600
(1498256980.165543) can0 141#5626722700803F00
(1498256980.166411) can0 002#00467009BF000000
(1498256980.170428) can0 25C#A200000000000000
(1498256980.171350) can0 156#0100000000000028
(1498256980.171398) can0 376#AD
(1498256980.175508) can0 140#000A004000001600
(1498256980.175542) can0 141#5626722700803F00
(1498256980.175546) can0 144#C000067C5024A000
(1498256980.176427) can0 002#0046700BC1000000
(1498256980.176463) can0 280#0002180000000000
(1498256980.181373) can0 282#89C0008282013A00
(1498256980.181407) can0 152#E9AC000000000880
(1498256980.184425) can0 0D0#DDFF000000000000
(1498256980.184449) can0 0D1#00000080
(1498256980.184452) can0 0D2#0000FFFF10000000
(1498256980.184455) can0 0D3#0046C04E00001B
(1498256980.185488) can0 0D4#0000000000000000
(1498256980.185512) can0 370#FFFF200180010000
(1498256980.185524) can0 140#000B004000001600
(1498256980.185530) can0 141#5626722700803F00
(1498256980.186436) can0 371#FFFF0000802D0000
(1498256980.186466) can0 002#0046700DC3000000
(1498256980.186477) can0 6C8#F000000000000000
(1498256980.191477) can0 156#0100000000000028
(1498256980.192400) can0 3D1#9B100000FD000000
(1498256980.195349) can0 140#000C004000001600
(1498256980.195406) can0 141#5626722700803F00
(1498256980.196496) can0 144#C000067C5024A000
(1498256980.196522) can0 002#0046700FC5000000
(1498256980.196537) can0 280#0003180000000000
(1498256980.196544) can0 360#000045462F000100
(1498256980.196548) can0 361#00013DD16C000000
(1498256980.197403) can0 362#047289BD7561BE04
(1498256980.199482) can0 284#C106000E00000000
(1498256980.201419) can0 152#E1BC000000000880
(1498256980.204444) can0 0D0#DDFF000000000000
(1498256980.204468) can0 0D1#00000080
(1498256980.204472) can0 0D2#0000FFFF10000000
(1498256980.204475) can0 0D3#8046C04E00001C
(1498256980.205498) can0 0D4#0000000000000000
(1498256980.205521) can0 371#FFFF0000802C0000
(1498256980.205533) can0 140#000D004000001600
(1498256980.205539) can0 141#5626722700803F00
(1498256980.206420) can0 002#00467001B7000000
(1498256980.211429) can0 156#0100000000000028
(1498256980.215489) can0 140#000E004000001600
(1498256980.215521) can0 141#5626722700803F00
(1498256980.215524) can0 144#C000067C5024A000
(1498256980.216427) can0 002#00467003B9000000
(1498256980.216460) can0 280#0004180000000000
(1498256980.221434) can0 152#E9CC000000000880
(1498256980.221465) can0 376#AD
(1498256980.222382) can0 660#FFFF0BA900000B3A
(1498256980.224489) can0 372#00B0000000000000
(1498256980.224523) can0 0D0#DDFF000000000000
(1498256980.224527) can0 0D1#00000080
(1498256980.224531) can0 0D2#0000FFFF10000000
(1498256980.225496) can0 0D3#0046C04E00001D
(1498256980.225528) can0 0D4#0000000000000000
(1498256980.225532) can0 140#000F004000001600
(1498256980.225538) can0 141#5626722700803F00
(1498256980.226393) can0 371#FFFF0000802D0000
(1498256980.226426) can0 002#00467005BB000000
(1498256980.230429) can0 25C#2300000000000000
(1498256980.231437) can0 156#0100000000000028
(1498256980.231460) can0 282#89D0008282013A00
(1498256980.232424) can0 370#FFFF200180020000
(1498256980.235429) can0 140#0000004000001600
(1498256980.235464) can0 141#5626712700803F00
(1498256980.235470) can0 144#C000067C5024A000
(1498256980.236432) can0 002#00467007BD000000
(1498256980.236463) can0 280#0005180000000000
(1498256980.241422) can0 152#E1DC000000000880
(1498256980.244428) can0 0D0#DDFF000000000000
(1498256980.244452) can0 0D1#00000080
(1498256980.244455) can0 0D2#0000FFFF10000000
(1498256980.244458) can0 0D3#0046C04E00001E
(1498256980.245425) can0 0D4#0000000000000000
(1498256980.245452) can0 371#FFFF0000802D0000
(1498256980.245457) can0 140#0001004000001600
(1498256980.245470) can0 141#5626722700803F00
(1498256980.246440) can0 360#000045462F000100
(1498256980.246464) can0 002#00467009BF000000
(1498256980.246477) can0 361#00013DD16D000000
(1498256980.246483) can0 362#047289BD7561BE04
(1498256980.251428) can0 156#0100000000000028
(1498256980.255416) can0 140#0002004000001600
(1498256980.255446) can0 141#5626712700803F00
(1498256980.255452) can0 144#C000067C5024A000
(1498256980.256436) can0 002#0046700BC1000000
(1498256980.256466) can0 280#0006180000000000
(1498256980.261428) can0 152#E1EC000000000880
(1498256980.264410) can0 0D0#DDFF000000000000
(1498256980.264437) can0 0D1#00000080
(1498256980.264442) can0 0D2#0000FFFF10000000
(1498256980.264446) can0 0D3#8046C04E00001F
(1498256980.265419) can0 0D4#0000000000000000
(1498256980.265441) can0 371#FFFF0000802C0000
(1498256980.265453) can0 140#0003004000001600
(1498256980.265457) can0 141#5626722700803F00
(1498256980.266428) can0 002#0046700DC3000000
(1498256980.271442) can0 156#0100000000000028
(1498256980.271463) can0 376#AD
(1498256980.275446) can0 140#0004004000001600
(1498256980.275475) can0 141#5626722700803F00
(1498256980.275478) can0 144#C000067C5024A000
(1498256980.276444) can0 002#0046700FC5000000
(1498256980.276472) can0 280#0007180000000000
(1498256980.280438) can0 370#FFFF200180030000
(1498256980.281447) can0 282#89E0008282013A00
(1498256980.281475) can0 152#E9FC000000000880
(1498256980.284505) can0 0D0#DDFF000000000000
(1498256980.284529) can0 0D1#00000080
(1498256980.284533) can0 0D2#0000FFFF10000000
(1498256980.284535) can0 0D3#8046C04E000020
(1498256980.285447) can0 0D4#0000000000000000
(1498256980.285468) can0 371#FFFF0000802D0000
(1498256980.285481) can0 140#0005004000001600
(1498256980.285486) can0 141#5626722700803F00
(1498256980.286381) can0 002#00467001B7000000
(1498256980.290414) can0 25C#A400000000000000
(1498256980.291434) can0 156#0100000000000028
(1498256980.292423) can0 3D1#9A100000FD000000
(1498256980.295427) can0 140#0006004000001600
(1498256980.295454) can0 141#5626722700803F00
(1498256980.295457) can0 144#C000067C5024A000
(1498256980.296452) can0 360#000045462F000100
(1498256980.296472) can0 002#00467003B9000000
(1498256980.296483) can0 280#0008180000000000
(1498256980.296488) can0 361#00013DD16E000000
(1498256980.296492) can0 362#037289BD7561BE04
(1498256980.299437) can0 284#C107000E00000000
(1498256980.301432) can0 152#E90C000000000880
(1498256980.304439) can0 0D0#DDFF000000000000
(1498256980.304459) can0 0D1#00000080
(1498256980.304462) can0 0D2#0000FFFF10000000
(1498256980.304464) can0 0D3#0046C04E000021
(1498256980.305505) can0 0D4#0000000000000000
(1498256980.305526) can0 371#FFFF0000802D0000
(1498256980.305529) can0 140#0007004000001600
(1498256980.305540) can0 141#5626712700803F00
(1498256980.306401) can0 002#00467005BB000000
(1498256980.311439) can0 156#0100000000000028
(1498256980.315468) can0 140#0008004000001600
(1498256980.315498) can0 141#5626722700803F00
(1498256980.315503) can0 144#C000067C5024A000
(1498256980.316319) can0 002#00467007BD000000
(1498256980.316340) can0 280#0009180000000000
(1498256980.321303) can0 152#E11C000000000880
(1498256980.321313) can0 376#AD
(1498256980.324500) can0 372#00C8000000000000
(1498256980.324535) can0 0D0#DDFF000000000000
(1498256980.324538) can0 0D1#00000080
(1498256980.324542) can0 0D2#0000FFFF10000000
(1498256980.324545) can0 0D3#0046C04E000022
(1498256980.325491) can0 0D4#0000000000000000
(1498256980.325517) can0 140#0009004000001600
(1498256980.325533) can0 141#5626722700803F00
(1498256980.325537) can0 371#FFFF0000802D0000
(1498256980.326357) can0 002#00467009BF000000
(1498256980.328429) can0 370#FFFF200180040000
(1498256980.331442) can0 156#0100000000000028
(1498256980.331465) can0 282#89F0008282013A00
(1498256980.335452) can0 140#000A004000001600
(1498256980.335483) can0 141#5626722700803F00
(1498256980.335486) can0 144#C000067C5024A000
(1498256980.336407) can0 002#0046700BC1000000
(1498256980.336435) can0 280#000A180000000000
(1498256980.341427) can0 152#E12C000000000880
(1498256980.344379) can0 0D0#DDFF000000000000
(1498256980.344409) can0 0D1#00000080
(1498256980.344413) can0 0D2#0000FFFF10000000
(1498256980.344416) can0 0D3#8046C04E000023
(1498256980.345415) can0 0D4#0000000000000000
(1498256980.345434) can0 140#000B004000001600
(1498256980.345447) can0 141#5626722700803F00
(1498256980.345453) can0 360#000045462F000100
(1498256980.346382) can0 361#00013ED16F000000
(1498256980.346399) can0 002#0046700DC3000000
(1498256980.346404) can0 362#037289BD7561BE04
(1498256980.346406) can0 371#FFFF0000802D0000
(1498256980.350417) can0 25C#2500000000000000
(1498256980.351418) can0 156#0100000000000028
(1498256980.355412) can0 140#000C004000001600
(1498256980.355445) can0 141#5626722700803F00
(1498256980.355450) can0 144#C000067C5024A000
(1498256980.356439) can0 002#0046700FC5000000
(1498256980.356469) can0 280#000B180000000000
(1498256980.361425) can0 152#E93C000000000880
(1498256980.364414) can0 0D0#DDFF000000000000
(1498256980.364437) can0 0D1#00000200
(1498256980.364448) can0 0D2#0000FFFF10000000
(1498256980.365499) can0 0D3#8046E04E000024
(1498256980.365533) can0 0D4#0000000000000000
(1498256980.365537) can0 140#000D004000001600
(1498256980.365542) can0 141#5626722700803F00
(1498256980.366424) can0 371#FFFF0000802D0000
(1498256980.366450) can0 002#00467001B7000000
(1498256980.371419) can0 156#0100000000000028
(1498256980.371448) can0 376#AD
(1498256980.375442) can0 140#000E004000001600
(1498256980.375474) can0 141#5626722700803F00
(1498256980.375479) can0 144#C000067C5024A800
(1498256980.376485) can0 002#00467003B9000000
(1498256980.376514) can0 280#000C180000000000
(1498256980.376520) can0 370#FFFF200180050000
(1498256980.381438) can0 282#8A00008282013A00
(1498256980.381469) can0 152#E14C000000000880
(1498256980.384410) can0 0D0#DDFF000000000000
(1498256980.384437) can0 0D1#00000400
(1498256980.385432) can0 0D2#0000FFFF10000000
(1498256980.385457) can0 0D3#0046E04E000025
(1498256980.385468) can0 0D4#0000000000000000
(1498256980.385474) can0 140#000F004000001600
(1498256980.385479) can0 141#5626722700803F00
(1498256980.386302) can0 371#FFFF0000802D0000
(1498256980.386315) can0 002#00467005BB000000
(1498256980.391307) can0 156#0100000000000028
(1498256980.392325) can0 3D1#9A100000FD000000
(1498256980.395339) can0 140#0000004000001600
(1498256980.395405) can0 141#5626722700803F00
(1498256980.395407) can0 144#C000067C5024A800
(1498256980.396401) can0 360#000045462F000100
(1498256980.396417) can0 002#00467007BD000000
(1498256980.396424) can0 280#000D180000000000
(1498256980.396429) can0 361#000141D160000000
(1498256980.397320) can0 362#037289BD7561BE04
(1498256980.400325) can0 284#C108000E00000000
(1498256980.401339) can0 152#E15C000000001880
(1498256980.402297) can0 6D1#7835020000000000
(1498256980.404348) can0 0D0#DDFF000000000000
(1498256980.404365) can0 0D1#00000580
(1498256980.404377) can0 0D2#0000FFFF10000000
(1498256980.405410) can0 0D3#0046E04E000026
(1498256980.405431) can0 0D4#0000000000000000
(1498256980.405434) can0 371#FFFF0000802C0000
(1498256980.405438) can0 140#0001004000001600
(1498256980.406337) can0 141#5626722700803F00
(1498256980.406355) can0 002#00467009BF000000
(1498256980.410337) can0 25C#2600000000000000
(1498256980.411332) can0 156#0100000000000028
(1498256980.415400) can0 140#0002004000001600
(1498256980.415418) can0 141#5626712700803F00
(1498256980.415422) can0 144#C000067C5024A800
(1498256980.416321) can0 002#0046700BC1000000
(1498256980.416337) can0 280#000E180000000000
(1498256980.421328) can0 152#E16C000000001880
(1498256980.421336) can0 376#AD
(1498256980.424389) can0 372#00D0000000000000
(1498256980.424397) can0 0D0#DDFF000000000000
(1498256980.424399) can0 0D1#00000700
(1498256980.424402) can0 0D2#0000FFFF10000000
(1498256980.425408) can0 0D3#8046E04E000027
(1498256980.425428) can0 0D4#0000000000000000
(1498256980.425433) can0 140#0003004000001600
(1498256980.425438) can0 141#5626722700803F00
(1498256980.426355) can0 370#FFFF200180060000
(1498256980.426372) can0 002#0046700DC3000000
(1498256980.426377) can0 371#FFFF0000802D0000
(1498256980.431349) can0 156#0100000000000028
(1498256980.431365) can0 282#8A10008282013A00
(1498256980.435344) can0 140#0004004000001600
(1498256980.435363) can0 141#5626722700803F00
(1498256980.435366) can0 144#C000067C5024A800
(1498256980.436310) can0 002#0046700FC5000000
(1498256980.436317) can0 280#000F180000000000
(1498256980.441323) can0 152#E97C000000001880
(1498256980.444333) can0 0D0#DDFF000000000000
(1498256980.444337) can0 0D1#00000800
(1498256980.445416) can0 0D2#0000FFFF10000000
(1498256980.445428) can0 0D3#8046E04E000028
(1498256980.445435) can0 0D4#0000000000000000
(1498256980.445437) can0 140#0005004000001600
(1498256980.445440) can0 141#5626722700803F00
(1498256980.446338) can0 360#000045462F000100
(1498256980.446385) can0 002#00467001B7000000
(1498256980.446397) can0 361#000144D161000000
(1498256980.446403) can0 362#037289BD7561BE04
(1498256980.446554) can0 371#FFFF0000802D0000
(1498256980.451343) can0 156#0100000000000028
(1498256980.455344) can0 140#0006004000001600
(1498256980.455359) can0 141#5626722700803F00
(1498256980.455362) can0 144#C000067C5024A800
(1498256980.456351) can0 002#00467003B9000000
(1498256980.456367) can0 280#0000180000000000
(1498256980.461342) can0 152#E98C000000001880
(1498256980.464343) can0 0D0#DDFF000000000000
(1498256980.464362) can0 0D1#00000980
(1498256980.464398) can0 0D2#0000FFFF10000000
(1498256980.465408) can0 0D3#0046E04E000029
(1498256980.465423) can0 0D4#0000000000000000
(1498256980.465426) can0 140#0007004000001600
(1498256980.465429) can0 141#5626722700803F00
(1498256980.466331) can0 371#FFFF0000802C0000
(1498256980.466346) can0 002#00467005BB000000
(1498256980.470340) can0 25C#A700000000000000
(1498256980.471343) can0 156#0100000000000028
(1498256980.471355) can0 376#AD
(1498256980.472340) can0 370#FFFF200180070000
(1498256980.475415) can0 140#0008004000001600
(1498256980.475429) can0 141#5626722700803F00
(1498256980.475432) can0 144#C000067C5024A800
(1498256980.476353) can0 002#00467007BD000000
(1498256980.476369) can0 280#0001180000000000
(1498256980.481353) can0 282#8920008282013A00
(1498256980.481368) can0 152#E19C000000001880
(1498256980.484360) can0 0D0#DDFF000000000000
(1498256980.484372) can0 0D1#00000A80
(1498256980.484379) can0 0D2#0000FFFF10000000
(1498256980.485413) can0 0D3#0046E04E00002A
(1498256980.485429) can0 0D4#0000000000000000
(1498256980.485431) can0 140#0009004000001600
(1498256980.485434) can0 141#5626722700803F00
(1498256980.486346) can0 371#FFFF0000802D0000
(1498256980.486361) can0 002#00467009BF000000
(1498256980.491339) can0 156#0100000000000028
(1498256980.492340) can0 3D1#9A100000FD000000
(1498256980.495468) can0 140#000A004000001600
(1498256980.495484) can0 141#5626722700803F00
(1498256980.495487) can0 144#C000067C5024A800
(1498256980.495489) can0 360#000045462F000100
(1498256980.495491) can0 361#000149D162000000
(1498256980.496347) can0 002#0046700BC1000000
(1498256980.496363) can0 280#0002180000000000
(1498256980.496367) can0 362#027289BD7561BE04
(1498256980.500330) can0 284#C109000E00000000
(1498256980.501339) can0 152#E1AC000000001880
(1498256980.504356) can0 0D0#DDFF000000000000
(1498256980.504367) can0 0D1#00000C80
(1498256980.504374) can0 0D2#0000FFFF10000000
(1498256980.505414) can0 0D3#8046E04E00002B
(1498256980.505433) can0 0D4#0000000000000000
(1498256980.505438) can0 140#000B004000001600
(1498256980.505443) can0 141#5626722700803F00
(1498256980.506335) can0 371#FFFF0000802D0000
(1498256980.506350) can0 002#0046700DC3000000
(1498256980.511333) can0 156#0100000000000028
(1498256980.515399) can0 140#000C004000001600
(1498256980.515417) can0 141#5626722700803F00
(1498256980.515421) can0 144#C000067C5024A800
(1498256980.516318) can0 002#0046700FC5000000
(1498256980.516331) can0 280#0003180000000000
(1498256980.520291) can0 370#FFFF200180080000
(1498256980.521344) can0 152#E9BC000000001880
(1498256980.521359) can0 376#AD
(1498256980.524428) can0 372#00E0000000000000
(1498256980.524457) can0 0D0#DDFF000000000000
(1498256980.524462) can0 0D1#00000D00
(1498256980.524470) can0 0D2#0000FFFF10000000
(1498256980.525502) can0 0D3#0046E04E00002C
(1498256980.525532) can0 0D4#0000000000000000
(1498256980.525535) can0 140#000D004000001600
(1498256980.525539) can0 141#5626712700803F00
(1498256980.526428) can0 371#FFFF0000802D0000
(1498256980.526448) can0 002#00467001B7000000
(1498256980.530415) can0 25C#2000000000000000
(1498256980.531405) can0 156#0100000000000028
(1498256980.531427) can0 282#8930008282013A00
(1498256980.535447) can0 140#000E004000001600
(1498256980.535476) can0 141#5626722700803F00
(1498256980.535480) can0 144#C000067C5024A800
(1498256980.536445) can0 002#00467003B9000000
(1498256980.536473) can0 280#0004180000000000
(1498256980.541438) can0 152#E1CC000000001880
(1498256980.544370) can0 0D0#DDFF000000000000
(1498256980.544395) can0 0D1#00000E00
(1498256980.544409) can0 0D2#0000FFFF10000000
(1498256980.545401) can0 0D3#8046E04E00002D
(1498256980.545421) can0 0D4#0000000000000000
(1498256980.545425) can0 140#000F004000001600
(1498256980.545431) can0 141#5626722700803F00
(1498256980.546303) can0 360#000045462F000100
(1498256980.546353) can0 002#00467005BB000000
(1498256980.546362) can0 361#00014BD163000000
(1498256980.546367) can0 362#027289BD7561BE04
(1498256980.547327) can0 371#FFFF0000802D0000
(1498256980.551444) can0 156#0100000000000028
(1498256980.555413) can0 140#0000004000001600
(1498256980.555458) can0 141#5626722700803F00
(1498256980.555464) can0 144#C000067C5024A800
(1498256980.556450) can0 002#00467007BD000000
(1498256980.556483) can0 280#0005180000000000
(1498256980.561438) can0 152#E9DC000000001880
(1498256980.564440) can0 371#FFFF0000802D0000
(1498256980.564464) can0 0D0#DDFF000000000000
(1498256980.564467) can0 0D1#00000F80
(1498256980.565491) can0 0D2#0000FFFF10000000
(1498256980.565514) can0 0D3#8046E04E00002E
(1498256980.565526) can0 0D4#0000000000000000
(1498256980.565528) can0 140#0001004000001600
(1498256980.566417) can0 141#5626722700803F00
(1498256980.566440) can0 002#00467009BF000000
(1498256980.568442) can0 370#FFFF200180090000
(1498256980.571427) can0 156#0100000000000028
(1498256980.571457) can0 376#AD
(1498256980.574435) can0 140#0002004000001600
(1498256980.575497) can0 141#5626712700803F00
(1498256980.575525) can0 144#C000067C5024A800
(1498256980.576455) can0 002#0046700BC1000000
(1498256980.576487) can0 280#0006180000000000
(1498256980.581455) can0 282#8940008282013A00
(1498256980.581487) can0 152#E9EC000000001880
(1498256980.584445) can0 371#FFFF0000802D0000
(1498256980.584468) can0 0D0#DDFF000000000000
(1498256980.584476) can0 0D1#00001000
(1498256980.585518) can0 0D2#0000FFFF10000000
(1498256980.585541) can0 0D3#0046E04E00002F
(1498256980.585554) can0 0D4#0000000000000000
(1498256980.585557) can0 140#0003004000001600
(1498256980.586434) can0 141#5626722700803F00
(1498256980.586464) can0 002#0046700DC3000000
(1498256980.590443) can0 25C#A100000000000000
(1498256980.591471) can0 156#0100000000000028
(1498256980.592372) can0 3D1#9A100000FD000000
(1498256980.595446) can0 140#0004004000001600
(1498256980.595479) can0 141#5626722700803F00
(1498256980.595483) can0 144#C000067C5024A800
(1498256980.595485) can0 360#000045462F000100
(1498256980.595488) can0 361#00014DD164000000
(1498256980.596453) can0 002#0046700FC5000000
(1498256980.596485) can0 280#0007180000000000
(1498256980.596491) can0 362#E07189BD7561BE04
(1498256980.600417) can0 284#C10A000E00000000
(1498256980.601370) can0 152#E1FC000000001880
(1498256980.604392) can0 371#FFFF0000802D0000
(1498256980.604403) can0 0D0#DDFF000000000000
(1498256980.604406) can0 0D1#00001280
(1498256980.605404) can0 0D2#0000FFFF10000000
(1498256980.605429) can0 0D3#8046E04E000030
(1498256980.605443) can0 0D4#0000000000000000
(1498256980.605446) can0 140#0005004000001600
(1498256980.605558) can0 141#5626722700803F00
(1498256980.606438) can0 002#00467001B7000000
(1498256980.611435) can0 156#0100000000000028
(1498256980.614365) can0 140#0006004000001600
(1498256980.615392) can0 141#5626722700803F00
(1498256980.615420) can0 144#C000067C5024A800
(1498256980.616458) can0 002#00467003B9000000
(1498256980.616490) can0 280#0008180000000000
(1498256980.616495) can0 370#FFFF2001800A0000
(1498256980.621451) can0 152#E10C000000001880
(1498256980.621483) can0 376#AD
(1498256980.624482) can0 372#00F8000000000000
(1498256980.624513) can0 371#FFFF0000802D0000
(1498256980.624517) can0 0D0#DDFF000000000000
(1498256980.624519) can0 0D1#00001300
(1498256980.625515) can0 0D2#0000FFFF10000000
(1498256980.625538) can0 0D3#0046E04E000031
(1498256980.625550) can0 0D4#0000000000000000
(1498256980.625554) can0 140#0007004000001600
(1498256980.626422) can0 141#5626722700803F00
(1498256980.626444) can0 002#00467005BB000000
(1498256980.631441) can0 156#0100000000000028
(1498256980.631465) can0 282#8950008282013A00
(1498256980.635464) can0 140#0008004000001600
(1498256980.635497) can0 141#5626722700803F00
(1498256980.635501) can0 144#C000067C5024A800
(1498256980.636430) can0 002#00467007BD000000
(1498256980.636461) can0 280#0009180000000000
(1498256980.641448) can0 152#E91C000000001880
(1498256980.644467) can0 371#FFFF0000802C0000
(1498256980.644498) can0 0D0#DDFF000000000000
(1498256980.644503) can0 0D1#00001500
(1498256980.645413) can0 0D2#0000FFFF10000000
(1498256980.645438) can0 0D3#0046E04E000032
(1498256980.645451) can0 0D4#0000000000000000
(1498256980.645454) can0 140#0009004000001600
(1498256980.645581) can0 141#5626722700803F00
(1498256980.646447) can0 002#00467009BF000000
(1498256980.646479) can0 360#000045462F000100
(1498256980.646483) can0 361#00014ED165000000
(1498256980.647428) can0 362#E07189BD7561BE04
(1498256980.650441) can0 25C#A200000000000000
(1498256980.651436) can0 156#0100000000000028
(1498256980.654440) can0 140#000A004000001600
(1498256980.655438) can0 141#5626722700803F00
(1498256980.655461) can0 144#C000067C5024A800
(1498256980.656455) can0 002#0046700BC1000000
(1498256980.656489) can0 280#000A180000000000
(1498256980.661442) can0 152#E92C000000001880
(1498256980.664412) can0 370#FFFF2001800B0000
(1498256980.664443) can0 0D0#DDFF000000000000
(1498256980.664447) can0 0D1#00001600
(1498256980.665511) can0 0D2#0000FFFF10000000
(1498256980.665534) can0 0D3#8046E04E000033
(1498256980.665546) can0 0D4#0000000000000000
(1498256980.665549) can0 140#000B004000001600
(1498256980.666427) can0 141#5626722700803F00
(1498256980.666451) can0 002#0046700DC3000000
(1498256980.666464) can0 371#FFFF0000802D0000
(1498256980.671453) can0 376#AD
(1498256980.671476) can0 156#0100000000000028
(1498256980.674366) can0 140#000C004000001600
(1498256980.675454) can0 141#5626722700803F00
(1498256980.675478) can0 144#C000067C5024A800
(1498256980.676455) can0 002#0046700FC5000000
(1498256980.676486) can0 280#000B180000000000
(1498256980.681458) can0 152#E13C000000001880
(1498256980.681490) can0 282#8960008282013A00
(1498256980.684406) can0 371#FFFF0000802D0000
(1498256980.684429) can0 0D0#DDFF000000000000
(1498256980.684433) can0 0D1#00001880
(1498256980.685517) can0 0D2#0000FFFF10000000
(1498256980.685541) can0 0D3#0046E04E000034
(1498256980.685553) can0 0D4#0000000000000000
(1498256980.685556) can0 140#000D004000001600
(1498256980.686426) can0 141#5626712700803F00
(1498256980.686459) can0 002#00467001B7000000
(1498256980.692441) can0 156#0100000000000028
(1498256980.692464) can0 3D1#9A100000FD000000
(1498256980.694441) can0 140#000E004000001600
(1498256980.695465) can0 141#5626712700803F00
(1498256980.695492) can0 144#C000067C5024A800
(1498256980.695495) can0 360#000045462F000100
(1498256980.695498) can0 361#000151D166000000
(1498256980.695507) can0 362#BF7189BD7561BE04
(1498256980.696449) can0 002#00467003B9000000
(1498256980.696480) can0 280#000C180000000000
(1498256980.700349) can0 284#C10B000E00000000
(1498256980.701432) can0 152#E94C000000001880
(1498256980.704421) can0 371#FFFF0000802D0000
(1498256980.704442) can0 0D0#DDFF000000000000
(1498256980.704445) can0 0D1#00001900
(1498256980.705422) can0 0D2#0000FFFF10000000
(1498256980.705446) can0 0D3#8046E04E000035
(1498256980.705457) can0 0D4#0000000000000000
(1498256980.705461) can0 140#000F004000001600
(1498256980.706425) can0 141#5626712700803F00
(1498256980.706449) can0 002#00467005BB000000
(1498256980.710441) can0 25C#2300000000000000
(1498256980.711308) can0 156#0100000000000028
(1498256980.712429) can0 370#FFFF2001800C0000
(1498256980.714427) can0 140#0000004000001600
(1498256980.715455) can0 141#5626722700803F00
(1498256980.715490) can0 144#C000067C5024A800
(1498256980.716366) can0 002#00467007BD000000
(1498256980.716393) can0 280#000D180000000000
(1498256980.721375) can0 152#E15C000000001880
(1498256980.721406) can0 376#AD
(1498256980.722324) can0 660#FFFF0BA900000B3F
(1498256980.723434) can0 372#0008000000000000
(1498256980.724362) can0 371#FFFF0000802D0000
(1498256980.724387) can0 0D0#DDFF000000000000
(1498256980.724391) can0 0D1#00001A00
(1498256980.725515) can0 0D2#0000FFFF10000000
(1498256980.725536) can0 0D3#8046E04E000036
(1498256980.725549) can0 0D4#0000000000000000
(1498256980.725551) can0 140#0001004000001600
(1498256980.726419) can0 141#5626712700803F00
(1498256980.726448) can0 002#00467009BF000000
(1498256980.727429) can0 378#1100000000000000
(1498256980.731403) can0 156#0100000000000028
(1498256980.732416) can0 282#8970008282013A00
(1498256980.734440) can0 140#0002004000001600
(1498256980.734471) can0 141#5626712700803F00
(1498256980.735416) can0 144#C000067C5024A800
(1498256980.736417) can0 002#0046700BC1000000
(1498256980.736446) can0 280#000E180000000000
(1498256980.741348) can0 152#E16C000000001880
(1498256980.741382) can0 375#0300000120000200
(1498256980.744319) can0 371#FFFF0000802D0000
(1498256980.744334) can0 0D0#DDFF000000000000
(1498256980.744339) can0 0D1#00001B80
(1498256980.745496) can0 0D2#0000FFFF10000000
(1498256980.745518) can0 0D3#0046E04E000037
(1498256980.745529) can0 0D4#0000000000000000
(1498256980.745532) can0 140#0003004000001600
(1498256980.746504) can0 141#5626712700803F00
(1498256980.746525) can0 002#0046700DC3000000
(1498256980.746536) can0 360#000045462F000100
(1498256980.746539) can0 361#000152D167000000
(1498256980.746543) can0 362#BF7189BD7561BE04
(1498256980.751434) can0 156#0100000000000028
(1498256980.754401) can0 140#0004004000001600
(1498256980.755441) can0 141#5626712700803F00
(1498256980.755467) can0 144#C000067C5024A800
(1498256980.756438) can0 002#0046700FC5000000
(1498256980.756469) can0 280#000F180000000000
(1498256980.760430) can0 370#FFFF2001800D0000
(1498256980.761391) can0 152#E97C000000001880
(1498256980.764460) can0 371#FFFF0000802D0000
(1498256980.764482) can0 0D0#DDFF000000000000
(1498256980.764485) can0 0D1#00001B80
(1498256980.765448) can0 0D2#0000FFFF10000000
(1498256980.765470) can0 0D3#0046E04E000038
(1498256980.765483) can0 0D4#0000000000000000
(1498256980.765486) can0 140#0005004000001600
(1498256980.765490) can0 141#5626712700803F00
(1498256980.766419) can0 002#00467001B7000000
(1498256980.770403) can0 25C#A400000000000000
(1498256980.771457) can0 376#AD
(1498256980.771477) can0 156#0100000000000028
(1498256980.774411) can0 140#0006004000001600
(1498256980.774448) can0 141#5626712700803F00
(1498256980.775430) can0 144#C000067C5024A800
(1498256980.776414) can0 002#00467003B9000000
(1498256980.776445) can0 280#0000180000000000
(1498256980.781428) can0 152#E98C000000001880
(1498256980.781458) can0 282#8980008282013A00
(1498256980.784389) can0 371#FFFF0000802D0000
(1498256980.784408) can0 0D0#DDFF000000000000
(1498256980.784412) can0 0D1#00001C00
(1498256980.785439) can0 0D2#0000FFFF10000000
(1498256980.785459) can0 0D3#8046E04E000039
(1498256980.785472) can0 0D4#0000000000000000
(1498256980.785475) can0 140#0007004000001600
(1498256980.785480) can0 141#5626722700803F00
(1498256980.786410) can0 002#00467005BB000000
(1498256980.792415) can0 156#0100000000000028
(1498256980.792436) can0 3D1#9A100000FD000000
(1498256980.794432) can0 140#0008004000001600
(1498256980.795519) can0 141#5626712700803F00
(1498256980.795550) can0 144#C000067C5024A800
(1498256980.795553) can0 360#000045462F000100
(1498256980.795556) can0 361#000153D168000000
(1498256980.795563) can0 362#9B7189BD7561BE04
(1498256980.796439) can0 002#00467007BD000000
(1498256980.796470) can0 280#0001180000000000
(1498256980.800447) can0 284#C10C000E00000000
(1498256980.801417) can0 152#E19C000000001880
(1498256980.804426) can0 371#FFFF0000802D0000
(1498256980.804449) can0 0D0#DDFF000000000000
(1498256980.804452) can0 0D1#00001C00
(1498256980.805444) can0 0D2#0000FFFF10000000
(1498256980.805464) can0 0D3#8046E04E00003A
(1498256980.805481) can0 0D4#0000000000000000
(1498256980.805484) can0 140#0009004000001600
(1498256980.805489) can0 141#5626722700803F00
(1498256980.806419) can0 002#00467009BF000000
(1498256980.808432) can0 370#FFFF2001800E0000
(1498256980.811427) can0 156#0100000000000028
(1498256980.814444) can0 140#000A004000001600
(1498256980.814474) can0 141#5626722700803F00
(1498256980.815420) can0 144#C000067C5024A800
(1498256980.816414) can0 002#0046700BC1000000
(1498256980.816444) can0 280#0002180000000000
(1498256980.821438) can0 152#E1AC000000001880
(1498256980.821467) can0 376#AD
(1498256980.823417) can0 372#0010000000000000
(1498256980.824436) can0 371#FFFF0000802D0000
(1498256980.824457) can0 0D0#DDFF000000000000
(1498256980.824461) can0 0D1#00001C00
(1498256980.825508) can0 0D2#0000FFFF10000000
(1498256980.825529) can0 0D3#0046E04E00003B
(1498256980.825542) can0 0D4#0000000000000000
(1498256980.825544) can0 140#000B004000001600
(1498256980.826430) can0 141#5626722700803F00
(1498256980.826451) can0 002#0046700DC3000000
(1498256980.830361) can0 25C#2500000000000000
(1498256980.831334) can0 156#0100000000000028
(1498256980.832332) can0 282#8990008282013A00
(1498256980.834323) can0 140#000C004000001600
(1498256980.835341) can0 141#5626712700803F00
(1498256980.835358) can0 144#C000067C5024A800
(1498256980.836350) can0 002#0046700FC5000000
(1498256980.836367) can0 280#0003180000000000
(1498256980.841386) can0 152#E9BC000000001880
(1498256980.844451) can0 371#FFFF0000802D0000
(1498256980.844478) can0 0D0#DDFF000000000000
(1498256980.844483) can0 0D1#00001D80
(1498256980.844500) can0 0D2#0000FFFF10000000
(1498256980.845495) can0 0D3#8046E04E00003C
(1498256980.845525) can0 0D4#0000000000000000
(1498256980.845528) can0 140#000D004000001600
(1498256980.845533) can0 141#5626722700803F00
(1498256980.846501) can0 002#00467001B7000000
(1498256980.846530) can0 360#000045462F000100
(1498256980.846534) can0 361#000154D169000000
(1498256980.846538) can0 362#9B7189BD7561BE04
(1498256980.851435) can0 156#0100000000000028
(1498256980.854421) can0 140#000E004000001600
(1498256980.854449) can0 141#5626722700803F00
(1498256980.855427) can0 144#C000067C5024A800
(1498256980.856466) can0 002#00467003B9000000
(1498256980.856496) can0 280#0004180000000000
(1498256980.856501) can0 370#FFFF2001800F0000
(1498256980.861430) can0 152#E1CC000000001880
(1498256980.864427) can0 371#FFFF0000802D0000
(1498256980.864447) can0 0D0#DDFF000000000000
(1498256980.864451) can0 0D1#00001D80
(1498256980.864454) can0 0D2#0000FFFF10000000
(1498256980.865434) can0 0D3#0046E04E00003D
(1498256980.865466) can0 0D4#0000000000000000
(1498256980.865469) can0 140#000F004000001600
(1498256980.865473) can0 141#5626722700803F00
(1498256980.866404) can0 002#00467005BB000000
(1498256980.871441) can0 376#AD
(1498256980.871462) can0 156#0100000000000028
(1498256980.874433) can0 140#0000004000001600
(1498256980.874463) can0 141#5626712700803F00
(1498256980.875439) can0 144#C000067C5024A800
(1498256980.876411) can0 002#00467007BD000000
(1498256980.876442) can0 280#0005180000000000
(1498256980.881408) can0 152#E9DC000000001880
(1498256980.881436) can0 282#89A0008282013A00
(1498256980.884428) can0 371#FFFF0000802D0000
(1498256980.884449) can0 0D0#DDFF000000000000
(1498256980.884452) can0 0D1#00001E80
(1498256980.885447) can0 0D2#0000FFFF10000000
(1498256980.885469) can0 0D3#0046E04E00003E
(1498256980.885480) can0 0D4#0000000000000000
(1498256980.885483) can0 140#0001004000001600
(1498256980.885488) can0 141#5626722700803F00
(1498256980.886426) can0 002#00467009BF000000
(1498256980.890436) can0 25C#2600000000000000
(1498256980.892449) can0 156#0100000000000028
(1498256980.892471) can0 3D1#9A100000FD000000
(1498256980.894416) can0 140#0002004000001600
(1498256980.894445) can0 141#5626722700803F00
(1498256980.895502) can0 144#C000067C5024A800
(1498256980.895523) can0 360#000045462F000100
(1498256980.895527) can0 361#000154D16A000000
(1498256980.895537) can0 362#777189BD7561BE04
(1498256980.896408) can0 002#0046700BC1000000
(1498256980.896438) can0 280#0006180000000000
(1498256980.900438) can0 284#C10D000E00000000
(1498256980.901428) can0 152#E9EC000000001880
(1498256980.904380) can0 370#FFFF200180000000
(1498256980.904408) can0 0D0#DDFF000000000000
(1498256980.904412) can0 0D1#00001E80
(1498256980.905506) can0 0D2#0000FFFF10000000
(1498256980.905528) can0 0D3#8046E04E00003F
(1498256980.905539) can0 0D4#0000000000000000
(1498256980.905542) can0 140#0003004000001600
(1498256980.905546) can0 141#5626722700803F00
(1498256980.906413) can0 002#0046700DC3000000
(1498256980.906443) can0 371#FFFF0000802C0000
(1498256980.911435) can0 156#0100000000000028
(1498256980.914388) can0 140#0004004000001600
(1498256980.914418) can0 141#5626722700803F00
(1498256980.915309) can0 144#C000067C5024A800
(1498256980.916419) can0 002#0046700FC5000000
(1498256980.916448) can0 280#0007180000000000
(1498256980.921370) can0 152#E1FC000000001880
(1498256980.921397) can0 376#AD
(1498256980.923440) can0 372#0020000000000000
(1498256980.924441) can0 371#FFFF0000802D0000
(1498256980.924478) can0 0D0#DDFF000000000000
(1498256980.924483) can0 0D1#00001E80
(1498256980.924487) can0 0D2#0000FFFF10000000
(1498256980.925420) can0 0D3#0046E04E000040
(1498256980.925448) can0 0D4#0000000000000000
(1498256980.925452) can0 140#0005004000001600
(1498256980.925455) can0 141#5626722700803F00
(1498256980.926344) can0 002#00467001B7000000
(1498256980.931432) can0 156#0100000000000028
(1498256980.932423) can0 282#89B0008282013A00
(1498256980.934413) can0 140#0006004000001600
(1498256980.934443) can0 141#5626722700803F00
(1498256980.934446) can0 144#C000067C5024A800
(1498256980.936446) can0 002#00467003B9000000
(1498256980.936475) can0 280#0008180000000000
(1498256980.941375) can0 152#E10C000000001880
(1498256980.941403) can0 374#0808000080000000
(1498256980.944350) can0 371#FFFF0000802D0000
(1498256980.944379) can0 0D0#DDFF000000000000
(1498256980.944384) can0 0D1#00001E80
(1498256980.944444) can0 0D2#0000FFFF10000000
(1498256980.945384) can0 0D3#8046E04E000041
(1498256980.945405) can0 0D4#0000000000000000
(1498256980.945409) can0 140#0007004000001600
(1498256980.945414) can0 141#5626712700803F00
(1498256980.946444) can0 002#00467005BB000000
(1498256980.946460) can0 360#000045462F000100
(1498256980.946463) can0 361#000154D16B000000
(1498256980.946467) can0 362#777189BD7561BE04
(1498256980.950431) can0 25C#A700000000000000
(1498256980.951459) can0 156#0100000000000028
(1498256980.952424) can0 370#FFFF200180010000
(1498256980.954447) can0 140#0008004000001600
(1498256980.954476) can0 141#5626712700803F00
(1498256980.955440) can0 144#C000067C5024A800
(1498256980.956435) can0 002#00467007BD000000
(1498256980.956466) can0 280#0009180000000000
(1498256980.961441) can0 152#E91C000000001880
(1498256980.964418) can0 371#FFFF0000802D0000
(1498256980.964442) can0 0D0#DDFF000000000000
(1498256980.964446) can0 0D1#00001F00
(1498256980.965437) can0 0D2#0000FFFF10000000
(1498256980.965459) can0 0D3#8046E04E000042
(1498256980.965472) can0 0D4#0000000000000000
(1498256980.965475) can0 140#0009004000001600
(1498256980.965479) can0 141#5626722700803F00
(1498256980.966439) can0 002#00467009BF000000
(1498256980.971424) can0 376#AD
(1498256980.971454) can0 156#0100000000000028
(1498256980.974432) can0 140#000A004000001600
(1498256980.974464) can0 141#5626712700803F00
(1498256980.974469) can0 144#C000067C5024A800
(1498256980.976453) can0 002#0046700BC1000000
(1498256980.976484) can0 280#000A180000000000
(1498256980.981447) can0 152#E92C000000001880
(1498256980.981480) can0 282#89C0008282013A00
(1498256980.984479) can0 371#FFFF0000802D0000
(1498256980.984506) can0 0D0#DDFF010000000000
(1498256980.984524) can0 0D1#00001F00
(1498256980.984528) can0 0D2#0000FFFF10000000
(1498256980.985447) can0 0D3#0046E04E000043
(1498256980.985478) can0 0D4#0000000000000000
(1498256980.985482) can0 140#000B004000001600
(1498256980.985485) can0 141#5626722700803F00
(1498256980.986434) can0 002#0046700DC3000000
(1498256980.992459) can0 156#0100000000000028
(1498256980.992483) can0 3D1#9A100000FD000000
(1498256980.994365) can0 140#000C004000001600
(1498256980.994395) can0 141#5626712700803F00
(1498256980.995520) can0 144#C000067C5024A800
(1498256980.995544) can0 360#000045462F000100
(1498256980.995548) can0 361#000155D16C000000
(1498256980.995559) can0 362#467189BD7561BE04
(1498256980.996433) can0 002#0046700FC5000000
(1498256980.996467) can0 280#000B180000000000
(1498256981.000460) can0 370#FFFF200180020000
(1498256981.000492) can0 284#C10E000E00000000
(1498256981.001434) can0 152#E13C000000001880
(1498256981.004450) can0 371#FFFF0000802C0000
(1498256981.004482) can0 0D0#DDFF000000000000
(1498256981.004488) can0 0D1#00001F00
(1498256981.004490) can0 0D2#0000FFFF10000000
(1498256981.005509) can0 0D3#8046E04E000044
(1498256981.005544) can0 0D4#0000000000000000
(1498256981.005548) can0 140#000D004000001600
(1498256981.005552) can0 141#5626712700803F00
(1498256981.006424) can0 002#00467001B7000000
(1498256981.010423) can0 25C#2000000000000000
(1498256981.011435) can0 156#0100000000000028
(1498256981.014412) can0 140#000E004000001600
(1498256981.014444) can0 141#5626712700803F00
(1498256981.014449) can0 144#C000067C5024A800
(1498256981.016458) can0 002#00467003B9000000
(1498256981.016491) can0 280#000C180000000000
(1498256981.020441) can0 37A#0000000000040000
(1498256981.021441) can0 152#E94C000000001880
(1498256981.021471) can0 376#AD
(1498256981.023443) can0 372#0038000000000000
(1498256981.024424) can0 371#FFFF0000802C0000
(1498256981.024448) can0 0D0#DDFF000000000000
(1498256981.024452) can0 0D1#00001F00
(1498256981.024454) can0 0D2#0000FFFF10000000
(1498256981.025422) can0 0D3#0046E04E000045
(1498256981.025456) can0 0D4#0000000000000000
(1498256981.025460) can0 140#000F004000001600
(1498256981.025465) can0 141#5626712700803F00
(1498256981.026403) can0 002#00467005BB000000
(1498256981.031438) can0 156#0100000000000028
(1498256981.032441) can0 282#89D0008282013A00
(1498256981.034409) can0 140#0000004000001600
(1498256981.034440) can0 141#5626722700803F00
(1498256981.034445) can0 144#C000067C5024A800
(1498256981.036457) can0 002#00467007BD000000
(1498256981.036490) can0 280#000D180000000000
(1498256981.041442) can0 152#E15C000000001880
(1498256981.044443) can0 371#FFFF0000802D0000
(1498256981.044476) can0 0D0#DDFF000000000000
(1498256981.044480) can0 0D1#00001F00
(1498256981.044482) can0 0D2#0000FFFF10000000
(1498256981.045503) can0 0D3#0046E04E000046
(1498256981.045533) can0 0D4#0000000000000000
(1498256981.045537) can0 140#0001004000001600
(1498256981.045541) can0 141#5626722700803F00
(1498256981.046486) can0 002#00467009BF000000
(1498256981.046517) can0 360#000045462F000100
(1498256981.046521) can0 361#000155D16D000000
(1498256981.046525) can0 362#467189BD7561BE04
(1498256981.048445) can0 370#FFFF200180030000
(1498256981.052364) can0 156#0100000000000028
(1498256981.054493) can0 140#0002004000001600
(1498256981.054525) can0 141#5626712700803F00
(1498256981.054530) can0 144#C000067C5024A800
(1498256981.056458) can0 002#0046700BC1000000
(1498256981.056490) can0 280#000E180000000000
(1498256981.061429) can0 152#E16C000000001880
(1498256981.064450) can0 371#FFFF0000802C0000
(1498256981.064481) can0 0D0#DDFF000000000000
(1498256981.064485) can0 0D1#00001F00
(1498256981.064487) can0 0D2#0000FFFF10000000
(1498256981.065436) can0 0D3#8046E04E000047
(1498256981.065468) can0 0D4#0000000000000000
(1498256981.065471) can0 140#0003004000001600
(1498256981.065476) can0 141#5626722700803F00
(1498256981.066429) can0 002#0046700DC3000000
(1498256981.070436) can0 25C#A100000000000000
(1498256981.071417) can0 376#AD
(1498256981.071441) can0 156#0100000000000028
(1498256981.074447) can0 140#0004004000001600
(1498256981.074480) can0 141#5626722700803F00
(1498256981.074484) can0 144#C000067C5024A800
(1498256981.076450) can0 002#0046700FC5000000
(1498256981.076481) can0 280#000F180000000000
(1498256981.081441) can0 152#E97C000000001880
(1498256981.081473) can0 282#89E0008282013A00
(1498256981.084498) can0 371#FFFF0000802D0000
(1498256981.084532) can0 0D0#DDFF000000000000
(1498256981.084536) can0 0D1#00001F00
(1498256981.084539) can0 0D2#0000FFFF10000000
(1498256981.085430) can0 0D3#8046E04E000048
(1498256981.085462) can0 0D4#0000000000000000
(1498256981.085465) can0 140#0005004000001600
(1498256981.085469) can0 141#5626722700803F00
(1498256981.086426) can0 002#00467001B7000000
(1498256981.092458) can0 156#0100000000000028
(1498256981.092483) can0 3D1#9A100000FD000000
(1498256981.094423) can0 140#0006004000001600
(1498256981.094456) can0 141#5626722700803F00
(1498256981.094460) can0 144#C000067C5024A800
(1498256981.094462) can0 360#000045462F000100
(1498256981.095454) can0 361#000155D16E000000
(1498256981.095486) can0 362#387189BD7561BE04
(1498256981.096456) can0 002#00467003B9000000
(1498256981.096489) can0 370#FFFF200180040000
(1498256981.096495) can0 280#0000180000000000
(1498256981.100441) can0 284#C10F000E00000000
(1498256981.101424) can0 152#E98C000000001880
(1498256981.104434) can0 371#FFFF0000802C0000
(1498256981.104466) can0 0D0#DDFF000000000000
(1498256981.104470) can0 0D1#00001F00
(1498256981.104473) can0 0D2#0000FFFF10000000
(1498256981.105474) can0 0D3#0046E04E000049
(1498256981.105505) can0 0D4#0000000000000000
(1498256981.105509) can0 140#0007004000001600
(1498256981.105513) can0 141#5626722700803F00
(1498256981.106412) can0 002#00467005BB000000
(1498256981.112421) can0 156#0100000000000028
(1498256981.114478) can0 140#0008004000001600
(1498256981.114513) can0 141#5626722700803F00
(1498256981.114517) can0 144#C000067C5024A800
(1498256981.116452) can0 002#00467007BD000000
(1498256981.116484) can0 280#0001180000000000
(1498256981.121448) can0 152#E19C000000001880
(1498256981.121480) can0 376#AD
(1498256981.123438) can0 372#0040000000000000
(1498256981.124440) can0 371#FFFF0000802D0000
(1498256981.124472) can0 0D0#DDFF000000000000
(1498256981.124477) can0 0D1#00001F00
(1498256981.124479) can0 0D2#0000FFFF10000000
(1498256981.125440) can0 0D3#0046E04E00004A
(1498256981.125478) can0 0D4#0000000000000000
(1498256981.125482) can0 140#0009004000001600
(1498256981.125487) can0 141#5626712700803F00
(1498256981.126359) can0 002#00467009BF000000
(1498256981.130443) can0 25C#A200000000000000
(1498256981.132439) can0 156#0100000000000028
(1498256981.132464) can0 282#89F0008282013A00
(1498256981.134360) can0 140#000A004000001600
(1498256981.134393) can0 141#5626712700803F00
(1498256981.134399) can0 144#C000067C5024A800
(1498256981.136343) can0 002#0046700BC1000000
(1498256981.136366) can0 280#0002180000000000
(1498256981.141380) can0 152#E1AC000000001880
(1498256981.144336) can0 370#FFFF200180050000
(1498256981.144366) can0 0D0#DDFF000000000000
(1498256981.144370) can0 0D1#00001F00
(1498256981.144373) can0 0D2#0000FFFF10000000
(1498256981.145445) can0 0D3#8046E04E00004B
(1498256981.145463) can0 0D4#0000000000000000
(1498256981.145466) can0 140#000B004000001600
(1498256981.145470) can0 141#5626712700803F00
(1498256981.146486) can0 002#0046700DC3000000
(1498256981.146516) can0 360#000045462F000100
(1498256981.146520) can0 361#000155D16F000000
(1498256981.146525) can0 362#387189BD7561BE04
(1498256981.147342) can0 371#FFFF0000802D0000
(1498256981.152421) can0 156#0100000000000028
(1498256981.154476) can0 140#000C004000001600
(1498256981.154507) can0 141#5626722700803F00
(1498256981.154511) can0 144#C000067C5024A800
(1498256981.156362) can0 002#0046700FC5000000
(1498256981.156383) can0 280#0003180000000000
(1498256981.156387) can0 281#0000FCFC40000000
(1498256981.161440) can0 152#E9BC000000001880
(1498256981.164511) can0 371#FFFF0000802C0000
(1498256981.164544) can0 140#000D004000001600
(1498256981.164549) can0 0D0#DDFF000000000000
(1498256981.164552) can0 0D1#00001F00
(1498256981.165423) can0 0D2#0000FFFF10000000
