(1498258826.003459) can0 376#AD
(1498258826.006438) can0 156#0100000000000028
(1498258826.009476) can0 371#000000A0FFEA0000
(1498258826.009518) can0 140#000EB64600002100
(1498258826.009522) can0 141#1E26CD29B9862700
(1498258826.010441) can0 144#C000A47E5024E000
(1498258826.010450) can0 002#0012700789000000
(1498258826.013455) can0 152#E9CC000000000880
(1498258826.013465) can0 0D0#1000000000000000
(1498258826.013473) can0 0D1#00000080
(1498258826.014453) can0 0D2#0000FFFF10000000
(1498258826.014460) can0 0D3#8006C00F000035
(1498258826.014461) can0 0D4#0000000000000000
(1498258826.019464) can0 140#000FB34600002100
(1498258826.019475) can0 141#1E26CD29B9862700
(1498258826.019476) can0 360#1805505219000100
(1498258826.020498) can0 361#002124D143000000
(1498258826.020506) can0 002#001270098B000000
(1498258826.020507) can0 362#3E9B89AD8F87DE04
(1498258826.021420) can0 280#0007100000000000
(1498258826.026455) can0 156#0100000000000028
(1498258826.026467) can0 282#89D0008181033A00
(1498258826.028448) can0 25C#2600000000000000
(1498258826.029520) can0 371#000000A0FFEA0000
(1498258826.029524) can0 140#0000B04600002000
(1498258826.029526) can0 141#1D26CC29B8862700
(1498258826.029527) can0 144#C000A37E5024E000
(1498258826.030428) can0 002#0012700B8D000000
(1498258826.033498) can0 152#E1DC000000000880
(1498258826.033507) can0 0D0#1000000000000000
(1498258826.033510) can0 0D1#00000080
(1498258826.034463) can0 0D2#0000FFFF10000000
(1498258826.034466) can0 0D3#8006C00F000036
(1498258826.034467) can0 0D4#0000000000000000
(1498258826.039460) can0 140#0001B14600002000
(1498258826.039466) can0 141#1D26CC29B7862700
(1498258826.040446) can0 002#0012700D8F000000
(1498258826.040601) can0 280#0008100000000000
(1498258826.045498) can0 370#0000000000090000
(1498258826.046495) can0 156#0100000000000028
(1498258826.049581) can0 371#000000A0FFEA0000
(1498258826.049587) can0 140#0002B14600002000
(1498258826.049588) can0 141#1E26CD29B6862700
(1498258826.049590) can0 144#C000A37E5024A000
(1498258826.050513) can0 002#0012700F91000000
(1498258826.053477) can0 152#E1EC000000000880
(1498258826.053483) can0 0D0#1000000000000000
(1498258826.053485) can0 0D1#00000080
(1498258826.054511) can0 0D2#0000FFFF10000000
(1498258826.054517) can0 0D3#0006C00F000037
(1498258826.054519) can0 0D4#0000000000000000
(1498258826.054520) can0 376#AD
(1498258826.059549) can0 140#0003B14600002000
(1498258826.059565) can0 141#1E26CD29B6862700
(1498258826.060584) can0 002#0012700183000000
(1498258826.061573) can0 280#0009100000000000
(1498258826.062571) can0 378#A100000000000000
(1498258826.066579) can0 156#0100000000000028
(1498258826.066600) can0 284#C10B000E00000000
(1498258826.069640) can0 140#0004B04600002000
(1498258826.069662) can0 141#1E26CD29B5862700
(1498258826.069664) can0 144#C000A37E5024A000
(1498258826.069667) can0 360#1705505219000100
(1498258826.069669) can0 361#002124D144000000
(1498258826.070639) can0 362#249B89AD8F87DE04
(1498258826.070661) can0 002#0012700385000000
(1498258826.070663) can0 371#000000C0FFEA0000
(1498258826.073506) can0 152#E9FC000000000880
(1498258826.073536) can0 0D0#1000000000000000
(1498258826.073541) can0 0D1#00000080
(1498258826.074507) can0 0D2#0000FFFF10000000
(1498258826.074522) can0 0D3#0006C00F000038
(1498258826.074525) can0 0D4#0000000000000000
(1498258826.076560) can0 282#89E0008181033A00
(1498258826.079504) can0 140#0005B24600002100
(1498258826.079528) can0 141#1E26CE29B4862700
(1498258826.080572) can0 002#0012700587000000
(1498258826.081550) can0 280#000A100000000000
(1498258826.086577) can0 156#0100000000000028
(1498258826.086597) can0 3D1#96100000FD000000
(1498258826.088566) can0 25C#A700000000000000
(1498258826.089608) can0 371#000000A0FFEA0000
(1498258826.089623) can0 372#0038000000000000
(1498258826.089626) can0 140#0006B84600002100
(1498258826.089629) can0 141#1E26CD29B5862700
(1498258826.090563) can0 144#C000A47E5024A000
(1498258826.090582) can0 002#0012700789000000
(1498258826.093561) can0 370#00000000000A0000
(1498258826.093585) can0 152#E90C000000000880
(1498258826.093589) can0 0D0#1000000000000000
(1498258826.093592) can0 0D1#00000080
(1498258826.094594) can0 0D2#0000FFFF10000000
(1498258826.094617) can0 0D3#8006C00F000039
(1498258826.094621) can0 0D4#0000000000000000
(1498258826.098578) can0 140#0007BA4600002100
(1498258826.099462) can0 141#1D26CD29B5862700
(1498258826.100578) can0 002#001270098B000000
(1498258826.101547) can0 280#000B100000000000
(1498258826.103484) can0 376#AD
(1498258826.106584) can0 156#0100000000000028
(1498258826.108567) can0 371#000000A0FFEA0000
(1498258826.109647) can0 140#0008BA4600002100
(1498258826.109670) can0 141#1D26CD29B6862700
(1498258826.109674) can0 144#C000A57E5024A000
(1498258826.110573) can0 002#0012700B8D000000
(1498258826.113541) can0 152#E11C000000000880
(1498258826.113564) can0 0D0#1000000000000000
(1498258826.113568) can0 0D1#00000080
(1498258826.114562) can0 0D2#0000FFFF10000000
(1498258826.114585) can0 0D3#8006C00F00003A
(1498258826.114588) can0 0D4#0000000000000000
(1498258826.119509) can0 140#0009BB4600002100
(1498258826.119532) can0 141#1E26CE29B7862700
(1498258826.119535) can0 360#2205505219000100
(1498258826.119538) can0 361#002124D145000000
(1498258826.119722) can0 362#249B89AD8F87DE04
(1498258826.120589) can0 002#0012700D8F000000
(1498258826.120612) can0 280#000C100000000000
(1498258826.126569) can0 156#0100000000000028
(1498258826.126593) can0 282#89F0008181033A00
(1498258826.129638) can0 371#000000A0FFEA0000
(1498258826.129661) can0 140#000ABB4600002100
(1498258826.129663) can0 141#1E26CE29B7862700
(1498258826.129666) can0 144#C000A57E5024A000
(1498258826.130565) can0 002#0012700F91000000
(1498258826.133518) can0 152#E12C000000000880
(1498258826.133542) can0 0D0#1000000000000000
(1498258826.133544) can0 0D1#00000080
(1498258826.134508) can0 0D2#0000FFFF10000000
(1498258826.134528) can0 0D3#0006C00F00003B
(1498258826.134531) can0 0D4#0000000000000000
(1498258826.139513) can0 140#000BBC4600002100
(1498258826.139544) can0 141#1E26CE29B8862700
(1498258826.140483) can0 002#0012700183000000
(1498258826.141526) can0 370#00000000000B0000
(1498258826.141539) can0 280#000D100000000000
(1498258826.146573) can0 156#0100000000000028
(1498258826.148577) can0 25C#2000000000000000
(1498258826.149632) can0 140#000CBC4600002100
(1498258826.149654) can0 141#1E26CE29B8862700
(1498258826.149657) can0 144#C000A67E5024A000
(1498258826.149660) can0 371#000000A0FFEA0000
(1498258826.150565) can0 002#0012700385000000
(1498258826.153603) can0 152#E93C000000000880
(1498258826.153627) can0 0D0#1000000000000000
(1498258826.153629) can0 0D1#00000080
(1498258826.154502) can0 0D2#0000FFFF10000000
(1498258826.154522) can0 0D3#8006C00F00003C
(1498258826.154525) can0 0D4#0000000000000000
(1498258826.154527) can0 376#AD
(1498258826.159518) can0 140#000DBD4600002100
(1498258826.159544) can0 141#1D26CE29B9862700
(1498258826.160582) can0 002#0012700587000000
(1498258826.161567) can0 280#000E100000000000
(1498258826.166583) can0 156#0100000000000028
(1498258826.166607) can0 284#C10C000E00000000
(1498258826.168576) can0 140#000EBC4600002100
(1498258826.169660) can0 141#1E26CE29B9862700
(1498258826.169684) can0 144#C000A67E5024A000
(1498258826.169687) can0 360#1C05505219000100
(1498258826.169689) can0 361#002124D146000000
(1498258826.170595) can0 362#169B89AD8F87DE04
(1498258826.170619) can0 002#0012700789000000
(1498258826.170622) can0 371#00000080FFEA0000
(1498258826.173603) can0 152#E14C000000000880
(1498258826.173625) can0 0D0#1000000000000000
(1498258826.173628) can0 0D1#00000080
(1498258826.174596) can0 0D2#0000FFFF10000000
(1498258826.174618) can0 0D3#0006C00F00003D
(1498258826.174620) can0 0D4#0000000000000000
(1498258826.176578) can0 282#8900008181033A00
(1498258826.179527) can0 140#000FBC4600002000
(1498258826.179548) can0 141#1E26CE29BA862700
(1498258826.180563) can0 002#001270098B000000
(1498258826.181544) can0 280#000F100000000000
(1498258826.186591) can0 156#0100000000000028
(1498258826.186614) can0 3D1#96100000FD000000
(1498258826.188582) can0 140#0000BD4600002000
(1498258826.189574) can0 141#1E26CE29BA862700
(1498258826.189597) can0 144#C000A67E5024E000
(1498258826.189600) can0 370#00000000000C0000
(1498258826.189603) can0 371#000000A0FFEA0000
(1498258826.190576) can0 372#0040000000000000
(1498258826.190599) can0 002#0012700B8D000000
(1498258826.193549) can0 152#E95C000000000880
(1498258826.193572) can0 0D0#1000000000000000
(1498258826.193575) can0 0D1#00000080
(1498258826.194586) can0 0D2#0000FFFF10000000
(1498258826.194605) can0 0D3#0006C00F00003E
(1498258826.194608) can0 0D4#0000000000000000
(1498258826.198567) can0 140#0001BD4600002000
(1498258826.199501) can0 141#1E26CE29BB862700
(1498258826.200508) can0 002#0012700D8F000000
(1498258826.201552) can0 280#0000100000000000
(1498258826.203553) can0 376#AD
(1498258826.206569) can0 156#0100000000000028
(1498258826.208477) can0 25C#A100000000000000
(1498258826.209566) can0 371#000000A0FFEA0000
(1498258826.209586) can0 140#0002BC4600002000
(1498258826.209589) can0 141#1E26CE29BB862700
(1498258826.209591) can0 144#C000A67E5024E000
(1498258826.210557) can0 002#0012700F91000000
(1498258826.213560) can0 152#E96C000000000880
(1498258826.213580) can0 0D0#1000000000000000
(1498258826.213582) can0 0D1#00000080
(1498258826.214591) can0 0D2#0000FFFF10000000
(1498258826.214609) can0 0D3#8006C00F00003F
(1498258826.214612) can0 0D4#0000000000000000
(1498258826.219497) can0 140#0003BC4600002000
(1498258826.219517) can0 141#1E26CE29BB862700
(1498258826.219521) can0 360#1C05515219000100
(1498258826.219524) can0 361#002124D147000000
(1498258826.220519) can0 362#169B89AD8F87DE04
(1498258826.220543) can0 002#0012700183000000
(1498258826.220594) can0 280#0001100000000000
(1498258826.226567) can0 156#0100000000000028
(1498258826.226585) can0 282#8910008181033A00
(1498258826.228562) can0 371#000000C0FFEA0000
(1498258826.229544) can0 140#0004BF4600002000
(1498258826.229565) can0 141#1D26CD29BB862700
(1498258826.229568) can0 144#C000A67E5024E000
(1498258826.230509) can0 002#0012700385000000
(1498258826.233596) can0 152#E17C000000000880
(1498258826.233615) can0 0D0#1000000000000000
(1498258826.233617) can0 0D1#00000080
(1498258826.234593) can0 0D2#0000FFFF10000000
(1498258826.234612) can0 0D3#0006C00F000040
(1498258826.234615) can0 0D4#0000000000000000
(1498258826.237561) can0 370#00000000000D0000
(1498258826.238548) can0 140#0005BF4600002000
(1498258826.239502) can0 141#1D26CE29BC862700
(1498258826.240519) can0 002#0012700587000000
(1498258826.241555) can0 280#0002100000000000
(1498258826.246495) can0 156#0100000000000028
(1498258826.248517) can0 371#000000C0FFEA0000
(1498258826.249623) can0 140#0006C04600002000
(1498258826.249642) can0 141#1D26CE29BC862700
(1498258826.249645) can0 144#C000A67E5024E000
(1498258826.250563) can0 002#0012700789000000
(1498258826.253572) can0 152#E18C000000000880
(1498258826.253591) can0 0D0#1000000000000000
(1498258826.253594) can0 0D1#00000080
(1498258826.254640) can0 0D2#0000FFFF10000000
(1498258826.254661) can0 0D3#8006C00F000041
(1498258826.254664) can0 0D4#0000000000000000
(1498258826.254666) can0 376#AD
(1498258826.254669) can0 660#FFFF0BAD00001D41
(1498258826.258567) can0 140#0007C14600002000
(1498258826.259571) can0 141#1E26CE29BD862700
(1498258826.260544) can0 002#001270098B000000
(1498258826.261537) can0 280#0003100000000000
(1498258826.266543) can0 156#0100000000000028
(1498258826.266563) can0 284#C10D000E00000000
(1498258826.268584) can0 140#0008C04600002000
(1498258826.268602) can0 141#1E26CE29BE862700
(1498258826.269640) can0 144#C000A67E5024A000
(1498258826.269659) can0 25C#A200000000000000
(1498258826.269662) can0 360#1D05515219000100
(1498258826.269663) can0 361#002124D148000000
(1498258826.270544) can0 362#119B89AD8F87DE04
(1498258826.270563) can0 002#0012700B8D000000
(1498258826.270566) can0 371#000000A0FFEA0000
(1498258826.273592) can0 152#E99C000000000880
(1498258826.273612) can0 0D0#1000000000000000
(1498258826.273614) can0 0D1#00000080
(1498258826.274568) can0 0D2#0000FFFF10000000
(1498258826.274584) can0 0D3#8006C00F000042
(1498258826.274586) can0 0D4#0000000000000000
(1498258826.274588) can0 375#0300000120000200
(1498258826.276492) can0 282#8920008181033A00
(1498258826.279491) can0 140#0009BF4600002000
(1498258826.279505) can0 141#1D26CE29BE862700
(1498258826.280516) can0 002#0012700D8F000000
(1498258826.281509) can0 280#0004100000000000
(1498258826.284569) can0 370#00000000000E0000
(1498258826.286575) can0 156#0100000000000028
(1498258826.287513) can0 3D1#96100000FD000000
(1498258826.289656) can0 371#000000C0FFEA0000
(1498258826.289675) can0 140#000ABF4600002000
(1498258826.289678) can0 141#1D26CD29BE862700
(1498258826.289680) can0 144#C000A67E5024A000
(1498258826.290554) can0 372#0058000000000000
(1498258826.290573) can0 002#0012700F91000000
(1498258826.293505) can0 152#E9AC000000000880
(1498258826.293524) can0 0D0#1000000000000000
(1498258826.293527) can0 0D1#00000080
(1498258826.294571) can0 0D2#0000FFFF10000000
(1498258826.294589) can0 0D3#0006C00F000043
(1498258826.294591) can0 0D4#0000000000000000
(1498258826.298566) can0 140#000BC04600002000
(1498258826.299575) can0 141#1D26B529BE862700
(1498258826.300570) can0 002#0012700183000000
(1498258826.301557) can0 280#0005100000000000
(1498258826.303540) can0 376#AD
(1498258826.306542) can0 156#0100000000000028
(1498258826.308557) can0 140#000CBF4600002000
(1498258826.308576) can0 141#1D26CE29BE862700
(1498258826.309551) can0 144#C000A67E5024A000
(1498258826.309569) can0 371#000000A0FFEA0000
(1498258826.310509) can0 002#0012700385000000
(1498258826.313507) can0 152#E1BC000000000880
(1498258826.313530) can0 0D0#1000000000000000
(1498258826.313533) can0 0D1#00000080
(1498258826.314522) can0 0D2#0000FFFF10000000
(1498258826.314533) can0 0D3#8006C00F000044
(1498258826.314536) can0 0D4#0000000000000000
(1498258826.318570) can0 140#000DBF4600002000
(1498258826.318592) can0 141#1D26B529BF862700
(1498258826.319637) can0 360#1805515219000100
(1498258826.319655) can0 361#002124D149000000
(1498258826.319659) can0 362#119B89AD8F87DE04
(1498258826.320568) can0 002#0012700587000000
(1498258826.321555) can0 280#0006100000000000
(1498258826.326498) can0 156#0100000000000028
(1498258826.326516) can0 282#8930008181033A00
(1498258826.328574) can0 25C#2300000000000000
(1498258826.329554) can0 371#000000A0FFEA0000
(1498258826.329576) can0 140#000EBF4600002000
(1498258826.329579) can0 141#1E26B529BF862700
(1498258826.329581) can0 144#C000A67E5024A000
(1498258826.330558) can0 002#0012700789000000
(1498258826.332567) can0 370#00000000000F0000
(1498258826.333597) can0 152#E9CC000000000880
(1498258826.333617) can0 0D0#1000000000000000
(1498258826.333619) can0 0D1#00000080
(1498258826.334591) can0 0D2#0000FFFF10000000
(1498258826.334610) can0 0D3#0006C00F000045
(1498258826.334612) can0 0D4#0000000000000000
(1498258826.339579) can0 140#000FBF4600002000
(1498258826.339598) can0 141#1E26B529BF862700
(1498258826.340569) can0 002#001270098B000000
(1498258826.341492) can0 280#0007100000000000
(1498258826.346501) can0 156#0100000000000028
(1498258826.348509) can0 140#0000BD4600002000
(1498258826.349499) can0 141#1D26B429BF862700
(1498258826.349511) can0 144#C000A67E5024A000
(1498258826.349513) can0 371#00000080FFEA0000
(1498258826.350499) can0 002#0012700B8D000000
(1498258826.353565) can0 152#E1DC000000000880
(1498258826.353584) can0 0D0#1000000000000000
(1498258826.353587) can0 0D1#00000080
(1498258826.354516) can0 0D2#0000FFFF10000000
(1498258826.354534) can0 0D3#0006C00F000046
(1498258826.354537) can0 0D4#0000000000000000
(1498258826.354539) can0 376#AD
(1498258826.358571) can0 140#0001BD4600002000
(1498258826.359572) can0 141#1C26B329BF862700
(1498258826.360566) can0 002#0012700D8F000000
(1498258826.361556) can0 280#0008100000000000
(1498258826.366556) can0 156#0100000000000028
(1498258826.366575) can0 284#C10E000E00000000
(1498258826.368568) can0 371#000000A0FFEA0000
(1498258826.369646) can0 140#0002BD4600002000
(1498258826.369665) can0 141#1C26B329BE862700
(1498258826.369667) can0 144#C000A67E5024A000
(1498258826.369669) can0 360#1405515218000100
(1498258826.370577) can0 361#002124D14A000000
(1498258826.370595) can0 002#0012700F91000000
(1498258826.370598) can0 362#079B89AD8F87DE04
(1498258826.373568) can0 152#E1EC000000000880
(1498258826.373586) can0 0D0#1000000000000000
(1498258826.373588) can0 0D1#00000080
(1498258826.374590) can0 0D2#0000FFFF10000000
(1498258826.374609) can0 0D3#8006C00F000047
(1498258826.374611) can0 0D4#0000000000000000
(1498258826.376507) can0 282#8940008181033A00
(1498258826.378578) can0 140#0003BC4600002000
(1498258826.378596) can0 141#1D26B429BE862700
(1498258826.380557) can0 002#0012700183000000
(1498258826.380577) can0 370#0000000000000000
(1498258826.381561) can0 280#0009100000000000
(1498258826.386561) can0 156#0100000000000028
(1498258826.387552) can0 3D1#97100000FD000000
(1498258826.388565) can0 140#0004BC4600002000
(1498258826.388589) can0 141#1D26B429BE862700
(1498258826.388593) can0 144#C000A67E5024A000
(1498258826.389610) can0 25C#A400000000000000
(1498258826.389629) can0 371#000000A0FFEA0000
(1498258826.389631) can0 372#0068000000000000
(1498258826.390558) can0 002#0012700385000000
(1498258826.393600) can0 152#E9FC000000000880
(1498258826.393619) can0 0D0#1000000000000000
(1498258826.393621) can0 0D1#00000080
(1498258826.394583) can0 0D2#0000FFFF10000000
(1498258826.394603) can0 0D3#8006C00F000048
(1498258826.394606) can0 0D4#0000000000000000
(1498258826.398554) can0 140#0005BD4600002000
(1498258826.399555) can0 141#1D26B429BE862700
(1498258826.400495) can0 002#0012700587000000
(1498258826.401550) can0 280#000A100000000000
(1498258826.403549) can0 376#AD
(1498258826.406554) can0 156#0100000000000028
(1498258826.408538) can0 371#000000A0FFEA0000
(1498258826.409584) can0 140#0006BD4600002000
(1498258826.409605) can0 141#1D26B429BE862700
(1498258826.409608) can0 144#C000A67E5024A000
(1498258826.410555) can0 002#0012700789000000
(1498258826.413517) can0 152#E90C000000000880
(1498258826.413539) can0 0D0#1000000000000000
(1498258826.413542) can0 0D1#00000080
(1498258826.414514) can0 0D2#0000FFFF10000000
(1498258826.414539) can0 0D3#0006C00F000049
(1498258826.414541) can0 0D4#0000000000000000
(1498258826.418559) can0 140#0007BD4600002000
(1498258826.419553) can0 141#1D26B429BE862700
(1498258826.419578) can0 360#1A05515218000100
(1498258826.419581) can0 361#002124D14B000000
(1498258826.419583) can0 362#079B89AD8F87DE04
(1498258826.420544) can0 002#001270098B000000
(1498258826.421528) can0 280#000B100000000000
(1498258826.426552) can0 156#0100000000000028
(1498258826.426576) can0 282#8950008181033A00
(1498258826.428562) can0 140#0008BD4600002000
(1498258826.429617) can0 141#1D26B429BE862700
(1498258826.429642) can0 144#C000A67E5024A000
(1498258826.429646) can0 370#0000000000010000
(1498258826.429649) can0 371#000000A0FFEA0000
(1498258826.430533) can0 002#0012700B8D000000
(1498258826.433585) can0 152#E11C000000000880
(1498258826.433606) can0 0D0#1000000000000000
(1498258826.433608) can0 0D1#00000080
(1498258826.434521) can0 0D2#0000FFFF10000000
(1498258826.434534) can0 0D3#0006C00F00004A
(1498258826.434537) can0 0D4#0000000000000000
(1498258826.438578) can0 140#0009BC4600002000
(1498258826.438596) can0 141#1D26B429BE862700
(1498258826.440581) can0 002#0012700D8F000000
(1498258826.441551) can0 280#000C100000000000
(1498258826.446500) can0 156#0100000000000028
(1498258826.448587) can0 140#000ABB4600002000
(1498258826.448606) can0 141#1D26B429BD862700
(1498258826.449584) can0 144#C000A57E5024A000
(1498258826.449604) can0 25C#2500000000000000
(1498258826.449607) can0 371#000000A0FFEA0000
(1498258826.450555) can0 002#0012700F91000000
(1498258826.453576) can0 152#E12C000000000880
(1498258826.453596) can0 0D0#1000000000000000
(1498258826.453598) can0 0D1#00000080
(1498258826.454589) can0 0D2#0000FFFF10000000
(1498258826.454609) can0 0D3#8006C00F00004B
(1498258826.454611) can0 0D4#0000000000000000
(1498258826.454613) can0 376#AD
(1498258826.458583) can0 140#000BBD4600002000
(1498258826.458603) can0 141#1D26B429BD862700
(1498258826.460561) can0 002#0012700183000000
(1498258826.461551) can0 280#000D100000000000
(1498258826.461570) can0 281#0000FCFC40000000
(1498258826.466561) can0 156#0100000000000028
(1498258826.467561) can0 284#C10F000E00000000
(1498258826.468584) can0 140#000CC04600002000
(1498258826.468603) can0 141#1D26B529BE862700
(1498258826.469553) can0 144#C000A77E5024A000
(1498258826.469572) can0 360#1805515219000100
(1498258826.469575) can0 361#002124D14C000000
(1498258826.469578) can0 362#029B89AD8F87DE04
(1498258826.469581) can0 371#000000C0FFEA0000
(1498258826.470556) can0 002#0012700385000000
(1498258826.473542) can0 152#E93C000000000880
(1498258826.473568) can0 0D0#1000000000000000
(1498258826.473572) can0 0D1#00000080
(1498258826.474535) can0 0D2#0000FFFF10000000
(1498258826.474555) can0 0D3#0006C00F00004C
(1498258826.474558) can0 0D4#0000000000000000
(1498258826.476585) can0 282#8960008181033A00
(1498258826.476604) can0 370#0000000000020000
(1498258826.478556) can0 140#000DC14600002100
(1498258826.479567) can0 141#1D26B529BE862700
(1498258826.480523) can0 002#0012700587000000
(1498258826.481556) can0 280#000E100000000000
(1498258826.486572) can0 156#0100000000000028
(1498258826.487569) can0 3D1#96100000FD000000
(1498258826.488536) can0 140#000EBD4600002100
(1498258826.489642) can0 141#1D26CD29BE862700
(1498258826.489660) can0 144#C000A67E5024A000
(1498258826.489663) can0 371#000000C0FFEA0000
(1498258826.489669) can0 372#0070000000000000
(1498258826.490558) can0 002#0012700789000000
(1498258826.493502) can0 152#E14C000000000880
(1498258826.493523) can0 0D0#1000000000000000
(1498258826.493526) can0 0D1#00000080
(1498258826.494566) can0 0D2#0000FFFF10000000
(1498258826.494585) can0 0D3#8006C00F00004D
(1498258826.494588) can0 0D4#0000000000000000
(1498258826.498558) can0 140#000FBB4600002100
(1498258826.498577) can0 141#1D26B429BE862700
(1498258826.500573) can0 002#001270098B000000
(1498258826.501513) can0 280#000F100000000000
(1498258826.503563) can0 376#AD
(1498258826.506563) can0 156#0100000000000028
(1498258826.508579) can0 140#0000BA4600002100
(1498258826.508603) can0 141#1D26B429BE862700
(1498258826.508607) can0 144#C000A57E5024A000
(1498258826.509564) can0 25C#2600000000000000
(1498258826.509584) can0 371#000000A0FFEA0000
(1498258826.510518) can0 002#0012700B8D000000
(1498258826.513569) can0 152#E95C000000000880
(1498258826.513590) can0 0D0#1000000000000000
(1498258826.513593) can0 0D1#00000080
(1498258826.514561) can0 0D2#0000FFFF10000000
(1498258826.514582) can0 0D3#8006C00F00004E
(1498258826.514584) can0 0D4#0000000000000000
(1498258826.518568) can0 140#0001BA4600002100
(1498258826.518587) can0 141#1D26B429BD862700
(1498258826.519602) can0 360#1B05515219000100
(1498258826.519622) can0 361#002124D14D000000
(1498258826.519625) can0 362#029B89AD8F87DE04
(1498258826.520561) can0 002#0012700D8F000000
(1498258826.521518) can0 280#0000100000000000
(1498258826.524569) can0 370#0200000000030000
(1498258826.526581) can0 156#0100000000000028
(1498258826.526600) can0 282#8A70008181033A00
(1498258826.528580) can0 371#020000A0FFEA0000
(1498258826.529550) can0 140#0002BB4600002100
(1498258826.529570) can0 141#1D26B429BD862700
(1498258826.529573) can0 144#C000A57E5024A000
(1498258826.530473) can0 002#0012700F91000000
(1498258826.533546) can0 152#E96C000000000880
(1498258826.533564) can0 0D0#1000000000000000
(1498258826.533567) can0 0D1#00000080
(1498258826.534537) can0 0D2#0000FFFF10000000
(1498258826.534556) can0 0D3#0006C00F00004F
(1498258826.534559) can0 0D4#0000000000000000
(1498258826.538578) can0 140#0003BB4600002100
(1498258826.538597) can0 141#1D26B529BD862700
(1498258826.540575) can0 002#0012700183000000
(1498258826.541562) can0 280#0001100000000000
(1498258826.546526) can0 156#0100000000000028
(1498258826.548579) can0 140#0004BB4600002100
(1498258826.548598) can0 141#1D26B429BD862700
(1498258826.549555) can0 144#C000A57E5024A000
(1498258826.549576) can0 371#020000A0FFEA0000
(1498258826.550565) can0 002#0012700385000000
(1498258826.553527) can0 152#E17C000000000880
(1498258826.553545) can0 0D0#1000000000000000
(1498258826.553548) can0 0D1#00000080
(1498258826.554521) can0 0D2#0000FFFF10000000
(1498258826.554538) can0 0D3#8006C00F000050
(1498258826.554541) can0 0D4#0000000000000000
(1498258826.554544) can0 376#AD
(1498258826.558579) can0 140#0005BA4600002100
(1498258826.558598) can0 141#1D26CD29BD862700
(1498258826.560543) can0 002#0012700587000000
(1498258826.561554) can0 280#0002100000000000
(1498258826.566570) can0 156#0100000000000028
(1498258826.567566) can0 284#C100000E00000000
(1498258826.568633) can0 140#0006BB4600002100
(1498258826.568652) can0 141#1D26CD29BC862700
(1498258826.568654) can0 144#C000A57E5024A000
(1498258826.569537) can0 25C#A700000000000000
(1498258826.569553) can0 360#1C05515218000100
(1498258826.569557) can0 361#002124D14E000000
(1498258826.569560) can0 362#019B89AD8F87DE04
(1498258826.570543) can0 371#020000A0FFEA0000
(1498258826.570563) can0 002#0012700789000000
(1498258826.573576) can0 370#0000000000040000
(1498258826.573596) can0 152#E18C000000000880
(1498258826.573599) can0 0D0#1000000000000000
(1498258826.573601) can0 0D1#00000080
(1498258826.574590) can0 0D2#0000FFFF10000000
(1498258826.574610) can0 0D3#0006C00F000051
(1498258826.574612) can0 0D4#0000000000000000
(1498258826.576571) can0 282#8A80008181033A00
(1498258826.578562) can0 140#0007BC4600002100
(1498258826.578581) can0 141#1D26CD29BC862700
(1498258826.580502) can0 002#001270098B000000
(1498258826.581528) can0 280#0003100000000000
(1498258826.586566) can0 156#0100000000000028
(1498258826.587571) can0 3D1#97100000FD000000
(1498258826.588561) can0 140#0008BD4600002100
(1498258826.588583) can0 141#1E26CE29BC862700
(1498258826.588589) can0 144#C000A67E5024E000
(1498258826.589569) can0 371#000000A0FFEA0000
(1498258826.589587) can0 372#0080000000000000
(1498258826.590550) can0 002#0012700B8D000000
(1498258826.593558) can0 152#E99C000000000880
(1498258826.593577) can0 0D0#1000000000000000
(1498258826.593579) can0 0D1#00000080
(1498258826.594583) can0 0D2#0000FFFF10000000
(1498258826.594602) can0 0D3#0006C00F000052
(1498258826.594604) can0 0D4#0000000000000000
(1498258826.598557) can0 140#0009BE4600002100
(1498258826.598575) can0 141#1E26CE29BD862700
(1498258826.600495) can0 002#0012700D8F000000
(1498258826.601449) can0 280#0004100000000000
(1498258826.603476) can0 376#AD
(1498258826.606558) can0 156#0100000000000028
(1498258826.608500) can0 140#000AC24600002100
(1498258826.608520) can0 141#1D26B529BD862700
(1498258826.609584) can0 144#C000A77E5024A000
(1498258826.609602) can0 371#000000C0FFEA0000
(1498258826.610557) can0 002#0012700F91000000
(1498258826.613558) can0 152#E9AC000000000880
(1498258826.613577) can0 0D0#1000000000000000
(1498258826.613580) can0 0D1#00000080
(1498258826.614584) can0 0D2#0000FFFF10000000
(1498258826.614603) can0 0D3#8006C00F000053
(1498258826.614606) can0 0D4#0000000000000000
(1498258826.618531) can0 140#000BC24600002100
(1498258826.618550) can0 141#1D26B529BE862700
(1498258826.619497) can0 360#1F05515218000100
(1498258826.619520) can0 361#002124D14F000000
(1498258826.619526) can0 362#019B89AD8F87DE04
(1498258826.620577) can0 002#0012700183000000
(1498258826.620596) can0 370#0000000000050000
(1498258826.621551) can0 280#0005100000000000
(1498258826.626551) can0 156#0100000000000028
(1498258826.626571) can0 282#8990008181033A00
(1498258826.628531) can0 140#000CC24600002100
(1498258826.628551) can0 141#1D26B529BE862700
(1498258826.629565) can0 144#C000A77E5024A000
(1498258826.629585) can0 25C#2000000000000000
(1498258826.629588) can0 371#000000A0FFEA0000
(1498258826.630502) can0 002#0012700385000000
(1498258826.633599) can0 152#E1BC000000000880
(1498258826.633618) can0 0D0#1000000000000000
(1498258826.633620) can0 0D1#00000080
(1498258826.634565) can0 0D2#0000FFFF10000000
(1498258826.634587) can0 0D3#0006C00F000054
(1498258826.634590) can0 0D4#0000000000000000
(1498258826.638583) can0 140#000DC24600002100
(1498258826.638602) can0 141#1D26B529BF862700
(1498258826.640561) can0 002#0012700587000000
(1498258826.641521) can0 280#0006100000000000
(1498258826.646556) can0 156#0100000000000028
(1498258826.648589) can0 140#000EC04600002100
(1498258826.648608) can0 141#1D26B529BF862700
(1498258826.649547) can0 144#C000A67E5024A000
(1498258826.649566) can0 371#000000C0FFEA0000
(1498258826.650555) can0 002#0012700789000000
(1498258826.653546) can0 152#E9CC000000000880
(1498258826.653571) can0 0D0#1000000000000000
(1498258826.653576) can0 0D1#00000080
(1498258826.654586) can0 0D2#0000FFFF10000000
(1498258826.654606) can0 0D3#8006C00F000055
(1498258826.654610) can0 0D4#0000000000000000
(1498258826.654611) can0 376#AD
(1498258826.658553) can0 140#000FBD4600002100
(1498258826.658571) can0 141#1E26B529BF862700
(1498258826.660570) can0 002#001270098B000000
(1498258826.661541) can0 280#0007100000000000
(1498258826.666564) can0 156#0100000000000028
(1498258826.667523) can0 284#C101000E00000000
(1498258826.668581) can0 140#0000BE4600002100
(1498258826.668607) can0 141#1E26B529BF862700
(1498258826.668611) can0 144#C000A67E5024A000
(1498258826.668614) can0 360#1A05515219000100
(1498258826.668617) can0 361#002124D140000000
(1498258826.669480) can0 362#099B89AD8F87DE04
(1498258826.669499) can0 370#0000000000060000
(1498258826.669503) can0 371#00000080FFEA0000
(1498258826.670558) can0 002#0012700B8D000000
(1498258826.673595) can0 152#E1DC000000000880
(1498258826.673614) can0 0D0#1000000000000000
(1498258826.673616) can0 0D1#00000080
(1498258826.674582) can0 0D2#0000FFFF10000000
(1498258826.674601) can0 0D3#8006C00F000056
(1498258826.674603) can0 0D4#0000000000000000
(1498258826.676566) can0 282#89A0008181033A00
(1498258826.678568) can0 140#0001BE4600002000
(1498258826.678587) can0 141#1D26B529BF862700
(1498258826.680491) can0 002#0012700D8F000000
(1498258826.681565) can0 280#0008100000000000
(1498258826.686568) can0 156#0100000000000028
(1498258826.687570) can0 3D1#95100000FD000000
(1498258826.688528) can0 140#0002BE4600002000
(1498258826.688542) can0 141#1D26B429BF862700
(1498258826.689643) can0 144#C000A67E5024A000
(1498258826.689663) can0 25C#A100000000000000
(1498258826.689667) can0 371#000000C0FFEA0000
(1498258826.689669) can0 372#0098000000000000
(1498258826.690523) can0 002#0012700F91000000
(1498258826.693542) can0 152#E1EC000000000880
(1498258826.693562) can0 0D0#1000000000000000
(1498258826.693564) can0 0D1#00000080
(1498258826.694585) can0 0D2#0000FFFF10000000
(1498258826.694603) can0 0D3#0006C00F000057
(1498258826.694606) can0 0D4#0000000000000000
(1498258826.698569) can0 140#0003BC4600002000
(1498258826.698589) can0 141#1D26B429BF862700
(1498258826.700493) can0 002#0012700183000000
(1498258826.701508) can0 280#0009100000000000
(1498258826.703556) can0 376#AD
(1498258826.706526) can0 156#0100000000000028
(1498258826.708564) can0 140#0004BF4600002000
(1498258826.708584) can0 141#1D26B529BF862700
(1498258826.708587) can0 144#C000A67E5024A000
(1498258826.708589) can0 371#00000080FFEA0000
(1498258826.710561) can0 002#0012700385000000
(1498258826.713598) can0 152#E9FC000000000880
(1498258826.713617) can0 0D0#1000000000000000
(1498258826.713620) can0 0D1#00000080
(1498258826.714576) can0 0D2#0000FFFF10000000
(1498258826.714596) can0 0D3#0006C00F000058
(1498258826.714599) can0 0D4#0000000000000000
(1498258826.716549) can0 370#0000000000070000
(1498258826.718581) can0 140#0005C04600002000
(1498258826.718604) can0 141#1D26B529BF862700
(1498258826.718608) can0 360#1305515219000100
(1498258826.718615) can0 361#002124D141000000
(1498258826.719551) can0 362#099B89AD8F87DE04
(1498258826.720564) can0 002#0012700587000000
(1498258826.721564) can0 280#000A100000000000
(1498258826.726562) can0 156#0100000000000028
(1498258826.726583) can0 282#8AB0008181033A00
(1498258826.728564) can0 140#0006C04600002000
(1498258826.728594) can0 141#1D26B529BF862700
(1498258826.729448) can0 144#C000A77E5024A000
(1498258826.729467) can0 371#000000A0FFEA0000
(1498258826.730435) can0 002#0012700789000000
(1498258826.733599) can0 152#E90C000000000880
(1498258826.733619) can0 0D0#1000000000000000
(1498258826.733622) can0 0D1#00000080
(1498258826.734583) can0 0D2#0000FFFF10000000
(1498258826.734602) can0 0D3#8006C00F000059
(1498258826.734604) can0 0D4#0000000000000000
(1498258826.738578) can0 140#0007C14600002000
(1498258826.738597) can0 141#1D26B529BF862700
(1498258826.740504) can0 002#001270098B000000
(1498258826.741531) can0 280#000B100000000000
(1498258826.746568) can0 156#0100000000000028
(1498258826.748565) can0 140#0008C14600002000
(1498258826.748591) can0 141#1D26B429C0862700
(1498258826.748597) can0 144#C000A77E5024A000
(1498258826.748603) can0 25C#A200000000000000
(1498258826.749514) can0 371#00000080FFEA0000
(1498258826.750545) can0 002#0012700B8D000000
(1498258826.753534) can0 152#E11C000000000880
(1498258826.753553) can0 0D0#1000000000000000
(1498258826.753556) can0 0D1#00000080
(1498258826.754633) can0 0D2#0000FFFF10000000
(1498258826.754653) can0 0D3#8006C00F00005A
(1498258826.754656) can0 0D4#0000000000000000
(1498258826.754657) can0 376#AD
(1498258826.754660) can0 660#FFFF0BAD00001D46
(1498258826.758579) can0 140#0009BF4600002000
(1498258826.758598) can0 141#1D26B429C0862700
(1498258826.760569) can0 002#0012700D8F000000
(1498258826.761565) can0 280#000C100000000000
(1498258826.764559) can0 370#0100000000080000
(1498258826.766549) can0 156#0100000000000028
(1498258826.767502) can0 284#C102000E00000000
(1498258826.768508) can0 140#000ABD4600002000
(1498258826.768521) can0 141#1D26B429C0862700
(1498258826.768524) can0 144#C000A67E5024A000
(1498258826.769571) can0 360#1105515218000100
(1498258826.769597) can0 361#002124D142000000
(1498258826.769601) can0 362#0D9B89AD8F87DE04
(1498258826.769605) can0 371#01000080FFEA0000
(1498258826.770529) can0 002#0012700F91000000
(1498258826.773498) can0 152#E12C000000000880
(1498258826.773516) can0 0D0#1000000000000000
(1498258826.773518) can0 0D1#00000080
(1498258826.774542) can0 0D2#0000FFFF10000000
(1498258826.774555) can0 0D3#0006C00F00005B
(1498258826.774558) can0 0D4#0000000000000000
(1498258826.776524) can0 282#8AC0008181033A00
(1498258826.778570) can0 140#000BBC4600002000
(1498258826.778589) can0 141#1D26B529BF862700
(1498258826.780568) can0 002#0012700183000000
(1498258826.781557) can0 280#000D100000000000
(1498258826.787582) can0 156#0100000000000028
(1498258826.787601) can0 3D1#96100000FD000000
(1498258826.787605) can0 140#000CBD4600002000
(1498258826.788550) can0 141#1D26B429BF862700
(1498258826.788570) can0 144#C000A67E5024A000
(1498258826.788573) can0 371#01000080FFEA0000
(1498258826.788575) can0 372#00A8000000000000
(1498258826.790562) can0 002#0012700385000000
(1498258826.793581) can0 152#E93C000000000880
(1498258826.793601) can0 0D0#1000000000000000
(1498258826.793604) can0 0D1#00000080
(1498258826.794582) can0 0D2#0000FFFF10000000
(1498258826.794602) can0 0D3#8006C00F00005C
(1498258826.794608) can0 0D4#0000000000000000
(1498258826.798574) can0 140#000DBC4600002000
(1498258826.798592) can0 141#1E26B529BF862700
(1498258826.800565) can0 002#0012700587000000
(1498258826.801535) can0 280#000E100000000000
(1498258826.803557) can0 376#AD
(1498258826.806498) can0 156#0100000000000028
(1498258826.808519) can0 140#000EBB4600002000
(1498258826.808543) can0 141#1E26B529BE862700
(1498258826.808551) can0 144#C000A57E5024A000
(1498258826.809576) can0 25C#2300000000000000
(1498258826.809595) can0 371#010000A0FFEA0000
(1498258826.810507) can0 002#0012700789000000
(1498258826.812557) can0 370#0000000000090000
(1498258826.813500) can0 152#E14C000000000880
(1498258826.813519) can0 0D0#1000000000000000
(1498258826.813523) can0 0D1#00000080
(1498258826.814584) can0 0D2#0000FFFF10000000
(1498258826.814604) can0 0D3#0006C00F00005D
(1498258826.814606) can0 0D4#0000000000000000
(1498258826.818576) can0 140#000FBB4600002000
(1498258826.818596) can0 141#1D26B429BE862700
(1498258826.818598) can0 360#1505515218000100
(1498258826.819494) can0 361#002124D143000000
(1498258826.819507) can0 362#0D9B89AD8F87DE04
(1498258826.820558) can0 002#001270098B000000
(1498258826.821537) can0 280#000F100000000000
(1498258826.826549) can0 156#0100000000000028
(1498258826.826568) can0 282#89D0008181033A00
(1498258826.827495) can0 140#0000BB4600002000
(1498258826.828564) can0 141#1D26B429BE862700
(1498258826.828583) can0 144#C000A57E5024A000
(1498258826.828586) can0 371#000000A0FFEA0000
(1498258826.830564) can0 002#0012700B8D000000
(1498258826.833589) can0 152#E95C000000000880
(1498258826.833608) can0 0D0#1000000000000000
(1498258826.833610) can0 0D1#00000080
(1498258826.834564) can0 0D2#0000FFFF10000000
(1498258826.834585) can0 0D3#0006C00F00005E
(1498258826.834588) can0 0D4#0000000000000000
(1498258826.838579) can0 140#0001BB4600002000
(1498258826.838599) can0 141#1D26B429BD862700
(1498258826.840571) can0 002#0012700D8F000000
(1498258826.841560) can0 280#0000100000000000
(1498258826.846552) can0 156#0100000000000028
(1498258826.848556) can0 140#0002BB4600002000
(1498258826.848577) can0 141#1D26B429BD862700
(1498258826.848580) can0 144#C000A57E5024A000
(1498258826.849546) can0 371#000000A0FFEA0000
(1498258826.850538) can0 002#0012700F91000000
(1498258826.853553) can0 152#E96C000000000880
(1498258826.853572) can0 0D0#1000000000000000
(1498258826.853575) can0 0D1#00000080
(1498258826.854627) can0 0D2#0000FFFF10000000
(1498258826.854648) can0 0D3#8006C00F00005F
(1498258826.854651) can0 0D4#0000000000000000
(1498258826.854653) can0 376#AD
(1498258826.858525) can0 140#0003BB4600002000
(1498258826.858544) can0 141#1D26B429BD862700
(1498258826.860571) can0 002#0012700183000000
(1498258826.860590) can0 370#00000000000A0000
(1498258826.861498) can0 280#0001100000000000
(1498258826.863570) can0 374#0808000080000000
(1498258826.866559) can0 156#0100000000000028
(1498258826.867568) can0 284#C103000E00000000
(1498258826.868649) can0 140#0004BA4600002000
(1498258826.868668) can0 141#1E26B429BD862700
(1498258826.868671) can0 144#C000A57E5024A000
(1498258826.868673) can0 360#1205515219000100
(1498258826.868675) can0 25C#A400000000000000
(1498258826.869562) can0 361#002124D144000000
(1498258826.869585) can0 362#159B89AD8F87DE04
(1498258826.869588) can0 371#000000C0FFEA0000
(1498258826.870491) can0 002#0012700385000000
(1498258826.873564) can0 152#E17C000000000880
(1498258826.873583) can0 0D0#1000000000000000
(1498258826.873587) can0 0D1#00000080
(1498258826.874583) can0 0D2#0000FFFF10000000
(1498258826.874602) can0 0D3#8006C00F000060
(1498258826.874604) can0 0D4#0000000000000000
(1498258826.876567) can0 282#89E0008181033A00
(1498258826.878555) can0 140#0005BB4600002100
(1498258826.878574) can0 141#1E26B529BC862700
(1498258826.880549) can0 002#0012700587000000
(1498258826.881549) can0 280#0002100000000000
(1498258826.887573) can0 156#0100000000000028
(1498258826.887594) can0 3D1#96100000FD000000
(1498258826.888559) can0 140#0006BE4600002100
(1498258826.888579) can0 141#1D26B429BD862700
(1498258826.888581) can0 144#C000A67E5024A000
(1498258826.889577) can0 371#00000080FFEA0000
(1498258826.889597) can0 372#00B0000000000000
(1498258826.890549) can0 002#0012700789000000
(1498258826.892494) can0 37A#0000000000040000
(1498258826.893525) can0 152#E18C000000000880
(1498258826.893544) can0 0D0#1000000000000000
(1498258826.893547) can0 0D1#00000080
(1498258826.894578) can0 0D2#0000FFFF10000000
(1498258826.894598) can0 0D3#0006C00F000061
(1498258826.894601) can0 0D4#0000000000000000
(1498258826.898536) can0 140#0007BF4600002100
(1498258826.898557) can0 141#1D26B429BD862700
(1498258826.900554) can0 002#001270098B000000
(1498258826.901536) can0 280#0003100000000000
(1498258826.903558) can0 376#AD
(1498258826.906564) can0 156#0100000000000028
(1498258826.907562) can0 140#0008BF4600002100
(1498258826.908546) can0 141#1D26B429BD862700
(1498258826.908560) can0 144#C000A67E5024A000
(1498258826.908563) can0 370#00000000000B0000
(1498258826.909514) can0 371#000000A0FFEA0000
(1498258826.910505) can0 002#0012700B8D000000
(1498258826.913558) can0 152#E99C000000000880
(1498258826.913578) can0 0D0#1000000000000000
(1498258826.913580) can0 0D1#00000080
(1498258826.914583) can0 0D2#0000FFFF10000000
(1498258826.914602) can0 0D3#0006C00F000062
(1498258826.914605) can0 0D4#0000000000000000
(1498258826.918552) can0 140#0009C14600002100
(1498258826.918571) can0 141#1D26B529BE862700
(1498258826.918573) can0 360#1F05515219000100
(1498258826.918576) can0 361#002124D145000000
(1498258826.919475) can0 362#159B89AD8F87DE04
(1498258826.920532) can0 002#0012700D8F000000
(1498258826.921513) can0 280#0004100000000000
(1498258826.926582) can0 156#0100000000000028
(1498258826.926601) can0 282#89F0008181033A00
(1498258826.928588) can0 140#000AC24600002100
(1498258826.928608) can0 141#1D26B529BE862700
(1498258826.928610) can0 144#C000A77E5024A000
(1498258826.928613) can0 371#000000C0FFEA0000
(1498258826.928615) can0 25C#2500000000000000
(1498258826.930543) can0 002#0012700F91000000
(1498258826.933566) can0 152#E9AC000000000880
(1498258826.933584) can0 0D0#1000000000000000
(1498258826.933586) can0 0D1#00000080
(1498258826.934550) can0 0D2#0000FFFF10000000
(1498258826.934570) can0 0D3#8006C00F000063
(1498258826.934573) can0 0D4#0000000000000000
(1498258826.938583) can0 140#000BC44600002100
(1498258826.938603) can0 141#1D26B529BF862700
(1498258826.940553) can0 002#0012700183000000
(1498258826.941489) can0 280#0005100000000000
(1498258826.946564) can0 156#0100000000000028
(1498258826.948646) can0 140#000CC44600002100
(1498258826.948665) can0 141#1D26B529C0862700
(1498258826.948673) can0 144#C000A77E5024A000
(1498258826.948675) can0 371#000000A0FFEA0000
(1498258826.950548) can0 002#0012700385000000
(1498258826.953594) can0 152#E1BC000000000880
(1498258826.953614) can0 0D0#1000000000000000
(1498258826.953616) can0 0D1#00000080
(1498258826.954539) can0 0D2#0000FFFF10000000
(1498258826.954553) can0 0D3#0006C00F000064
(1498258826.954556) can0 0D4#0000000000000000
(1498258826.954558) can0 376#AD
(1498258826.956556) can0 370#00000000000C0000
(1498258826.958535) can0 140#000DC64600002100
(1498258826.958553) can0 141#1D26B529C1862700
(1498258826.960554) can0 002#0012700587000000
(1498258826.961557) can0 280#0006100000000000
(1498258826.966552) can0 156#0100000000000028
(1498258826.967584) can0 284#C104000E00000000
(1498258826.967603) can0 140#000EC64600002100
(1498258826.968593) can0 141#1D26B529C1862700
(1498258826.968619) can0 144#C000A87E5024A000
(1498258826.968628) can0 360#1F05515219000100
(1498258826.968630) can0 361#002124D146000000
(1498258826.968632) can0 362#0B9B89AD8F87DE04
(1498258826.969498) can0 371#000000A0FFEA0000
(1498258826.970495) can0 002#0012700789000000
(1498258826.971565) can0 6C8#D000000000000000
(1498258826.973566) can0 152#E9CC000000000880
(1498258826.973586) can0 0D0#1000000000000000
(1498258826.973588) can0 0D1#00000080
(1498258826.974576) can0 0D2#0000FFFF10000000
(1498258826.974597) can0 0D3#8006C00F000065
(1498258826.974599) can0 0D4#0000000000000000
(1498258826.976570) can0 282#8900008181033A00
(1498258826.978539) can0 140#000FC54600002000
(1498258826.978559) can0 141#1D26B529C2862700
(1498258826.980551) can0 002#001270098B000000
(1498258826.981509) can0 280#0007100000000000
(1498258826.987585) can0 156#0100000000000028
(1498258826.987606) can0 3D1#97100000FD000000
(1498258826.987608) can0 140#0000C54600002000
(1498258826.988631) can0 141#1D26B529C2862700
(1498258826.988651) can0 144#C000A87E5024A000
(1498258826.988654) can0 25C#2600000000000000
(1498258826.988657) can0 371#000000A0FFEA0000
(1498258826.989544) can0 372#00C8000000000000
(1498258826.990547) can0 002#0012700B8D000000
(1498258826.993585) can0 152#E1DC000000000880
(1498258826.993607) can0 0D0#1000000000000000
(1498258826.993609) can0 0D1#00000080
(1498258826.994526) can0 0D2#0000FFFF10000000
(1498258826.994541) can0 0D3#8006C00F000066
(1498258826.994544) can0 0D4#0000000000000000
(1498258826.997548) can0 6D1#7835020000000000
(1498258826.997573) can0 140#0001C54600002000
(1498258826.997714) can0 141#1D26B529C3862700
(1498258827.000568) can0 002#0012700D8F000000
(1498258827.001571) can0 280#0008100000000000
(1498258827.003560) can0 376#AD
(1498258827.004530) can0 370#00000000000D0000
(1498258827.006514) can0 156#0100000000000028
(1498258827.008644) can0 140#0002C64600002000
(1498258827.008666) can0 141#1D26B529C3862700
(1498258827.008669) can0 144#C000A87E5024A000
(1498258827.009537) can0 371#000000A0FFEA0000
(1498258827.009561) can0 002#0012700F91000000
(1498258827.013568) can0 152#E1EC000000000880
(1498258827.013587) can0 0D0#1000000000000000
(1498258827.013590) can0 0D1#00000080
(1498258827.014520) can0 0D2#0000FFFF10000000
(1498258827.014533) can0 0D3#0006C00F000067
(1498258827.014536) can0 0D4#0000000000000000
(1498258827.018646) can0 140#0003C64600002000
(1498258827.018666) can0 141#1D26B529C3862700
(1498258827.018668) can0 360#1905515218000100
(1498258827.018670) can0 361#002124D147000000
(1498258827.019556) can0 362#0B9B89AD8F87DE04
(1498258827.020548) can0 002#0012700183000000
(1498258827.021561) can0 280#0009100000000000
(1498258827.026536) can0 156#0100000000000028
(1498258827.027490) can0 282#8910008181033A00
(1498258827.028565) can0 140#0004C64600002000
(1498258827.028584) can0 141#1D26B529C4862700
(1498258827.028586) can0 144#C000A87E5024A000
(1498258827.028589) can0 371#000000A0FFEA0000
(1498258827.030546) can0 002#0012700385000000
(1498258827.033585) can0 152#E9FC000000000880
(1498258827.033604) can0 0D0#1000000000000000
(1498258827.033607) can0 0D1#00000080
(1498258827.034581) can0 0D2#0000FFFF10000000
(1498258827.034600) can0 0D3#0006C00F000068
(1498258827.034602) can0 0D4#0000000000000000
(1498258827.037559) can0 140#0005C54600002000
(1498258827.038492) can0 141#1D26B529C4862700
(1498258827.040523) can0 002#0012700587000000
(1498258827.041556) can0 280#000A100000000000
(1498258827.046566) can0 156#0100000000000028
(1498258827.048646) can0 140#0006C64600002000
(1498258827.048664) can0 141#1D26B529C4862700
(1498258827.048666) can0 144#C000A87E5024A000
(1498258827.048669) can0 25C#A700000000000000
(1498258827.049500) can0 371#000000C0FFEA0000
(1498258827.050550) can0 002#0012700789000000
(1498258827.052474) can0 370#00000000000E0000
(1498258827.053514) can0 152#E90C000000000880
(1498258827.053530) can0 0D0#1000000000000000
(1498258827.053532) can0 0D1#00000080
(1498258827.054558) can0 0D2#0000FFFF10000000
(1498258827.054578) can0 0D3#8006C00F000069
(1498258827.054580) can0 0D4#0000000000000000
(1498258827.054582) can0 376#AD
(1498258827.057549) can0 140#0007C84600002000
(1498258827.058557) can0 141#1D26B529C5862700
(1498258827.060552) can0 002#001270098B000000
(1498258827.061540) can0 280#000B100000000000
(1498258827.062556) can0 378#B100000000000000
(1498258827.066560) can0 156#0100000000000028
(1498258827.067566) can0 284#C105000E00000000
(1498258827.068563) can0 140#0008C64600002000
(1498258827.068583) can0 141#1D26B529C5862700
(1498258827.068585) can0 144#C000A87E5024E000
(1498258827.068587) can0 360#0105515218000100
(1498258827.068589) can0 361#002124D148000000
(1498258827.069578) can0 362#029B89AD8F87DE04
(1498258827.069596) can0 371#000000C0FFEA0000
(1498258827.070546) can0 002#0012700B8D000000
(1498258827.073507) can0 152#E11C000000000880
(1498258827.073538) can0 0D0#1000000000000000
(1498258827.073544) can0 0D1#00000080
(1498258827.074516) can0 0D2#0000FFFF10000000
(1498258827.074533) can0 0D3#8006C00F00006A
(1498258827.074536) can0 0D4#0000000000000000
(1498258827.076564) can0 282#8920008181033A00
(1498258827.078574) can0 140#0009BF4600002000
(1498258827.078593) can0 141#1D26B529C5862700
(1498258827.080528) can0 002#0012700D8F000000
(1498258827.081499) can0 280#000C100000000000
(1498258827.087563) can0 156#0100000000000028
(1498258827.087586) can0 3D1#96100000FD000000
(1498258827.087590) can0 140#000ABE4600002000
(1498258827.087593) can0 141#1D26B429C4862700
(1498258827.088524) can0 144#C000A67E5024E000
(1498258827.088540) can0 371#000000A0FFEA0000
(1498258827.088543) can0 372#00D0000000000000
(1498258827.090551) can0 002#0012700F91000000
(1498258827.093576) can0 152#E12C000000000880
(1498258827.093598) can0 0D0#1000000000000000
(1498258827.093601) can0 0D1#00000080
(1498258827.094571) can0 0D2#0000FFFF10000000
(1498258827.094591) can0 0D3#0006C00F00006B
(1498258827.094594) can0 0D4#0000000000000000
(1498258827.097578) can0 140#000BBF4600002000
(1498258827.098526) can0 141#1D26B429C3862700
(1498258827.100513) can0 002#0012700183000000
(1498258827.100533) can0 370#00000000000F0000
(1498258827.101484) can0 280#000D100000000000
(1498258827.103562) can0 376#AD
(1498258827.106571) can0 156#0100000000000028
(1498258827.107555) can0 140#000CC04600002000
(1498258827.107572) can0 141#1D26B429C3862700
(1498258827.107575) can0 144#C000A77E5024E000
(1498258827.108573) can0 371#000000A0FFEA0000
(1498258827.108595) can0 25C#2000000000000000
(1498258827.110530) can0 002#0012700385000000
(1498258827.113565) can0 152#E93C000000000880
(1498258827.113588) can0 0D0#1000000000000000
(1498258827.113591) can0 0D1#00000080
(1498258827.114562) can0 0D2#0000FFFF10000000
(1498258827.114584) can0 0D3#8006C00F00006C
(1498258827.114587) can0 0D4#0000000000000000
(1498258827.117585) can0 140#000DC04600002000
(1498258827.117607) can0 141#1D26B429C3862700
(1498258827.118590) can0 360#D904515218000100
(1498258827.118611) can0 361#002124D149000000
(1498258827.118613) can0 362#029B89AD8F87DE04
(1498258827.120559) can0 002#0012700587000000
(1498258827.121567) can0 280#000E100000000000
(1498258827.126532) can0 156#0100000000000028
(1498258827.126608) can0 282#8930008181033A00
(1498258827.128519) can0 140#000EBF4600002000
(1498258827.128586) can0 141#1D26B529C2862700
(1498258827.128592) can0 144#C000A67E5024E000
(1498258827.128594) can0 371#000000A0FFEA0000
(1498258827.130557) can0 002#0012700789000000
(1498258827.133585) can0 152#E14C000000000880
(1498258827.133607) can0 0D0#1000000000000000
(1498258827.133610) can0 0D1#00000080
(1498258827.134517) can0 0D2#0000FFFF10000000
(1498258827.134540) can0 0D3#0006C00F00006D
(1498258827.134543) can0 0D4#0000000000000000
(1498258827.138495) can0 140#000FBF4600002000
(1498258827.138513) can0 141#1D26B529C2862700
(1498258827.140493) can0 002#001270098B000000
(1498258827.141424) can0 280#000F100000000000
(1498258827.146519) can0 156#0100000000000028
(1498258827.148596) can0 140#0000BD4600002000
(1498258827.148625) can0 141#1D26B429C2862700
(1498258827.148628) can0 144#C000A67E5024E000
(1498258827.148631) can0 370#0000000000000000
(1498258827.148634) can0 371#000000A0FFEA0000
(1498258827.150556) can0 002#0012700B8D000000
(1498258827.153595) can0 152#E95C000000000880
(1498258827.153618) can0 0D0#1000000000000000
(1498258827.153621) can0 0D1#00000080
(1498258827.154573) can0 0D2#0000FFFF10000000
(1498258827.154595) can0 0D3#0006C00F00006E
(1498258827.154598) can0 0D4#0000000000000000
(1498258827.154600) can0 376#AD
(1498258827.157479) can0 140#0001BC4600002000
(1498258827.157498) can0 141#1D26B429C1862700
(1498258827.160556) can0 002#0012700D8F000000
(1498258827.161573) can0 280#0000100000000000
(1498258827.166569) can0 156#0100000000000028
(1498258827.167497) can0 284#C106000E00000000
(1498258827.167519) can0 140#0002BC4600002000
(1498258827.168579) can0 141#1D26B429C1862700
(1498258827.168602) can0 144#C000A67E5024E000
(1498258827.168606) can0 360#D304515218000100
(1498258827.168608) can0 25C#A100000000000000
(1498258827.168610) can0 361#002124D14A000000
(1498258827.169583) can0 362#F79A89AD8F87DE04
(1498258827.169602) can0 371#000000A0FFEA0000
(1498258827.169605) can0 002#0012700F91000000
(1498258827.173555) can0 152#E96C000000000880
(1498258827.173579) can0 0D0#1000000000000000
(1498258827.173581) can0 0D1#00000080
(1498258827.174580) can0 0D2#0000FFFF10000000
(1498258827.174599) can0 0D3#8006C00F00006F
(1498258827.174601) can0 0D4#0000000000000000
(1498258827.176565) can0 282#8940008181033A00
(1498258827.177518) can0 140#0003BB4600002000
(1498258827.178545) can0 141#1D26B429C0862700
(1498258827.180549) can0 002#0012700183000000
(1498258827.181535) can0 280#0001100000000000
(1498258827.187558) can0 156#0100000000000028
(1498258827.187578) can0 3D1#96100000FD000000
(1498258827.187581) can0 140#0004BB4600002000
(1498258827.187583) can0 141#1D26B429BF862700
(1498258827.188554) can0 144#C000A57E5024E000
(1498258827.188576) can0 371#000000C0FFEA0000
(1498258827.188579) can0 372#00E0000000000000
(1498258827.190548) can0 002#0012700385000000
(1498258827.193591) can0 152#E17C000000000880
(1498258827.193609) can0 0D0#1000000000000000
(1498258827.193611) can0 0D1#00000080
(1498258827.194563) can0 0D2#0000FFFF10000000
(1498258827.194582) can0 0D3#0006C00F000070
(1498258827.194584) can0 0D4#0000000000000000
(1498258827.196562) can0 370#0000000000010000
(1498258827.197537) can0 140#0005BA4600002000
(1498258827.198504) can0 141#1D26B429BF862700
(1498258827.200536) can0 002#0012700587000000
(1498258827.201495) can0 280#0002100000000000
(1498258827.203451) can0 376#AD
(1498258827.206555) can0 156#0100000000000028
(1498258827.208626) can0 140#0006BA4600002000
(1498258827.208647) can0 141#1D26B429BE862700
(1498258827.208649) can0 144#C000A57E5024E000
(1498258827.208652) can0 371#000000C0FFEA0000
(1498258827.210508) can0 002#0012700789000000
(1498258827.213592) can0 152#E18C000000000880
(1498258827.213612) can0 0D0#1000000000000000
(1498258827.213615) can0 0D1#00000080
(1498258827.214575) can0 0D2#0000FFFF10000000
(1498258827.214596) can0 0D3#8006C00F000071
(1498258827.214599) can0 0D4#0000000000000000
(1498258827.218637) can0 140#0007B64600002000
(1498258827.218657) can0 141#1D26B329BE862700
(1498258827.218660) can0 360#D304515218000100
(1498258827.218662) can0 361#002124D14B000000
(1498258827.218664) can0 362#F79A89AD8F87DE04
(1498258827.220490) can0 002#001270098B000000
(1498258827.221484) can0 280#0003100000000000
(1498258827.226560) can0 156#0100000000000028
(1498258827.227614) can0 282#8950008181033A00
(1498258827.227638) can0 140#0008B44600002000
(1498258827.227642) can0 141#1D26B429BC862700
(1498258827.227644) can0 144#C000A47E5024E000
(1498258827.228569) can0 371#000000C0FFEA0000
(1498258827.228589) can0 25C#A200000000000000
(1498258827.230546) can0 002#0012700B8D000000
(1498258827.233580) can0 152#E99C000000000880
(1498258827.233599) can0 0D0#1000000000000000
(1498258827.233602) can0 0D1#00000080
(1498258827.234585) can0 0D2#0000FFFF10000000
(1498258827.234605) can0 0D3#8006C00F000072
(1498258827.234607) can0 0D4#0000000000000000
(1498258827.237521) can0 140#0009B34600002000
(1498258827.237540) can0 141#1D26B429BB862700
(1498258827.240546) can0 002#0012700D8F000000
(1498258827.241560) can0 280#0004100000000000
(1498258827.244518) can0 370#0000000000020000
(1498258827.246498) can0 156#0100000000000028
(1498258827.248573) can0 140#000AB04600002000
(1498258827.248592) can0 141#1E26B429BA862700
(1498258827.248595) can0 144#C000A37E5024E000
(1498258827.248597) can0 371#000000A0FFEA0000
(1498258827.250544) can0 002#0012700F91000000
(1498258827.253570) can0 152#E9AC000000000880
(1498258827.253589) can0 0D0#1000000000000000
(1498258827.253592) can0 0D1#00000080
(1498258827.254551) can0 0D2#0000FFFF10000000
(1498258827.254570) can0 0D3#0006C00F000073
(1498258827.254572) can0 0D4#0000000000000000
(1498258827.254574) can0 376#AD
(1498258827.254576) can0 660#FFFF0BAD00001D4B
(1498258827.257507) can0 140#000BAE4600002000
(1498258827.257525) can0 141#1E26B429B9862700
(1498258827.260545) can0 002#0012700183000000
(1498258827.261557) can0 280#0005100000000000
(1498258827.266567) can0 156#0100000000000028
(1498258827.267598) can0 140#000CA94600002000
(1498258827.267618) can0 141#1E26B329B7862700
(1498258827.267621) can0 144#C000A27E5024A000
(1498258827.268576) can0 284#C107000E00000000
(1498258827.268596) can0 360#C604515218000100
(1498258827.268599) can0 361#002124D14C000000
(1498258827.268601) can0 362#F09A89AD8F87DE04
(1498258827.268603) can0 371#000000C0FFEA0000
(1498258827.269535) can0 002#0012700385000000
(1498258827.273565) can0 152#E1BC000000000880
(1498258827.273587) can0 0D0#1000000000000000
(1498258827.273590) can0 0D1#00000080
(1498258827.274584) can0 0D2#0000FFFF10000000
(1498258827.274606) can0 0D3#8006C00F000074
(1498258827.274608) can0 0D4#0000000000000000
(1498258827.274610) can0 375#0300000120000200
(1498258827.276562) can0 282#8960008181033A00
(1498258827.278574) can0 140#000DA94600002000
(1498258827.278593) can0 141#1E26B329B6862700
(1498258827.280544) can0 002#0012700587000000
(1498258827.281558) can0 280#0006100000000000
(1498258827.287548) can0 156#0100000000000028
(1498258827.287570) can0 3D1#96100000FD000000
(1498258827.287573) can0 140#000EA44600002000
(1498258827.288583) can0 141#1D26B329B4862700
(1498258827.288603) can0 144#C000A17E5024A000
(1498258827.288606) can0 371#00000080FFEA0000
(1498258827.288608) can0 25C#2300000000000000
(1498258827.289565) can0 372#00F8000000000000
(1498258827.289586) can0 002#0012700789000000
(1498258827.292557) can0 370#0000000000030000
(1498258827.293573) can0 152#E9CC000000000880
(1498258827.293594) can0 0D0#1000000000000000
(1498258827.293596) can0 0D1#00000080
(1498258827.294581) can0 0D2#0000FFFF10000000
(1498258827.294600) can0 0D3#0006C00F000075
(1498258827.294603) can0 0D4#0000000000000000
(1498258827.297506) can0 140#000FA34600002000
(1498258827.297526) can0 141#1E26B329B2862700
(1498258827.300546) can0 002#001270098B000000
(1498258827.301479) can0 280#0007100000000000
(1498258827.303551) can0 376#AD
(1498258827.306544) can0 156#0100000000000028
(1498258827.307576) can0 140#0000A14600002000
(1498258827.307598) can0 141#1E26B329B0862700
(1498258827.307601) can0 144#C000A17E5024A000
(1498258827.308534) can0 371#000000A0FFEA0000
(1498258827.309558) can0 002#0012700B8D000000
(1498258827.313589) can0 152#E1DC000000000880
(1498258827.313610) can0 0D0#1000000000000000
(1498258827.313613) can0 0D1#00000080
(1498258827.314543) can0 0D2#0000FFFF10000000
(1498258827.314565) can0 0D3#0006C00F000076
(1498258827.314567) can0 0D4#0000000000000000
(1498258827.317559) can0 140#00019F4600002000
(1498258827.317584) can0 141#1E26B329AE862700
(1498258827.317610) can0 360#BA04515219000100
(1498258827.318555) can0 361#002124D14D000000
(1498258827.318578) can0 362#F09A89AD8F87DE04
(1498258827.319564) can0 002#0012700D8F000000
(1498258827.321528) can0 280#0008100000000000
(1498258827.326562) can0 156#0100000000000028
(1498258827.327566) can0 282#8970008181033A00
(1498258827.327585) can0 140#0002A04600002100
(1498258827.327588) can0 141#1E26B329AC862700
(1498258827.327590) can0 144#C000A07E5024A000
(1498258827.328556) can0 371#000000C0FFEA0000
(1498258827.330505) can0 002#0012700F91000000
(1498258827.333494) can0 152#E1EC000000000880
(1498258827.333519) can0 0D0#1000000000000000
(1498258827.333524) can0 0D1#00000080
(1498258827.334576) can0 0D2#0000FFFF10000000
(1498258827.334596) can0 0D3#8006C00F000077
(1498258827.334598) can0 0D4#0000000000000000
(1498258827.337580) can0 140#0003A24600002100
(1498258827.337600) can0 141#1E26B329AB862700
(1498258827.340560) can0 002#0012700183000000
(1498258827.340579) can0 370#0000000000040000
(1498258827.341560) can0 280#0009100000000000
(1498258827.346562) can0 156#0100000000000028
(1498258827.347578) can0 140#0004A34600002100
(1498258827.348625) can0 141#1E26B329AA862700
(1498258827.348645) can0 144#C000A17E5024E000
(1498258827.348647) can0 371#000000A0FFEA0000
(1498258827.348650) can0 25C#A400000000000000
(1498258827.350545) can0 002#0012700385000000
(1498258827.353531) can0 152#E9FC000000000880
(1498258827.353551) can0 0D0#1000000000000000
(1498258827.353553) can0 0D1#00000080
(1498258827.354557) can0 0D2#0000FFFF10000000
(1498258827.354577) can0 0D3#8006C00F000078
(1498258827.354580) can0 0D4#0000000000000000
(1498258827.354583) can0 376#AD
(1498258827.357567) can0 140#0005A54600002100
(1498258827.357587) can0 141#1E26B329A9862700
(1498258827.360541) can0 002#0012700587000000
(1498258827.361553) can0 280#000A100000000000
(1498258827.366552) can0 156#0100000000000028
(1498258827.367553) can0 284#C108000E00000000
(1498258827.367572) can0 140#0006A84600002100
(1498258827.368586) can0 141#1E26B329A9862700
(1498258827.368598) can0 144#C000A27E5024E000
(1498258827.368601) can0 360#C804515218000100
(1498258827.368603) can0 361#002124D14E000000
(1498258827.368605) can0 362#D29A89AD8F87DE04
(1498258827.369558) can0 371#0000FFC7FFEA0000
(1498258827.369577) can0 002#0012700789000000
(1498258827.373586) can0 152#E90C000000000880
(1498258827.373606) can0 0D0#1000000000000000
(1498258827.373609) can0 0D1#00000080
(1498258827.374578) can0 0D2#0000FFFF10000000
(1498258827.374598) can0 0D3#0006C00F000079
(1498258827.374601) can0 0D4#0000000000000000
(1498258827.377575) can0 282#8980008181033A00
(1498258827.377594) can0 140#0007A94600002000
(1498258827.377597) can0 141#1E26B329A9862700
(1498258827.379550) can0 002#001270098B000000
(1498258827.381490) can0 280#000B100000000000
(1498258827.387557) can0 140#0008AA4600002000
(1498258827.387577) can0 141#1E26B429A9862700
(1498258827.387580) can0 144#C000A27E5024E000
(1498258827.387582) can0 156#0100000000000028
(1498258827.388568) can0 3D1#97100000FD000000
(1498258827.388588) can0 370#0000000000050000
(1498258827.388590) can0 371#000000A0FFEA0000
(1498258827.388592) can0 372#0008000000000000
(1498258827.389551) can0 002#0012700B8D000000
(1498258827.393588) can0 152#E11C000000000880
(1498258827.393607) can0 0D0#1000000000000000
(1498258827.393609) can0 0D1#00000080
(1498258827.394546) can0 0D2#0000FFFF10000000
(1498258827.394566) can0 0D3#0006C00F00007A
(1498258827.394574) can0 0D4#0000000000000000
(1498258827.397559) can0 140#0009AA4600002000
(1498258827.397579) can0 141#1E26B429A9862700
(1498258827.399552) can0 002#0012700D8F000000
(1498258827.401523) can0 280#000C100000000000
(1498258827.403502) can0 376#AD
(1498258827.406555) can0 156#0100000000000028
(1498258827.407585) can0 140#000AAB4600002000
(1498258827.407605) can0 141#1E26B429A9862700
(1498258827.408566) can0 144#C000A27E5024E000
(1498258827.408586) can0 371#00000080FFEA0000
(1498258827.408588) can0 25C#2500000000000000
(1498258827.409548) can0 002#0012700F91000000
(1498258827.413504) can0 152#E12C000000000880
(1498258827.413524) can0 0D0#1000000000000000
(1498258827.413526) can0 0D1#00000080
(1498258827.414542) can0 0D2#0000FFFF10000000
(1498258827.414562) can0 0D3#8006C00F00007B
(1498258827.414565) can0 0D4#0000000000000000
(1498258827.417580) can0 140#000BAA4600002000
(1498258827.417600) can0 141#1E26B429AA862700
(1498258827.418521) can0 360#C304515219000100
(1498258827.418535) can0 361#002124D14F000000
(1498258827.418538) can0 362#D29A89AD8F87DE04
(1498258827.419561) can0 002#0012700183000000
(1498258827.421563) can0 280#000D100000000000
(1498258827.426555) can0 156#0100000000000028
(1498258827.427537) can0 282#8990008181033A00
(1498258827.427553) can0 140#000CAA4600002000
(1498258827.427558) can0 141#1E26B329AA862700
(1498258827.427577) can0 144#C000A27E5024A000
(1498258827.428558) can0 371#000000A0FFEA0000
(1498258827.429488) can0 002#0012700385000000
(1498258827.433568) can0 152#E93C000000000880
(1498258827.433586) can0 0D0#1000000000000000
(1498258827.433589) can0 0D1#00000080
(1498258827.434582) can0 0D2#0000FFFF10000000
(1498258827.434601) can0 0D3#0006C00F00007C
(1498258827.434604) can0 0D4#0000000000000000
(1498258827.436496) can0 370#0000000000060000
(1498258827.437565) can0 140#000DAA4600002000
(1498258827.437585) can0 141#1E26B329AA862700
(1498258827.439497) can0 002#0012700587000000
(1498258827.441559) can0 280#000E100000000000
(1498258827.447573) can0 156#0100000000000028
(1498258827.447592) can0 140#000EA84600002000
(1498258827.448546) can0 141#1E26CC29AA862700
(1498258827.448565) can0 144#C000A27E5024E000
(1498258827.448568) can0 371#000000A0FFEA0000
(1498258827.449500) can0 002#0012700789000000
(1498258827.453581) can0 152#E14C000000000880
(1498258827.453600) can0 0D0#1000000000000000
(1498258827.453604) can0 0D1#00000080
(1498258827.454542) can0 0D2#0000FFFF10000000
(1498258827.454562) can0 0D3#8006C00F00007D
(1498258827.454564) can0 0D4#0000000000000000
(1498258827.454566) can0 376#AD
(1498258827.457580) can0 140#000FA64600002000
(1498258827.457598) can0 141#1E26CC29A9862700
(1498258827.459560) can0 002#001270098B000000
(1498258827.461552) can0 280#000F100000000000
(1498258827.461572) can0 281#0000FCFC40000000
(1498258827.467626) can0 156#0100000000000028
(1498258827.467645) can0 140#0000A74600002000
(1498258827.467648) can0 141#1E26B329A9862700
(1498258827.467651) can0 144#C000A17E5024E000
(1498258827.467653) can0 284#C109000E00000000
(1498258827.468628) can0 360#BF04515219000100
(1498258827.468646) can0 361#002124D140000000
(1498258827.468650) can0 362#CF9A89AD8F87DE04
(1498258827.468652) can0 25C#2600000000000000
(1498258827.469545) can0 371#000000A0FFEA0000
(1498258827.469564) can0 002#0012700B8D000000
(1498258827.473589) can0 152#E95C000000000880
(1498258827.473608) can0 0D0#1000000000000000
(1498258827.473610) can0 0D1#00000080
(1498258827.474543) can0 0D2#0000FFFF10000000
(1498258827.474564) can0 0D3#8006C00F00007E
(1498258827.474566) can0 0D4#0000000000000000
(1498258827.476565) can0 282#89A0008181033A00
(1498258827.477495) can0 140#0001A74600002000
(1498258827.477513) can0 141#1E26B429A9862700
(1498258827.479561) can0 002#0012700D8F000000
(1498258827.481554) can0 280#0000100000000000
(1498258827.484560) can0 370#0000000000070000
(1498258827.487611) can0 140#0002A64600002000
(1498258827.487632) can0 141#1E26CD29A9862700
(1498258827.487635) can0 144#C000A17E5024E000
(1498258827.487637) can0 156#0100000000000028
(1498258827.488522) can0 3D1#96100000FD000000
(1498258827.488540) can0 371#000000A0FFEA0000
(1498258827.488543) can0 372#0010000000000000
(1498258827.489556) can0 002#0012700F91000000
(1498258827.493571) can0 152#E96C000000000880
(1498258827.493590) can0 0D0#1000000000000000
(1498258827.493593) can0 0D1#00000080
(1498258827.494544) can0 0D2#0000FFFF10000000
(1498258827.494561) can0 0D3#0006C00F00007F
(1498258827.494564) can0 0D4#0000000000000000
(1498258827.497542) can0 140#0003A54600002000
(1498258827.497561) can0 141#1E26CC29A8862700
(1498258827.499553) can0 002#0012700183000000
(1498258827.501548) can0 280#0001100000000000
(1498258827.503484) can0 376#AD
(1498258827.507630) can0 156#0100000000000028
(1498258827.507649) can0 140#0004A54600002000
(1498258827.507652) can0 141#1E26B329A8862700
(1498258827.507654) can0 144#C000A17E5024E000
(1498258827.508545) can0 371#000000A0FFEA0000
(1498258827.509519) can0 002#0012700385000000
(1498258827.513583) can0 152#E17C000000000880
(1498258827.513602) can0 0D0#1000000000000000
(1498258827.513606) can0 0D1#00000080
(1498258827.514564) can0 0D2#0000FFFF10000000
(1498258827.514583) can0 0D3#0006C00F000080
(1498258827.514585) can0 0D4#0000000000000000
(1498258827.517632) can0 140#0005A44600002000
(1498258827.517656) can0 141#1E26CC29A8862700
(1498258827.517659) can0 360#B704515219000100
(1498258827.517663) can0 361#002124D141000000
(1498258827.518528) can0 362#CF9A89AD8F87DE04
(1498258827.519563) can0 002#0012700587000000
(1498258827.521490) can0 280#0002100000000000
(1498258827.527580) can0 156#0100000000000028
(1498258827.527600) can0 140#0006A04600002000
(1498258827.527602) can0 141#1F26CC29A7862700
(1498258827.527605) can0 144#C000A07E5024E000
(1498258827.527607) can0 282#89B0008181033A00
(1498258827.528570) can0 371#000000A0FFEA0000
(1498258827.528590) can0 25C#A700000000000000
(1498258827.529555) can0 002#0012700789000000
(1498258827.532562) can0 370#0000000000080000
(1498258827.533492) can0 152#E18C000000000880
(1498258827.533518) can0 0D0#1000000000000000
(1498258827.533522) can0 0D1#00000080
(1498258827.534580) can0 0D2#0000FFFF10000000
(1498258827.534600) can0 0D3#8006C00F000081
(1498258827.534603) can0 0D4#0000000000000000
(1498258827.537548) can0 140#0007A04600002000
(1498258827.537568) can0 141#1F26B329A6862700
(1498258827.539497) can0 002#001270098B000000
(1498258827.541538) can0 280#0003100000000000
(1498258827.547559) can0 156#0100000000000028
(1498258827.547578) can0 140#00089F4600002000
(1498258827.547581) can0 141#1F26B429A5862700
(1498258827.547583) can0 144#C000A07E5024E000
(1498258827.548554) can0 371#000000A0FFEA0000
(1498258827.549519) can0 002#0012700B8D000000
(1498258827.553585) can0 152#E99C000000000880
(1498258827.553604) can0 0D0#1000000000000000
(1498258827.553607) can0 0D1#00000080
(1498258827.554530) can0 0D2#0000FFFF10000000
(1498258827.554555) can0 0D3#8006C00F000082
(1498258827.554561) can0 0D4#0000000000000000
(1498258827.554563) can0 376#AD
(1498258827.557546) can0 140#00099C4600002000
(1498258827.557566) can0 141#1F26CC29A4862700
(1498258827.559492) can0 002#0012700D8F000000
(1498258827.561558) can0 280#0004100000000000
(1498258827.566607) can0 156#0100000000000028
(1498258827.567564) can0 140#000A974600002000
(1498258827.567582) can0 141#1F26CC29A3862700
(1498258827.567585) can0 144#C0009F7E5024E000
(1498258827.568542) can0 284#C10A000E00000000
(1498258827.568568) can0 360#AE04515219000100
(1498258827.568572) can0 361#002125D142000000
(1498258827.568575) can0 362#D79A89AD8F87DE04
(1498258827.568668) can0 371#000000A0FFEA0000
(1498258827.569460) can0 002#0012700F91000000
(1498258827.573510) can0 152#E9AC000000000880
(1498258827.573535) can0 0D0#1000000000000000
(1498258827.573537) can0 0D1#00000080
(1498258827.574552) can0 0D2#0000FFFF10000000
(1498258827.574573) can0 0D3#0006C00F000083
(1498258827.574575) can0 0D4#0000000000000000
(1498258827.577537) can0 282#89C0008181033A00
(1498258827.577562) can0 140#000B974600002000
(1498258827.577565) can0 141#1F26CB29A2862700
(1498258827.579551) can0 002#0012700183000000
(1498258827.580530) can0 370#0100000000090000
(1498258827.581551) can0 280#0005100000000000
(1498258827.587536) can0 140#000C974600002000
(1498258827.587560) can0 141#1F26B229A0862700
(1498258827.587564) can0 144#C0009F7E5024E000
(1498258827.587648) can0 156#0100000000000028
(1498258827.588574) can0 371#010000A0FFEA0000
(1498258827.588594) can0 3D1#97100000FD000000
(1498258827.588596) can0 25C#2000000000000000
(1498258827.589539) can0 372#0020000000000000
(1498258827.589559) can0 002#0012700385000000
(1498258827.593591) can0 152#E1BC000000000880
(1498258827.593611) can0 0D0#1000000000000000
(1498258827.593613) can0 0D1#00000080
(1498258827.594576) can0 0D2#0000FFFF10000000
(1498258827.594597) can0 0D3#8006C00F000084
(1498258827.594599) can0 0D4#0000000000000000
(1498258827.597506) can0 140#000D984600002000
(1498258827.597525) can0 141#1F26B3299F862700
(1498258827.599564) can0 002#0012700587000000
(1498258827.601545) can0 280#0006100000000000
(1498258827.603549) can0 376#AD
(1498258827.607560) can0 156#0100000000000028
(1498258827.607578) can0 140#000E984600002000
(1498258827.607581) can0 141#1F26CC299E862700
(1498258827.607583) can0 144#C0009F7E5024E000
(1498258827.608460) can0 371#010000C0FFEA0000
(1498258827.609521) can0 002#0012700789000000
(1498258827.613518) can0 152#E9CC000000000880
(1498258827.613538) can0 0D0#1000000000000000
(1498258827.613540) can0 0D1#00000080
(1498258827.614569) can0 0D2#0000FFFF10000000
(1498258827.614590) can0 0D3#0006C00F000085
(1498258827.614593) can0 0D4#0000000000000000
(1498258827.617638) can0 140#000F984600002000
(1498258827.617659) can0 141#1F26B3299E862700
(1498258827.617661) can0 360#AF04515219000100
(1498258827.617663) can0 361#002124D143000000
(1498258827.617665) can0 362#D79A89AD8F87DE04
(1498258827.619562) can0 002#001270098B000000
(1498258827.621533) can0 280#0007100000000000
(1498258827.626555) can0 140#0000994600002000
(1498258827.627590) can0 141#1F26CC299D862700
(1498258827.627610) can0 144#C0009F7E5024E000
(1498258827.627612) can0 156#0100000000000028
(1498258827.627614) can0 282#89D0008181033A00
(1498258827.628569) can0 370#01000000000A0000
(1498258827.628589) can0 371#01000080FFEA0000
(1498258827.629556) can0 002#0012700B8D000000
(1498258827.633537) can0 152#E1DC000000000880
(1498258827.633561) can0 0D0#1000000000000000
(1498258827.633563) can0 0D1#00000080
(1498258827.634544) can0 0D2#0000FFFF10000000
(1498258827.634562) can0 0D3#0006C00F000086
(1498258827.634564) can0 0D4#0000000000000000
(1498258827.637549) can0 140#0001984600002000
(1498258827.637568) can0 141#1F26CC299D862700
(1498258827.639543) can0 002#0012700D8F000000
(1498258827.641556) can0 280#0008100000000000
(1498258827.647580) can0 156#0100000000000028
(1498258827.647598) can0 140#0002974600002000
(1498258827.647601) can0 141#1F26CC299C862700
(1498258827.648485) can0 144#C0009F7E5024E000
(1498258827.648505) can0 371#010000C0FFEA0000
(1498258827.648509) can0 25C#A100000000000000
(1498258827.649470) can0 002#0012700F91000000
(1498258827.653477) can0 152#E1EC000000000880
(1498258827.653493) can0 0D0#1000000000000000
(1498258827.653495) can0 0D1#00000080
(1498258827.654566) can0 0D2#0000FFFF10000000
(1498258827.654578) can0 0D3#8006C00F000087
(1498258827.654580) can0 0D4#0000000000000000
(1498258827.654582) can0 376#AD
(1498258827.657478) can0 140#0003964600002000
(1498258827.657490) can0 141#1F26CC299B862700
(1498258827.659441) can0 002#0012700183000000
(1498258827.661421) can0 280#0009100000000000
(1498258827.667617) can0 156#0100000000000028
(1498258827.667627) can0 140#0004964600002000
(1498258827.667628) can0 141#1F26CB299B862700
(1498258827.667629) can0 144#C0009F7E5024A000
(1498258827.668548) can0 284#C10B000E00000000
(1498258827.668558) can0 360#AF04515219000100
(1498258827.668559) can0 361#002124D144000000
(1498258827.668561) can0 362#DA9A89AD8F87DE04
(1498258827.668563) can0 371#010000A0FFEA0000
(1498258827.669399) can0 002#0012700385000000
(1498258827.673550) can0 152#E9FC000000000880
(1498258827.673568) can0 0D0#1000000000000000
(1498258827.673570) can0 0D1#00000080
(1498258827.674579) can0 0D2#0000FFFF10000000
(1498258827.674597) can0 0D3#8006C00F000088
(1498258827.674599) can0 0D4#0000000000000000
(1498258827.676448) can0 370#00000000000B0000
(1498258827.677622) can0 282#89E0008181033A00
(1498258827.677640) can0 140#0005964600002000
(1498258827.677642) can0 141#1F26CB299A862700
(1498258827.679478) can0 002#0012700587000000
(1498258827.681457) can0 280#000A100000000000
(1498258827.686558) can0 140#0006974600002000
(1498258827.687551) can0 141#1F26CC299A862700
(1498258827.687569) can0 144#C0009F7E5024A000
(1498258827.687573) can0 156#0100000000000028
(1498258827.687576) can0 3D1#96100000FD000000
(1498258827.688549) can0 371#000000C0FFEA0000
(1498258827.688571) can0 372#0038000000000000
(1498258827.689556) can0 002#0012700789000000
(1498258827.693600) can0 152#E90C000000000880
(1498258827.693620) can0 0D0#1000000000000000
(1498258827.693623) can0 0D1#00000080
(1498258827.694558) can0 0D2#0000FFFF10000000
(1498258827.694577) can0 0D3#0006C00F000089
(1498258827.694579) can0 0D4#0000000000000000
(1498258827.697561) can0 140#0007954600002000
(1498258827.697581) can0 141#1F26CC299A862700
(1498258827.699559) can0 002#001270098B000000
(1498258827.701538) can0 280#000B100000000000
(1498258827.703555) can0 376#AD
(1498258827.706564) can0 140#0008934600002000
(1498258827.707545) can0 141#1F26CC2999862700
(1498258827.707570) can0 144#C0009E7E5024A000
(1498258827.707573) can0 156#0100000000000028
(1498258827.708498) can0 371#000000A0FFEA0000
(1498258827.708518) can0 25C#A200000000000000
(1498258827.709514) can0 002#0012700B8D000000
(1498258827.713574) can0 152#E11C000000000880
(1498258827.713597) can0 0D0#1000000000000000
(1498258827.713600) can0 0D1#00000080
(1498258827.714569) can0 0D2#0000FFFF10000000
(1498258827.714589) can0 0D3#0006C00F00008A
(1498258827.714592) can0 0D4#0000000000000000
(1498258827.716547) can0 140#0009934600002000
(1498258827.717612) can0 141#1F26CC2998862700
(1498258827.717633) can0 360#A904515219000100
(1498258827.717636) can0 361#002124D145000000
(1498258827.717638) can0 362#DA9A89AD8F87DE04
(1498258827.719550) can0 002#0012700D8F000000
(1498258827.721558) can0 280#000C100000000000
(1498258827.724534) can0 370#01000000000C0000
(1498258827.727544) can0 156#0100000000000028
(1498258827.727569) can0 140#000A934600002000
(1498258827.727574) can0 141#1F26CC2998862700
(1498258827.727577) can0 144#C0009E7E5024A000
(1498258827.727677) can0 282#89F0008181033A00
(1498258827.728538) can0 371#0100FF87FFEA0000
(1498258827.729549) can0 002#0012700F91000000
(1498258827.733545) can0 152#E12C000000000880
(1498258827.733570) can0 0D0#1000000000000000
(1498258827.733573) can0 0D1#00000080
(1498258827.734571) can0 0D2#0000FFFF10000000
(1498258827.734599) can0 0D3#8006C00F00008B
(1498258827.734601) can0 0D4#0000000000000000
(1498258827.737561) can0 140#000B934600002000
(1498258827.737586) can0 141#1F26CB2997862700
(1498258827.739485) can0 002#0012700183000000
(1498258827.741538) can0 280#000D100000000000
(1498258827.747567) can0 156#0100000000000028
(1498258827.747590) can0 140#000C8D4600002000
(1498258827.747593) can0 141#1F26CB2996862700
(1498258827.747595) can0 144#C0009D7E5024A000
(1498258827.748527) can0 371#010000A0FFEA0000
(1498258827.749520) can0 002#0012700385000000
(1498258827.753573) can0 152#E93C000000000880
(1498258827.753596) can0 0D0#1000000000000000
(1498258827.753599) can0 0D1#00000080
(1498258827.754552) can0 0D2#0000FFFF10000000
(1498258827.754578) can0 0D3#0006C00F00008C
(1498258827.754580) can0 0D4#0000000000000000
(1498258827.754586) can0 376#AD
(1498258827.754588) can0 660#FFFF0BAD00001D50
(1498258827.756526) can0 140#000D8C4600002000
(1498258827.757534) can0 141#1F26CB2995862700
(1498258827.759492) can0 002#0012700587000000
(1498258827.761555) can0 280#000E100000000000
(1498258827.767565) can0 156#0100000000000028
(1498258827.767589) can0 140#000E8D4600002000
(1498258827.767593) can0 141#1F26CB2994862700
(1498258827.767595) can0 144#C0009D7E5024A000
(1498258827.767617) can0 284#C10C000E00000000
(1498258827.768615) can0 360#A504515219000100
(1498258827.768641) can0 361#002124D146000000
(1498258827.768644) can0 25C#2300000000000000
(1498258827.768646) can0 362#C79A89AD8F87DE04
(1498258827.769553) can0 371#01000080FFEA0000
(1498258827.769577) can0 002#0012700789000000
(1498258827.772525) can0 370#00000000000D0000
(1498258827.773502) can0 152#E14C000000000880
(1498258827.773530) can0 0D0#1000000000000000
(1498258827.773534) can0 0D1#00000080
(1498258827.774552) can0 0D2#0000FFFF10000000
(1498258827.774578) can0 0D3#8006C00F00008D
(1498258827.774581) can0 0D4#0000000000000000
(1498258827.776545) can0 140#000F8D4600002000
(1498258827.777555) can0 141#1F26CB2993862700
(1498258827.777577) can0 282#8900008181033A00
(1498258827.779551) can0 002#001270098B000000
(1498258827.781530) can0 280#000F100000000000
(1498258827.786559) can0 140#00008B4600002000
(1498258827.786582) can0 141#1F26CB2992862700
(1498258827.787615) can0 144#C0009D7E5024A000
(1498258827.787637) can0 156#0100000000000028
(1498258827.787639) can0 3D1#96100000FD000000
(1498258827.788517) can0 371#00000080FFEA0000
(1498258827.788539) can0 372#0040000000000000
(1498258827.789544) can0 002#0012700B8D000000
(1498258827.793577) can0 152#E95C000000000880
(1498258827.793599) can0 0D0#1000000000000000
(1498258827.793601) can0 0D1#00000080
(1498258827.794547) can0 0D2#0000FFFF10000000
(1498258827.794572) can0 0D3#8006C00F00008E
(1498258827.794575) can0 0D4#0000000000000000
(1498258827.797528) can0 140#00018A4600002000
(1498258827.797551) can0 141#2026CB2991862700
(1498258827.799484) can0 002#0012700D8F000000
(1498258827.801537) can0 280#0000100000000000
(1498258827.803508) can0 376#AD
(1498258827.806568) can0 140#00028B4600002000
(1498258827.807502) can0 141#1F26CB2990862700
(1498258827.807527) can0 144#C0009D7E5024A000
(1498258827.807529) can0 156#0100000000000028
(1498258827.808556) can0 371#000000A0FFEA0000
(1498258827.809544) can0 002#0012700F91000000
(1498258827.813563) can0 152#E96C000000000880
(1498258827.813582) can0 0D0#1000000000000000
(1498258827.813584) can0 0D1#00000080
(1498258827.814555) can0 0D2#0000FFFF10000000
(1498258827.814574) can0 0D3#0006C00F00008F
(1498258827.814576) can0 0D4#0000000000000000
(1498258827.817640) can0 140#00038E4600002000
(1498258827.817658) can0 141#1F26CB2990862700
(1498258827.817661) can0 360#A304515319000100
(1498258827.817663) can0 361#002124D147000000
(1498258827.817665) can0 362#C79A89AD8F87DE04
(1498258827.819471) can0 002#0012700183000000
(1498258827.820552) can0 370#00000000000E0000
(1498258827.821553) can0 280#0001100000000000
(1498258827.826592) can0 140#00048E4600002000
(1498258827.827504) can0 141#1F26CC2990862700
(1498258827.827527) can0 144#C0009D7E5024E000
(1498258827.827530) can0 156#0100000000000028
(1498258827.828533) can0 282#8910008181033A00
(1498258827.828548) can0 371#000000C0FFEA0000
(1498258827.828550) can0 25C#A400000000000000
(1498258827.829534) can0 002#0012700385000000
(1498258827.833569) can0 152#E17C000000000880
(1498258827.833590) can0 0D0#1000000000000000
(1498258827.833592) can0 0D1#00000080
(1498258827.834523) can0 0D2#0000FFFF10000000
(1498258827.834536) can0 0D3#8006C00F000090
(1498258827.834539) can0 0D4#0000000000000000
(1498258827.837565) can0 140#00058E4600002000
(1498258827.837584) can0 141#1F26CB2990862700
(1498258827.839550) can0 002#0012700587000000
(1498258827.841555) can0 280#0002100000000000
(1498258827.847626) can0 140#00068B4600002000
(1498258827.847647) can0 141#1F26CB298F862700
(1498258827.847649) can0 144#C0009D7E5024E000
(1498258827.847651) can0 156#0100000000000028
(1498258827.848546) can0 371#00000080FFEA0000
(1498258827.849558) can0 002#0012700789000000
(1498258827.853542) can0 0D0#1000000000000000
(1498258827.853562) can0 0D1#00000080
(1498258827.853564) can0 0D2#0000FFFF10000000
(1498258827.854544) can0 0D3#0006C00F000091
(1498258827.854562) can0 0D4#0000000000000000
(1498258827.854565) can0 152#E18C000000000880
(1498258827.854567) can0 376#AD
(1498258827.856564) can0 140#0007894600002000
(1498258827.857546) can0 141#1F26CB298F862700
(1498258827.859556) can0 002#001270098B000000
(1498258827.861530) can0 280#0003100000000000
(1498258827.863562) can0 374#0808000080000000
(1498258827.866577) can0 140#0008874600002000
(1498258827.866598) can0 141#2026CB298E862700
(1498258827.867572) can0 144#C0009C7E5024E000
(1498258827.867596) can0 156#0100000000000028
(1498258827.867600) can0 360#A804515319000100
(1498258827.867604) can0 361#002124D148000000
(1498258827.867607) can0 284#C10D000E00000000
(1498258827.868554) can0 362#B09A89AD8F87DE04
(1498258827.868575) can0 370#00000000000F0000
(1498258827.868578) can0 371#00000080FFEA0000
(1498258827.869542) can0 002#0012700B8D000000
(1498258827.873585) can0 152#E99C000000000880
(1498258827.873605) can0 0D0#1000000000000000
(1498258827.873607) can0 0D1#00000080
(1498258827.874569) can0 0D2#0000FFFF10000000
(1498258827.874589) can0 0D3#0006C00F000092
(1498258827.874591) can0 0D4#0000000000000000
(1498258827.876570) can0 140#0009864600002000
(1498258827.876591) can0 141#2026CB298D862700
(1498258827.877535) can0 282#8920008181033A00
(1498258827.879561) can0 002#0012700D8F000000
(1498258827.881558) can0 280#0004100000000000
(1498258827.887639) can0 140#000A834600002000
(1498258827.887659) can0 141#2026CB298C862700
(1498258827.887662) can0 144#C0009C7E5024E000
(1498258827.887664) can0 156#0100000000000028
(1498258827.887666) can0 3D1#96100000FD000000
(1498258827.888531) can0 372#0058000000000000
(1498258827.888551) can0 371#000000C0FFEA0000
(1498258827.888554) can0 25C#2500000000000000
(1498258827.889510) can0 002#0012700F91000000
(1498258827.892562) can0 37A#0000000000040000
(1498258827.893552) can0 152#E9AC000000000880
(1498258827.893573) can0 0D0#1000000000000000
(1498258827.893576) can0 0D1#00000080
(1498258827.894587) can0 0D2#0000FFFF10000000
(1498258827.894605) can0 0D3#8006C00F000093
(1498258827.894608) can0 0D4#0000000000000000
(1498258827.896578) can0 140#000B844600002000
(1498258827.896598) can0 141#2026CB298B862700
(1498258827.899554) can0 002#0012700183000000
(1498258827.901556) can0 280#0005100000000000
(1498258827.903549) can0 376#AD
(1498258827.906567) can0 140#000C844600002000
(1498258827.906586) can0 141#2026CB298A862700
(1498258827.907575) can0 144#C0009C7E5024E000
(1498258827.907594) can0 156#0100000000000028
(1498258827.908552) can0 371#000000A0FFEA0000
(1498258827.909488) can0 002#0012700385000000
(1498258827.913585) can0 152#E1BC000000000880
(1498258827.913604) can0 0D0#1000000000000000
(1498258827.913606) can0 0D1#00000080
(1498258827.914542) can0 0D2#0000FFFF10000000
(1498258827.914563) can0 0D3#0006C00F000094
(1498258827.914565) can0 0D4#0000000000000000
(1498258827.916573) can0 370#0000000000000000
(1498258827.916591) can0 140#000D844600002000
(1498258827.917571) can0 141#2026CB298A862700
(1498258827.917591) can0 360#A704515319000100
(1498258827.917593) can0 361#002124D149000000
(1498258827.917595) can0 362#B09A89AD8F87DE04
(1498258827.919563) can0 002#0012700587000000
(1498258827.921551) can0 280#0006100000000000
(1498258827.927570) can0 156#0100000000000028
(1498258827.927589) can0 140#000E834600002000
(1498258827.927591) can0 141#2026CB2989862700
(1498258827.927593) can0 144#C0009C7E5024A000
(1498258827.928564) can0 282#8930008181033A00
(1498258827.928583) can0 371#000000A0FFEA0000
(1498258827.929553) can0 002#0012700789000000
(1498258827.933562) can0 152#E9CC000000000880
(1498258827.933581) can0 0D0#1000000000000000
(1498258827.933583) can0 0D1#00000080
(1498258827.934550) can0 0D2#0000FFFF10000000
(1498258827.934572) can0 0D3#8006C00F000095
(1498258827.934575) can0 0D4#0000000000000000
(1498258827.936518) can0 140#000F824600002000
(1498258827.936537) can0 141#2026CB2988862700
(1498258827.939561) can0 002#001270098B000000
(1498258827.941533) can0 280#0007100000000000
(1498258827.946553) can0 140#0000814600002000
(1498258827.947530) can0 141#2026CB2987862700
(1498258827.947544) can0 144#C0009B7E5024A000
(1498258827.947547) can0 156#0100000000000028
(1498258827.948563) can0 371#000000A0FFEA0000
(1498258827.948582) can0 25C#2600000000000000
(1498258827.949555) can0 002#0012700B8D000000
(1498258827.953573) can0 152#E1DC000000000880
(1498258827.953592) can0 0D0#1000000000000000
(1498258827.953594) can0 0D1#00000080
(1498258827.954617) can0 0D2#0000FFFF10000000
(1498258827.954636) can0 0D3#8006C00F000096
(1498258827.954640) can0 0D4#0000000000000000
(1498258827.954641) can0 376#AD
(1498258827.956576) can0 140#00017F4600002000
(1498258827.956595) can0 141#2126CB2986862700
(1498258827.959528) can0 002#0012700D8F000000
(1498258827.961551) can0 280#0008100000000000
(1498258827.964557) can0 370#0000000000010000
(1498258827.966572) can0 140#00027F4600002000
(1498258827.966590) can0 141#2126CB2985862700
(1498258827.967553) can0 144#C0009C7E5024A000
(1498258827.967575) can0 156#0100000000000028
(1498258827.967580) can0 360#A704515319000100
(1498258827.967582) can0 361#002124D14A000000
(1498258827.968563) can0 284#C10E000E00000000
(1498258827.968583) can0 362#959A89AD8F87DE04
(1498258827.968586) can0 371#000000A0FFEA0000
(1498258827.969550) can0 002#0012700F91000000
(1498258827.971560) can0 6C8#E000000000000000
(1498258827.973558) can0 152#E1EC000000000880
(1498258827.973576) can0 0D0#1000000000000000
(1498258827.973579) can0 0D1#00000080
(1498258827.974544) can0 0D2#0000FFFF10000000
(1498258827.974565) can0 0D3#0006C00F000097
(1498258827.974568) can0 0D4#0000000000000000
(1498258827.976567) can0 140#0003804600002100
(1498258827.976585) can0 141#2026CB2985862700
(1498258827.977554) can0 282#8940008181033A00
(1498258827.979557) can0 002#0012700183000000
(1498258827.981555) can0 280#0009100000000000
(1498258827.986616) can0 140#00047F4600002100
(1498258827.986635) can0 141#2026CB2984862700
(1498258827.986637) can0 144#C0009B7E5024A000
(1498258827.987564) can0 156#0100000000000028
(1498258827.987583) can0 3D1#96100000FD000000
(1498258827.988506) can0 371#000000A0FFEA0000
(1498258827.988519) can0 372#0068000000000000
(1498258827.989533) can0 002#0012700385000000
(1498258827.993582) can0 152#E9FC000000000880
(1498258827.993601) can0 0D0#1000000000000000
(1498258827.993603) can0 0D1#00000080
(1498258827.994575) can0 0D2#0000FFFF10000000
(1498258827.994595) can0 0D3#0006C00F000098
(1498258827.994597) can0 0D4#0000000000000000
(1498258827.996562) can0 140#00057F4600002100
(1498258827.997478) can0 141#2026CB2984862700
(1498258827.999469) can0 002#0012700587000000
(1498258828.001554) can0 280#000A100000000000
(1498258828.003551) can0 376#AD
(1498258828.006553) can0 140#00067F4600002100
(1498258828.007630) can0 141#2026CB2983862700
(1498258828.007653) can0 144#C0009B7E5024A000
(1498258828.007656) can0 156#0100000000000028
(1498258828.007706) can0 371#000000A0FFEA0000
(1498258828.008550) can0 25C#A700000000000000
(1498258828.009519) can0 002#0012700789000000
(1498258828.012561) can0 370#0100000000020000
(1498258828.013573) can0 0D0#1000000000000000
(1498258828.013592) can0 0D1#00000080
(1498258828.013595) can0 0D2#0000FFFF10000000
(1498258828.014573) can0 0D3#8006C00F000099
(1498258828.014593) can0 0D4#0000000000000000
(1498258828.014596) can0 152#E90C000000000880
(1498258828.016567) can0 140#0007824600002100
(1498258828.017505) can0 141#2026CB2983862700
(1498258828.017521) can0 360#AF04515319000100
(1498258828.017524) can0 361#002124D14B000000
(1498258828.017526) can0 362#959A89AD8F87DE04
(1498258828.019563) can0 002#001270098B000000
(1498258828.021532) can0 280#000B100000000000
(1498258828.026565) can0 140#0008814600002100
(1498258828.026585) can0 141#2126CC2983862700
(1498258828.026588) can0 144#C0009C7E5024E000
(1498258828.027569) can0 156#0100000000000028
(1498258828.027589) can0 282#8950008181033A00
(1498258828.028528) can0 371#010000A0FFEA0000
(1498258828.029553) can0 002#0012700B8D000000
(1498258828.033548) can0 152#E11C000000000880
(1498258828.033569) can0 0D0#1000000000000000
(1498258828.033572) can0 0D1#00000080
(1498258828.034580) can0 0D2#0000FFFF10000000
(1498258828.034599) can0 0D3#8006C00F00009A
(1498258828.034601) can0 0D4#0000000000000000
(1498258828.036557) can0 140#0009804600002100
(1498258828.036576) can0 141#2126CC2983862700
(1498258828.039557) can0 002#0012700D8F000000
(1498258828.041499) can0 280#000C100000000000
(1498258828.046568) can0 140#000A7F4600002100
(1498258828.047552) can0 141#2126CC2982862700
(1498258828.047569) can0 144#C0009C7E5024E000
(1498258828.047572) can0 156#0100000000000028
(1498258828.048544) can0 371#010000A0FFEA0000
(1498258828.049529) can0 002#0012700F91000000
(1498258828.053543) can0 152#E12C000000000880
(1498258828.053562) can0 0D0#1000000000000000
(1498258828.053564) can0 0D1#00000080
(1498258828.054611) can0 0D2#0000FFFF10000000
(1498258828.054634) can0 0D3#0006C00F00009B
(1498258828.054637) can0 0D4#0000000000000000
(1498258828.054641) can0 376#AD
(1498258828.056576) can0 140#000B7F4600002100
(1498258828.056595) can0 141#2126CC2982862700
(1498258828.059478) can0 002#0012700183000000
(1498258828.060555) can0 370#0100000000030000
(1498258828.061552) can0 280#000D100000000000
(1498258828.062551) can0 378#C100000000000000
(1498258828.066575) can0 140#000C804600002100
(1498258828.066594) can0 141#2126E52982862700
(1498258828.066597) can0 144#C0009C7E5024E000
(1498258828.067620) can0 360#B004515319000100
(1498258828.067639) can0 156#0100000000000028
(1498258828.067641) can0 361#002124D14C000000
(1498258828.067643) can0 362#7B9A89AD8F87DE04
(1498258828.068537) can0 284#C10F000E00000000
(1498258828.068559) can0 371#010000A0FFEA0000
(1498258828.068561) can0 25C#2000000000000000
(1498258828.069533) can0 002#0012700385000000
(1498258828.073582) can0 152#E93C000000000880
(1498258828.073602) can0 0D0#1000000000000000
(1498258828.073605) can0 0D1#00000080
(1498258828.074540) can0 0D2#0000FFFF10000000
(1498258828.074560) can0 0D3#8006C00F00009C
(1498258828.074562) can0 0D4#0000000000000000
(1498258828.076567) can0 140#000D814600002100
(1498258828.076584) can0 141#2126E52981862700
(1498258828.077554) can0 282#8960008181033A00
(1498258828.079545) can0 002#0012700587000000
(1498258828.081552) can0 280#000E100000000000
(1498258828.086557) can0 140#000E824600002100
(1498258828.087584) can0 141#2126E52982862700
(1498258828.087602) can0 144#C0009D7E5024E000
(1498258828.087604) can0 156#0100000000000028
(1498258828.087607) can0 3D1#96100000FD000000
(1498258828.088569) can0 371#010000A0FFEA0000
(1498258828.088590) can0 372#0070000000000000
(1498258828.089555) can0 002#0012700789000000
(1498258828.093575) can0 152#E14C000000000880
(1498258828.093595) can0 0D0#1000000000000000
(1498258828.093598) can0 0D1#00000080
(1498258828.094574) can0 0D2#0000FFFF10000000
(1498258828.094595) can0 0D3#0006C00F00009D
(1498258828.094597) can0 0D4#0000000000000000
(1498258828.096571) can0 140#000F824600002100
(1498258828.096591) can0 141#2126E52982862700
(1498258828.099543) can0 002#001270098B000000
(1498258828.101532) can0 280#000F100000000000
(1498258828.103548) can0 376#AD
(1498258828.106569) can0 140#0000864600002100
(1498258828.106588) can0 141#2026CB2982862700
(1498258828.107569) can0 144#C0009C7E5024A000
(1498258828.107588) can0 156#0100000000000028
(1498258828.108566) can0 370#0000000000040000
(1498258828.108585) can0 371#000000A0FFEA0000
(1498258828.109506) can0 002#0012700B8D000000
(1498258828.113517) can0 0D0#1000000000000000
(1498258828.113543) can0 0D1#00000080
(1498258828.113550) can0 0D2#0000FFFF10000000
(1498258828.114570) can0 0D3#0006C00F00009E
(1498258828.114589) can0 0D4#0000000000000000
(1498258828.114592) can0 152#E95C000000000880
(1498258828.116583) can0 140#00018A4600002100
(1498258828.116602) can0 141#2026CC2983862700
(1498258828.116604) can0 360#B704515319000100
(1498258828.117533) can0 361#002124D14D000000
(1498258828.117553) can0 362#7B9A89AD8F87DE04
(1498258828.119555) can0 002#0012700D8F000000
(1498258828.121553) can0 280#0000100000000000
(1498258828.126575) can0 140#0002884600002000
(1498258828.126593) can0 141#2126E52984862700
(1498258828.127627) can0 144#C0009D7E5024A000
(1498258828.127647) can0 156#0100000000000028
(1498258828.127649) can0 282#8970008181033A00
(1498258828.128556) can0 371#000000A0FFEA0000
(1498258828.128576) can0 25C#A100000000000000
(1498258828.129539) can0 002#0012700F91000000
(1498258828.133497) can0 0D0#1000000000000000
(1498258828.133517) can0 0D1#00000080
(1498258828.133520) can0 0D2#0000FFFF10000000
(1498258828.134498) can0 0D3#8006C00F00009F
(1498258828.134516) can0 0D4#0000000000000000
(1498258828.135460) can0 152#E96C000000000880
(1498258828.136478) can0 140#0003854600002000
(1498258828.136489) can0 141#2126E52984862700
(1498258828.139494) can0 002#0012700183000000
(1498258828.141501) can0 280#0001100000000000
(1498258828.146565) can0 140#0004844600002000
(1498258828.146584) can0 141#2126E52984862700
(1498258828.146587) can0 144#C0009D7E5024E000
(1498258828.147465) can0 156#0100000000000028
(1498258828.148510) can0 371#00000080FFEA0000
(1498258828.149535) can0 002#0012700385000000
(1498258828.153569) can0 0D0#1000000000000000
(1498258828.153590) can0 0D1#00000080
(1498258828.153593) can0 0D2#0000FFFF10000000
(1498258828.154517) can0 0D3#8006C00F0000A0
(1498258828.154538) can0 0D4#0000000000000000
(1498258828.154542) can0 152#E17C000000000880
(1498258828.154545) can0 376#AD
(1498258828.156454) can0 370#0100000000050000
(1498258828.156469) can0 140#0005874600002000
(1498258828.156472) can0 141#2126E52985862700
(1498258828.159517) can0 002#0012700587000000
(1498258828.161548) can0 280#0002100000000000
(1498258828.166566) can0 140#0006894600002000
(1498258828.166587) can0 141#2126E52985862700
(1498258828.166591) can0 144#C0009E7E5024E000
(1498258828.167525) can0 360#B604515319000100
(1498258828.167546) can0 361#002124D14E000000
(1498258828.167550) can0 156#0100000000000028
(1498258828.167553) can0 362#829A89AD8F87DE04
(1498258828.168545) can0 284#C100000E00000000
(1498258828.168570) can0 371#010000A0FFEA0000
(1498258828.169549) can0 002#0012700789000000
(1498258828.173570) can0 152#E18C000000000880
(1498258828.173593) can0 0D0#1000000000000000
(1498258828.173597) can0 0D1#00000080
(1498258828.174523) can0 0D2#0000FFFF10000000
(1498258828.174549) can0 0D3#0006C00F0000A1
(1498258828.174551) can0 0D4#0000000000000000
(1498258828.176561) can0 140#00078E4600002100
(1498258828.176583) can0 141#2026CC2986862700
(1498258828.177542) can0 282#8980008181033A00
(1498258828.179503) can0 002#001270098B000000
(1498258828.181514) can0 280#0003100000000000
(1498258828.186565) can0 140#00088E4600002100
(1498258828.186587) can0 141#2026E52987862700
(1498258828.187494) can0 144#C0009D7E5024E000
(1498258828.187516) can0 156#0100000000000028
(1498258828.188533) can0 3D1#96100000FD000000
(1498258828.188558) can0 371#010000A0FFEA0000
(1498258828.188560) can0 372#0080000000000000
(1498258828.188566) can0 25C#A200000000000000
(1498258828.189540) can0 002#0012700B8D000000
(1498258828.193566) can0 152#E99C000000000880
(1498258828.193590) can0 0D0#1000000000000000
(1498258828.193592) can0 0D1#00000080
(1498258828.194572) can0 0D2#0000FFFF10000000
(1498258828.194594) can0 0D3#0006C00F0000A2
(1498258828.194596) can0 0D4#0000000000000000
(1498258828.196564) can0 140#0009904600002100
(1498258828.196585) can0 141#2026E52988862700
(1498258828.197513) can0 6D1#7835020000000000
(1498258828.199551) can0 002#0012700D8F000000
(1498258828.201545) can0 280#0004100000000000
(1498258828.203541) can0 376#AD
(1498258828.204534) can0 370#0000000000060000
(1498258828.206559) can0 140#000A8E4600002100
(1498258828.206582) can0 141#2026E52989862700
(1498258828.206585) can0 144#C0009D7E5024E000
(1498258828.207550) can0 156#0100000000000028
(1498258828.207596) can0 371#000000A0FFEA0000
(1498258828.209555) can0 002#0012700F91000000
(1498258828.213551) can0 152#E9AC000000000880
(1498258828.213570) can0 0D0#1000000000000000
(1498258828.213572) can0 0D1#00000080
(1498258828.214586) can0 0D2#0000FFFF10000000
(1498258828.214606) can0 0D3#8006C00F0000A3
(1498258828.214608) can0 0D4#0000000000000000
(1498258828.216574) can0 140#000B8D4600002100
(1498258828.216597) can0 141#2026E5298A862700
(1498258828.216600) can0 360#BE04515319000100
(1498258828.217556) can0 361#002124D14F000000
(1498258828.217575) can0 362#829A89AD8F87DE04
(1498258828.219548) can0 002#0012700183000000
(1498258828.221555) can0 280#0005100000000000
(1498258828.226557) can0 140#000C8B4600002100
(1498258828.226577) can0 141#2126E5298A862700
(1498258828.226580) can0 144#C0009E7E5024E000
(1498258828.227574) can0 156#0100000000000028
(1498258828.227594) can0 282#8990008181033A00
(1498258828.228474) can0 371#000000A0FFEA0000
(1498258828.229531) can0 002#0012700385000000
(1498258828.233583) can0 152#E1BC000000000880
(1498258828.233603) can0 0D0#1000000000000000
(1498258828.233605) can0 0D1#00000080
(1498258828.234573) can0 0D2#0000FFFF10000000
(1498258828.234591) can0 0D3#0006C00F0000A4
(1498258828.234594) can0 0D4#0000000000000000
(1498258828.237559) can0 140#000D8A4600002100
(1498258828.237579) can0 141#2126E5298A862700
(1498258828.239483) can0 002#0012700587000000
(1498258828.241551) can0 280#0006100000000000
(1498258828.246501) can0 140#000E884600002100
(1498258828.246522) can0 141#2126E5298A862700
(1498258828.247542) can0 144#C0009D7E5024E000
(1498258828.247561) can0 156#0100000000000028
(1498258828.248565) can0 371#000000A0FFEA0000
(1498258828.248584) can0 25C#2300000000000000
(1498258828.249529) can0 002#0012700789000000
(1498258828.252561) can0 370#0000000000070000
(1498258828.253579) can0 0D0#1000000000000000
(1498258828.253599) can0 0D1#00000080
(1498258828.253601) can0 0D2#0000FFFF10000000
(1498258828.254576) can0 0D3#8006C00F0000A5
(1498258828.254597) can0 0D4#0000000000000000
(1498258828.254600) can0 152#E9CC000000000880
(1498258828.254601) can0 376#AD
(1498258828.254603) can0 660#FFFF0BAD00001D55
(1498258828.256574) can0 140#000F874600002100
(1498258828.256593) can0 141#2126E5298A862700
(1498258828.259555) can0 002#001270098B000000
(1498258828.261532) can0 280#0007100000000000
(1498258828.266555) can0 140#0000864600002100
(1498258828.266574) can0 141#2026E52989862700
(1498258828.266577) can0 144#C0009C7E5024A000
(1498258828.267632) can0 360#B804515319000100
(1498258828.267652) can0 361#002124D140000000
(1498258828.267655) can0 156#0100000000000028
(1498258828.267657) can0 362#9E9A89AD8F87DE04
