(1498257961.769584) can0 156#0000000000000028
(1498257961.770575) can0 282#FE1300FEFE003A00
(1498257961.778598) can0 152#A11C000000000080
(1498257961.787579) can0 376#AD
(1498257961.789604) can0 156#0000000000000028
(1498257961.797656) can0 284#810A000E00000000
(1498257961.798654) can0 152#A12C000000000080
(1498257961.809609) can0 156#0000000000000028
(1498257961.818708) can0 152#A93C000000000080
(1498257961.819599) can0 282#FE2300FEFE003A00
(1498257961.830709) can0 156#0000000000000028
(1498257961.830734) can0 3D1#FF1F0000FD000000
(1498257961.838697) can0 152#A14C000000000080
(1498257961.838736) can0 376#AD
(1498257961.849706) can0 156#0000000000000028
(1498257961.858723) can0 152#A95C000000000080
(1498257961.869732) can0 156#0000000000000028
(1498257961.870718) can0 282#FE3300FEFE003A00
(1498257961.878729) can0 152#A96C000000000080
(1498257961.878771) can0 374#0800000000000000
(1498257961.887653) can0 376#AD
(1498257961.889718) can0 156#0000000000000028
(1498257961.897717) can0 284#810B000E00000000
(1498257961.898713) can0 152#A17C000000000080
(1498257961.898748) can0 375#0300000120000000
(1498257961.909725) can0 156#0000000000000028
(1498257961.918728) can0 152#A18C000000000080
(1498257961.919730) can0 282#FE4300FEFE003A00
(1498257961.930732) can0 156#0000000000000028
(1498257961.930759) can0 3D1#FF1F0000FD000000
(1498257961.938731) can0 152#A99C000000000080
(1498257961.938764) can0 376#AD
(1498257961.949729) can0 156#0000000000000028
(1498257961.958732) can0 152#A9AC000000000080
(1498257961.969724) can0 156#0000000000000028
(1498257961.970633) can0 282#FE5300FEFE003A00
(1498257961.978692) can0 152#A1BC000000000080
(1498257961.987630) can0 376#AD
(1498257961.989697) can0 156#0000000000000028
(1498257961.997732) can0 284#810C000E00000000
(1498257961.998665) can0 152#A9CC000000000080
(1498257962.009720) can0 156#0000000000000028
(1498257962.018688) can0 152#A1DC000000000080
(1498257962.020707) can0 282#FE6300FEFE003A00
(1498257962.030734) can0 156#0000000000000028
(1498257962.030758) can0 3D1#FF1F0000FD000000
(1498257962.038708) can0 152#A1EC000000000080
(1498257962.038752) can0 376#AD
(1498257962.050690) can0 156#0000000000000028
(1498257962.058644) can0 152#A9FC000000000080
(1498257962.070704) can0 156#0000000000000028
(1498257962.070740) can0 282#FE7300FEFE003A00
(1498257962.078723) can0 152#A90C000000000080
(1498257962.087686) can0 376#AD
(1498257962.089690) can0 156#0000000000000028
(1498257962.097693) can0 284#810D000E00000000
(1498257962.098688) can0 152#A11C000000000080
(1498257962.109660) can0 156#0000000000000028
(1498257962.118657) can0 152#A12C000000000080
(1498257962.120678) can0 282#FE8300FEFE003A00
(1498257962.130697) can0 156#0000000000000028
(1498257962.130720) can0 3D1#FF1F0000FD000000
(1498257962.138625) can0 152#A93C000000000080
(1498257962.138652) can0 376#AD
(1498257962.150672) can0 156#0000000000000028
(1498257962.158691) can0 152#A14C000000000080
(1498257962.170593) can0 156#0000000000000028
(1498257962.170616) can0 282#FE9300FEFE003A00
(1498257962.178688) can0 152#A95C000000000080
(1498257962.187551) can0 376#AD
(1498257962.190674) can0 156#0000000000000028
(1498257962.197685) can0 284#810E000E00000000
(1498257962.198659) can0 152#A96C000000000080
(1498257962.210678) can0 156#0000000000000028
(1498257962.218693) can0 152#A17C000000000080
(1498257962.220684) can0 282#FEA300FEFE003A00
(1498257962.230711) can0 156#0000000000000028
(1498257962.230732) can0 3D1#FF1F0000FD000000
(1498257962.238712) can0 152#A18C000000000080
(1498257962.238742) can0 376#AD
(1498257962.238746) can0 660#FFFF0BAA00001043
(1498257962.250698) can0 156#0000000000000028
(1498257962.258617) can0 152#A99C000000000080
(1498257962.270697) can0 156#0000000000000028
(1498257962.270720) can0 282#FEB300FEFE003A00
(1498257962.278686) can0 152#A9AC000000000080
(1498257962.287588) can0 376#AD
(1498257962.290676) can0 156#0000000000000028
(1498257962.297692) can0 284#810F000E00000000
(1498257962.298691) can0 152#A1BC000000000080
(1498257962.310689) can0 156#0000000000000028
(1498257962.318632) can0 152#A9CC000000000080
(1498257962.320695) can0 282#FEC300FEFE003A00
(1498257962.330688) can0 156#0000000000000028
(1498257962.330710) can0 3D1#FF1F0000FD000000
(1498257962.338705) can0 152#A1DC000000000080
(1498257962.338734) can0 376#AD
(1498257962.350694) can0 156#0000000000000028
(1498257962.358681) can0 152#A1EC000000000080
(1498257962.370693) can0 156#0000000000000028
(1498257962.370716) can0 282#FED300FEFE003A00
(1498257962.378690) can0 152#A9FC000000000080
(1498257962.387685) can0 376#AD
(1498257962.390679) can0 156#0000000000000028
(1498257962.397698) can0 284#8100000E00000000
(1498257962.398598) can0 152#A90C000000000080
(1498257962.410590) can0 156#0000000000000028
(1498257962.418573) can0 152#A11C000000000080
(1498257962.420697) can0 282#FEE300FEFE003A00
(1498257962.430648) can0 156#0000000000000028
(1498257962.430662) can0 3D1#FF1F0000FD000000
(1498257962.438641) can0 152#A12C000000000080
(1498257962.438670) can0 376#AD
(1498257962.450687) can0 156#0000000000000028
(1498257962.458707) can0 152#A93C000000000080
(1498257962.470696) can0 156#0000000000000028
(1498257962.470718) can0 282#FEF300FEFE003A00
(1498257962.478690) can0 152#A14C000000000080
(1498257962.487616) can0 376#AD
(1498257962.490678) can0 156#0000000000000028
(1498257962.497692) can0 284#8101000E00000000
(1498257962.498689) can0 152#A95C000000000080
(1498257962.510703) can0 156#0000000000000028
(1498257962.510724) can0 37A#0000000000100000
(1498257962.518696) can0 152#A96C000000000080
(1498257962.520678) can0 282#FE0300FEFE003A00
(1498257962.530637) can0 156#0000000000000028
(1498257962.530658) can0 3D1#FF1F0000FD000000
(1498257962.538690) can0 152#A17C000000000080
(1498257962.538718) can0 376#AD
(1498257962.540697) can0 6D1#7835020000000000
(1498257962.550690) can0 156#0000000000000028
(1498257962.558697) can0 152#A18C000000000080
(1498257962.570707) can0 156#0000000000000028
(1498257962.570728) can0 282#FE1300FEFE003A00
(1498257962.578696) can0 152#A99C000000000080
(1498257962.587666) can0 376#AD
(1498257962.590686) can0 156#0000000000000028
(1498257962.597683) can0 284#8102000E00000000
(1498257962.598685) can0 152#A9AC000000000080
(1498257962.610693) can0 156#0000000000000028
(1498257962.618692) can0 152#A1BC000000000080
(1498257962.620694) can0 282#FE2300FEFE003A00
(1498257962.630688) can0 156#0000000000000028
(1498257962.630711) can0 3D1#FF1F0000FD000000
(1498257962.638697) can0 152#A9CC000000000080
(1498257962.638727) can0 376#AD
(1498257962.650687) can0 156#0000000000000028
(1498257962.658682) can0 152#A1DC000000000080
(1498257962.670710) can0 156#0000000000000028
(1498257962.670732) can0 282#FE3300FEFE003A00
(1498257962.678691) can0 152#A1EC000000000080
(1498257962.687681) can0 376#AD
(1498257962.690686) can0 156#0000000000000028
(1498257962.697694) can0 284#8103000E00000000
(1498257962.698683) can0 152#A9FC000000000080
(1498257962.710623) can0 156#0000000000000028
(1498257962.718678) can0 152#A90C000000000080
(1498257962.720694) can0 282#FE4300FEFE003A00
(1498257962.730704) can0 156#0000000000000028
(1498257962.730725) can0 3D1#FF1F0000FD000000
(1498257962.738706) can0 152#A11C000000000080
(1498257962.738736) can0 376#AD
(1498257962.738739) can0 660#FFFF0BAA00001048
(1498257962.750688) can0 156#0000000000000028
(1498257962.754693) can0 378#A100000000000000
(1498257962.758694) can0 152#A12C000000000080
(1498257962.770706) can0 156#0000000000000028
(1498257962.770728) can0 282#FE5300FEFE003A00
(1498257962.778687) can0 152#A93C000000000080
(1498257962.787681) can0 376#AD
(1498257962.790686) can0 156#0000000000000028
(1498257962.797695) can0 284#8104000E00000000
(1498257962.798634) can0 152#A14C000000000080
(1498257962.810686) can0 156#0000000000000028
(1498257962.818693) can0 152#A95C000000000080
(1498257962.820657) can0 282#FE6300FEFE003A00
(1498257962.830699) can0 156#0000000000000028
(1498257962.830720) can0 3D1#FF1F0000FD000000
(1498257962.838665) can0 152#A96C000000000080
(1498257962.838694) can0 376#AD
(1498257962.850661) can0 156#0000000000000028
(1498257962.858679) can0 152#A17C000000000080
(1498257962.870710) can0 156#0000000000000028
(1498257962.870732) can0 282#FE7300FEFE003A00
(1498257962.878702) can0 152#A18C000000000080
(1498257962.878730) can0 374#0800000000000000
(1498257962.887675) can0 376#AD
(1498257962.890686) can0 156#0000000000000028
(1498257962.898706) can0 284#8105000E00000000
(1498257962.898738) can0 152#A99C000000000080
(1498257962.898744) can0 375#0300000120000000
(1498257962.910622) can0 156#0000000000000028
(1498257962.918693) can0 152#A9AC000000000080
(1498257962.920689) can0 282#FE8300FEFE003A00
(1498257962.930704) can0 156#0000000000000028
(1498257962.930726) can0 3D1#FF1F0000FD000000
(1498257962.938694) can0 152#A1BC000000000080
(1498257962.938725) can0 376#AD
(1498257962.950690) can0 156#0000000000000028
(1498257962.958693) can0 152#A9CC000000000080
(1498257962.970676) can0 156#0000000000000028
(1498257962.970697) can0 282#FE9300FEFE003A00
(1498257962.978690) can0 152#A1DC000000000080
(1498257962.988642) can0 376#AD
(1498257962.990688) can0 156#0000000000000028
(1498257962.998694) can0 284#8106000E00000000
(1498257962.998723) can0 152#A1EC000000000080
(1498257963.010637) can0 156#0000000000000028
(1498257963.018701) can0 152#A9FC000000000080
(1498257963.020683) can0 282#FEA300FEFE003A00
(1498257963.030666) can0 156#0000000000000028
(1498257963.031606) can0 3D1#FF1F0000FD000000
(1498257963.038695) can0 152#A90C000000000080
(1498257963.038726) can0 376#AD
(1498257963.050701) can0 156#0000000000000028
(1498257963.058693) can0 152#A11C000000000080
(1498257963.070652) can0 156#0000000000000028
(1498257963.070677) can0 282#FEB300FEFE003A00
(1498257963.078698) can0 152#A12C000000000080
(1498257963.087681) can0 376#AD
(1498257963.090697) can0 156#0000000000000028
(1498257963.098716) can0 284#8107000E00000000
(1498257963.098749) can0 152#A93C000000000080
(1498257963.110694) can0 156#0000000000000028
(1498257963.118699) can0 152#A14C000000000080
(1498257963.120691) can0 282#FEC300FEFE003A00
(1498257963.130702) can0 156#0000000000000028
(1498257963.131678) can0 3D1#FF1F0000FD000000
(1498257963.138616) can0 152#A95C000000000080
(1498257963.138651) can0 376#AD
(1498257963.150694) can0 156#0000000000000028
(1498257963.158696) can0 152#A96C000000000080
(1498257963.170627) can0 156#0000000000000028
(1498257963.170650) can0 282#FED300FEFE003A00
(1498257963.178697) can0 152#A17C000000000080
(1498257963.187683) can0 376#AD
(1498257963.190692) can0 156#0000000000000028
(1498257963.198711) can0 152#A18C000000000080
(1498257963.198744) can0 284#8108000E00000000
(1498257963.210689) can0 156#0000000000000028
(1498257963.218696) can0 152#A99C000000000080
(1498257963.220701) can0 282#FEE300FEFE003A00
(1498257963.230665) can0 156#0000000000000028
(1498257963.231641) can0 3D1#FF1F0000FD000000
(1498257963.238680) can0 152#A9AC000000000080
(1498257963.238711) can0 376#AD
(1498257963.238715) can0 660#FFFF0BAA0000104D
(1498257963.250694) can0 156#0000000000000028
(1498257963.258696) can0 152#A1BC000000000080
(1498257963.270713) can0 156#0000000000000028
(1498257963.270737) can0 282#FEF300FEFE003A00
(1498257963.278682) can0 152#A9CC000000000080
(1498257963.288690) can0 376#AD
(1498257963.290693) can0 156#0000000000000028
(1498257963.298715) can0 152#A1DC000000000080
(1498257963.298748) can0 284#8109000E00000000
(1498257963.310698) can0 156#0000000000000028
(1498257963.318625) can0 152#A1EC000000000080
(1498257963.320607) can0 282#FE0300FEFE003A00
(1498257963.331703) can0 156#0000000000000028
(1498257963.331728) can0 3D1#FF1F0000FD000000
(1498257963.338699) can0 152#A9FC000000000080
(1498257963.338735) can0 376#AD
(1498257963.350702) can0 156#0000000000000028
(1498257963.358679) can0 152#A90C000000000080
(1498257963.370708) can0 156#0000000000000028
(1498257963.370731) can0 282#FE1300FEFE003A00
(1498257963.378701) can0 152#A11C000000000080
(1498257963.387653) can0 376#AD
(1498257963.390667) can0 156#0000000000000028
(1498257963.398689) can0 152#A12C000000000080
(1498257963.398721) can0 284#810A000E00000000
(1498257963.410688) can0 156#0000000000000028
(1498257963.418693) can0 152#A93C000000000080
(1498257963.420697) can0 282#FE2300FEFE003A00
(1498257963.431638) can0 156#0000000000000028
(1498257963.431660) can0 3D1#FF1F0000FD000000
(1498257963.438694) can0 152#A14C000000000080
(1498257963.438725) can0 376#AD
(1498257963.450618) can0 156#0000000000000028
(1498257963.458682) can0 152#A95C000000000080
(1498257963.470701) can0 156#0000000000000028
(1498257963.471671) can0 282#FE3300FEFE003A00
(1498257963.478689) can0 152#A96C000000000080
(1498257963.488682) can0 376#AD
(1498257963.490683) can0 156#0000000000000028
(1498257963.498701) can0 152#A17C000000000080
(1498257963.498730) can0 284#810B000E00000000
(1498257963.510690) can0 156#0000000000000028
(1498257963.511672) can0 37A#0000000000100000
(1498257963.518688) can0 152#A18C000000000080
(1498257963.520684) can0 282#FE4300FEFE003A00
(1498257963.531686) can0 156#0000000000000028
(1498257963.531707) can0 3D1#FF1F0000FD000000
(1498257963.538693) can0 152#A99C000000000080
(1498257963.538724) can0 376#AD
(1498257963.550687) can0 156#0000000000000028
(1498257963.558684) can0 152#A9AC000000000080
(1498257963.570690) can0 156#0000000000000028
(1498257963.571619) can0 282#FE5300FEFE003A00
(1498257963.578685) can0 152#A1BC000000000080
(1498257963.588673) can0 376#AD
(1498257963.590671) can0 156#0000000000000028
(1498257963.598704) can0 152#A9CC000000000080
(1498257963.598734) can0 284#810C000E00000000
(1498257963.610682) can0 156#0000000000000028
(1498257963.618688) can0 152#A1DC000000000080
(1498257963.620682) can0 282#FE6300FEFE003A00
(1498257963.631606) can0 156#0000000000000028
(1498257963.631633) can0 3D1#FF1F0000FD000000
(1498257963.638690) can0 152#A1EC000000000080
(1498257963.638727) can0 376#AD
(1498257963.650684) can0 156#0000000000000028
(1498257963.658684) can0 152#A9FC000000000080
(1498257963.670677) can0 156#0000000000000028
(1498257963.671680) can0 282#FE7300FEFE003A00
(1498257963.678683) can0 152#A90C000000000080
(1498257963.688670) can0 376#AD
(1498257963.690676) can0 156#0000000000000028
(1498257963.698700) can0 152#A11C000000000080
(1498257963.698732) can0 284#810D000E00000000
(1498257963.710671) can0 156#0000000000000028
(1498257963.718681) can0 152#A12C000000000080
(1498257963.720686) can0 282#FE8300FEFE003A00
(1498257963.731703) can0 156#0000000000000028
(1498257963.731727) can0 3D1#FF1F0000FD000000
(1498257963.738687) can0 152#A93C000000000080
(1498257963.738721) can0 376#AD
(1498257963.738729) can0 660#FFFF0BAA00001052
(1498257963.741686) can0 6D1#7835020000000000
(1498257963.750685) can0 156#0000000000000028
(1498257963.754685) can0 378#B100000000000000
(1498257963.758686) can0 152#A14C000000000080
(1498257963.770684) can0 156#0000000000000028
(1498257963.771659) can0 282#FE9300FEFE003A00
(1498257963.778687) can0 152#A95C000000000080
(1498257963.788676) can0 376#AD
(1498257963.790679) can0 156#0000000000000028
(1498257963.798627) can0 152#A96C000000000080
(1498257963.798669) can0 284#810E000E00000000
(1498257963.810595) can0 156#0000000000000028
(1498257963.818576) can0 152#A17C000000000080
(1498257963.821553) can0 282#FEA300FEFE003A00
(1498257963.831592) can0 156#0000000000000028
(1498257963.831602) can0 3D1#FF1F0000FD000000
(1498257963.838551) can0 152#A18C000000000080
(1498257963.838577) can0 376#AD
(1498257963.851539) can0 156#0000000000000028
(1498257963.858675) can0 152#A99C000000000080
(1498257963.871685) can0 156#0000000000000028
(1498257963.871705) can0 282#FEB300FEFE003A00
(1498257963.878698) can0 152#A9AC000000000080
(1498257963.878723) can0 374#0800000000000000
(1498257963.888688) can0 376#AD
(1498257963.891677) can0 156#0000000000000028
(1498257963.898716) can0 152#A1BC000000000080
(1498257963.898743) can0 374#0800000180000000
(1498257963.898749) can0 375#0301000320000000
(1498257963.898753) can0 284#810F000E00000000
(1498257963.911627) can0 156#0000000000000028
(1498257963.918685) can0 152#A9CC000000000080
(1498257963.921667) can0 282#FEC300FEFE003A00
(1498257963.931682) can0 156#0000000000000028
(1498257963.931703) can0 3D1#FF1F0000FD000000
(1498257963.938684) can0 152#A1DC000000000080
(1498257963.938713) can0 376#AD
(1498257963.951677) can0 156#0000000000000028
(1498257963.958683) can0 152#A1EC000000000080
(1498257963.971684) can0 156#0000000000000028
(1498257963.971704) can0 282#FED300FEFE003A00
(1498257963.978686) can0 152#A9FC000000000080
(1498257963.988678) can0 376#AD
(1498257963.991671) can0 156#0000000000000028
(1498257963.998700) can0 152#A90C000000000080
(1498257963.998728) can0 284#8100000E00000000
(1498257964.011643) can0 156#0000000000000028
(1498257964.018690) can0 152#A11C000000000080
(1498257964.021627) can0 282#FEE300FEFE003A00
(1498257964.031628) can0 156#0000000000000028
(1498257964.031651) can0 3D1#FF1F0000FD000000
(1498257964.038687) can0 152#A12C000000000080
(1498257964.038717) can0 376#AD
(1498257964.051584) can0 156#0000000000000028
(1498257964.058674) can0 152#A93C000000000080
(1498257964.071676) can0 156#0000000000000028
(1498257964.071698) can0 282#FEF300FEFE003A00
(1498257964.078678) can0 152#A14C000000000080
(1498257964.088675) can0 376#AD
(1498257964.091662) can0 156#0000000000000028
(1498257964.098664) can0 152#A95C000000000080
(1498257964.098693) can0 284#8101000E00000000
(1498257964.111654) can0 156#0000000000000028
(1498257964.111674) can0 284#8102040E00000000
(1498257964.118683) can0 152#A96C000000000080
(1498257964.121688) can0 282#FE0300FEFE003A00
(1498257964.131696) can0 156#0000000000000028
(1498257964.131717) can0 3D1#FF1F0000FD000000
(1498257964.138595) can0 152#A17C000000000080
(1498257964.138628) can0 376#AD
(1498257964.151621) can0 156#0000000000000028
(1498257964.158676) can0 152#A18C000000000080
(1498257964.171606) can0 156#0000000000000028
(1498257964.171628) can0 282#FE1300FEFE003A00
(1498257964.178666) can0 152#A99C000000000080
(1498257964.188669) can0 376#AD
(1498257964.191591) can0 156#0000000000000028
(1498257964.198680) can0 152#A9AC000000000080
(1498257964.203657) can0 284#8103040E00000000
(1498257964.211681) can0 156#0000000000000028
(1498257964.218680) can0 152#A1BC000000000080
(1498257964.221685) can0 282#FE2300FEFE003A00
(1498257964.231634) can0 156#0000000000000028
(1498257964.231655) can0 3D1#FF1F0000FD000000
(1498257964.238702) can0 152#A9CC000000000080
(1498257964.238730) can0 376#AD
(1498257964.238734) can0 660#FFFF0BAA00001057
(1498257964.251558) can0 156#0000000000000028
(1498257964.258669) can0 152#A1DC000000000080
(1498257964.271701) can0 156#0000000000000028
(1498257964.271722) can0 282#FE3300FEFE003A00
(1498257964.278674) can0 152#A1EC000000000080
(1498257964.288671) can0 376#AD
(1498257964.291676) can0 156#0000000000000028
(1498257964.298683) can0 152#A9FC000000000080
(1498257964.303674) can0 284#8104040E00000000
(1498257964.311604) can0 156#0000000000000028
(1498257964.318632) can0 152#A90C000000000080
(1498257964.321686) can0 282#FE4300FEFE003A00
(1498257964.331659) can0 156#0000000000000028
(1498257964.331681) can0 3D1#FF1F0000FD000000
(1498257964.338689) can0 152#A11C000000000080
(1498257964.338718) can0 376#AD
(1498257964.351683) can0 156#0000000000000028
(1498257964.358680) can0 152#A12C000000000080
(1498257964.371685) can0 156#0000000000000028
(1498257964.371706) can0 282#FE5300FEFE003A00
(1498257964.378684) can0 152#A93C000000000080
(1498257964.388667) can0 376#AD
(1498257964.391683) can0 156#0000000000000028
(1498257964.398683) can0 152#A14C000000000080
(1498257964.403676) can0 284#8105040E00000000
(1498257964.411649) can0 156#0000000000000028
(1498257964.418680) can0 152#A95C000000000080
(1498257964.421688) can0 282#FE6300FEFE003A00
(1498257964.431658) can0 156#0000000000000028
(1498257964.431680) can0 3D1#FF1F0000FD000000
(1498257964.438686) can0 152#A96C000000000080
(1498257964.438715) can0 376#AD
(1498257964.451573) can0 156#0000000000000028
(1498257964.458667) can0 152#A17C000000000080
(1498257964.471629) can0 156#0000000000000028
(1498257964.471650) can0 282#FE7300FEFE003A00
(1498257964.478678) can0 152#A18C000000000080
(1498257964.488667) can0 376#AD
(1498257964.491656) can0 156#0000000000000028
(1498257964.498684) can0 152#A99C000000000080
(1498257964.504639) can0 284#8106040E00000000
(1498257964.511686) can0 156#0000000000000028
(1498257964.517681) can0 37A#0000000000100000
(1498257964.518670) can0 152#A9AC000000000080
(1498257964.521673) can0 282#FE8300FEFE003A00
(1498257964.531692) can0 156#0000000000000028
(1498257964.532659) can0 3D1#FF1F0000FD000000
(1498257964.538689) can0 152#A1BC000000000080
(1498257964.538718) can0 376#AD
(1498257964.551681) can0 156#0000000000000028
(1498257964.558592) can0 152#A9CC000000000080
(1498257964.571577) can0 156#0000000000000028
(1498257964.571589) can0 282#FE9300FEFE003A00
(1498257964.578580) can0 152#A1DC000000000080
(1498257964.588662) can0 376#AD
(1498257964.591669) can0 156#0000000000000028
(1498257964.598671) can0 152#A1EC000000000080
(1498257964.604678) can0 284#8107040E00000000
(1498257964.611595) can0 156#0000000000000028
(1498257964.618688) can0 152#A9FC000000000080
(1498257964.621688) can0 282#FEA300FEFE003A00
(1498257964.631636) can0 156#0000000000000028
(1498257964.632678) can0 3D1#FF1F0000FD000000
(1498257964.638675) can0 152#A90C000000000080
(1498257964.638706) can0 376#AD
(1498257964.651579) can0 156#0000000000000028
(1498257964.658645) can0 152#A11C000000000080
(1498257964.671706) can0 156#0000000000000028
(1498257964.671731) can0 282#FEB300FEFE003A00
(1498257964.678685) can0 152#A12C000000000080
(1498257964.688682) can0 376#AD
(1498257964.691688) can0 156#0000000000000028
(1498257964.698690) can0 152#A93C000000000080
(1498257964.704629) can0 284#8108040E00000000
(1498257964.711688) can0 156#0000000000000028
(1498257964.718689) can0 152#A14C000000000080
(1498257964.721678) can0 282#FEC300FEFE003A00
(1498257964.731667) can0 156#0000000000000028
(1498257964.732683) can0 3D1#FF1F0000FD000000
(1498257964.738706) can0 152#A95C000000000080
(1498257964.738740) can0 376#AD
(1498257964.738744) can0 660#FFFF0BAA0000105C
(1498257964.751616) can0 156#0000000000000028
(1498257964.754684) can0 378#C100000000000000
(1498257964.758688) can0 152#A96C000000000080
(1498257964.771633) can0 156#0000000000000028
(1498257964.771656) can0 282#FED300FEFE003A00
(1498257964.778684) can0 152#A17C000000000080
(1498257964.788677) can0 376#AD
(1498257964.791583) can0 156#0000000000000028
(1498257964.798685) can0 152#A18C000000000080
(1498257964.804587) can0 284#8109040E00000000
(1498257964.811654) can0 156#0000000000000028
(1498257964.818682) can0 152#A99C000000000080
(1498257964.821676) can0 282#FEE300FEFE003A00
(1498257964.831589) can0 156#0000000000000028
(1498257964.832634) can0 3D1#FF1F0000FD000000
(1498257964.838676) can0 152#A9AC000000000080
(1498257964.838705) can0 376#AD
(1498257964.851580) can0 156#0000000000000028
(1498257964.858648) can0 152#A1BC000000000080
(1498257964.871684) can0 156#0000000000000028
(1498257964.871704) can0 282#FEF300FEFE003A00
(1498257964.878669) can0 152#A9CC000000000080
(1498257964.888690) can0 376#AD
(1498257964.891649) can0 156#0000000000000028
(1498257964.898697) can0 152#A1DC000000000080
(1498257964.898726) can0 374#0800000180000000
(1498257964.898733) can0 375#0301000320000000
(1498257964.904683) can0 284#810A040E00000000
(1498257964.911679) can0 156#0000000000000028
(1498257964.918671) can0 152#A1EC000000000080
(1498257964.921678) can0 282#FE0300FEFE003A00
(1498257964.931678) can0 156#0000000000000028
(1498257964.932657) can0 3D1#FF1F0000FD000000
(1498257964.938682) can0 152#A9FC000000000080
(1498257964.938712) can0 376#AD
(1498257964.941677) can0 6D1#7835020000000000
(1498257964.951678) can0 156#0000000000000028
(1498257964.958679) can0 152#A90C000000000080
(1498257964.971653) can0 156#0000000000000028
(1498257964.971675) can0 282#FE1300FEFE003A00
(1498257964.978675) can0 152#A11C000000000080
(1498257964.988595) can0 376#AD
(1498257964.991582) can0 156#0000000000000028
(1498257964.998581) can0 152#A12C000000000080
(1498257965.004582) can0 284#810B040E00000000
(1498257965.011569) can0 156#0000000000000028
(1498257965.018582) can0 152#A93C000000000080
(1498257965.021581) can0 282#FE2300FEFE003A00
(1498257965.032678) can0 156#0000000000000028
(1498257965.032700) can0 3D1#FF1F0000FD000000
(1498257965.038669) can0 152#A14C000000000080
(1498257965.038700) can0 376#AD
(1498257965.051585) can0 156#0000000000000028
(1498257965.058588) can0 152#A95C000000000080
(1498257965.071684) can0 156#0000000000000028
(1498257965.072656) can0 282#FE3300FEFE003A00
(1498257965.078599) can0 152#A96C000000000080
(1498257965.088663) can0 376#AD
(1498257965.091657) can0 156#0000000000000028
(1498257965.098678) can0 152#A17C000000000080
(1498257965.104673) can0 284#810C040E00000000
(1498257965.111677) can0 156#0000000000000028
(1498257965.118668) can0 152#A18C000000000080
(1498257965.121675) can0 282#FE4300FEFE003A00
(1498257965.132686) can0 156#0000000000000028
(1498257965.132706) can0 3D1#FF1F0000FD000000
(1498257965.138611) can0 152#A99C000000000080
(1498257965.138642) can0 376#AD
(1498257965.151613) can0 156#0000000000000028
(1498257965.158671) can0 152#A9AC000000000080
(1498257965.171594) can0 156#0000000000000028
(1498257965.172656) can0 282#FE5300FEFE003A00
(1498257965.178666) can0 152#A1BC000000000080
(1498257965.188568) can0 376#AD
(1498257965.191560) can0 156#0000000000000028
(1498257965.198522) can0 152#A9CC000000000080
(1498257965.204536) can0 284#810D040E00000000
(1498257965.211509) can0 156#0000000000000028
(1498257965.218531) can0 152#A1DC000000000080
(1498257965.221525) can0 282#FE6300FEFE003A00
(1498257965.232565) can0 156#0000000000000028
(1498257965.232585) can0 3D1#FF1F0000FD000000
(1498257965.238615) can0 152#A1EC000000000080
(1498257965.238627) can0 376#AD
(1498257965.238629) can0 660#FFFF0BAA00001061
(1498257965.251601) can0 156#0000000000000028
(1498257965.258681) can0 152#A9FC000000000080
(1498257965.271690) can0 156#0000000000000028
(1498257965.272650) can0 282#FE7300FEFE003A00
(1498257965.278669) can0 152#A90C000000000080
(1498257965.288685) can0 376#AD
(1498257965.291648) can0 156#0000000000000028
(1498257965.298669) can0 152#A11C000000000080
(1498257965.304698) can0 284#810E040E00000000
(1498257965.311621) can0 156#0000000000000028
(1498257965.318603) can0 152#A12C000000000080
(1498257965.321675) can0 282#FE8300FEFE003A00
(1498257965.332696) can0 156#0000000000000028
(1498257965.332718) can0 3D1#FF1F0000FD000000
(1498257965.338681) can0 152#A93C000000000080
(1498257965.338712) can0 376#AD
(1498257965.351678) can0 156#0000000000000028
(1498257965.358657) can0 152#A14C000000000080
(1498257965.371585) can0 156#0000000000000028
(1498257965.372616) can0 282#FE9300FEFE003A00
(1498257965.378669) can0 152#A95C000000000080
(1498257965.388656) can0 376#AD
(1498257965.391666) can0 156#0000000000000028
(1498257965.398668) can0 152#A96C000000000080
(1498257965.404674) can0 284#810F040E00000000
(1498257965.411668) can0 156#0000000000000028
(1498257965.418669) can0 152#A17C000000000080
(1498257965.421672) can0 282#FEA300FEFE003A00
(1498257965.432681) can0 156#0000000000000028
(1498257965.432704) can0 3D1#FF1F0000FD000000
(1498257965.438676) can0 152#A18C000000000080
(1498257965.438705) can0 376#AD
(1498257965.452654) can0 156#0000000000000028
(1498257965.458664) can0 152#A99C000000000080
(1498257965.471673) can0 156#0000000000000028
(1498257965.472667) can0 282#FEB300FEFE003A00
(1498257965.478660) can0 152#A9AC000000000080
(1498257965.488667) can0 376#AD
(1498257965.492654) can0 156#0000000000000028
(1498257965.498677) can0 152#A1BC000000000080
(1498257965.504608) can0 284#8100040E00000000
(1498257965.512589) can0 156#0000000000000028
(1498257965.517634) can0 37A#0000000000100000
(1498257965.518647) can0 152#A9CC000000000080
(1498257965.521666) can0 282#FEC300FEFE003A00
(1498257965.532690) can0 156#0000000000000028
(1498257965.532713) can0 3D1#FF1F0000FD000000
(1498257965.538678) can0 152#A1DC000000000080
(1498257965.538708) can0 376#AD
(1498257965.552655) can0 156#0000000000000028
(1498257965.558674) can0 152#A1EC000000000080
(1498257965.572671) can0 156#0000000000000028
(1498257965.572694) can0 282#FED300FEFE003A00
(1498257965.578669) can0 152#A9FC000000000080
(1498257965.588664) can0 376#AD
(1498257965.592654) can0 156#0000000000000028
(1498257965.598674) can0 152#A90C000000000080
(1498257965.604672) can0 284#8101040E00000000
(1498257965.612661) can0 156#0000000000000028
(1498257965.618657) can0 152#A11C000000000080
(1498257965.622659) can0 282#FEE300FEFE003A00
(1498257965.632661) can0 156#0000000000000028
(1498257965.632682) can0 3D1#FF1F0000FD000000
(1498257965.638673) can0 152#A12C000000000080
(1498257965.638702) can0 376#AD
(1498257965.652662) can0 156#0000000000000028
(1498257965.658668) can0 152#A93C000000000080
(1498257965.672673) can0 156#0000000000000028
(1498257965.672695) can0 282#FEF300FEFE003A00
(1498257965.678669) can0 152#A14C000000000080
(1498257965.688664) can0 376#AD
(1498257965.692671) can0 156#0000000000000028
(1498257965.698672) can0 152#A95C000000000080
(1498257965.704666) can0 284#8102040E00000000
(1498257965.712598) can0 156#0000000000000028
(1498257965.718658) can0 152#A96C000000000080
(1498257965.722671) can0 282#FE0300FEFE003A00
(1498257965.732689) can0 156#0000000000000028
(1498257965.732711) can0 3D1#FF1F0000FD000000
(1498257965.738678) can0 152#A17C000000000080
(1498257965.738707) can0 376#AD
(1498257965.738710) can0 660#FFFF0BAA00001066
(1498257965.752642) can0 156#0000000000000028
(1498257965.754658) can0 378#D100000000000000
(1498257965.758661) can0 152#A18C000000000080
(1498257965.772685) can0 156#0000000000000028
(1498257965.772709) can0 282#FE1300FEFE003A00
(1498257965.778668) can0 152#A99C000000000080
(1498257965.788658) can0 376#AD
(1498257965.792672) can0 156#0000000000000028
(1498257965.798672) can0 152#A9AC000000000080
(1498257965.804665) can0 284#8103040E00000000
(1498257965.812669) can0 156#0000000000000028
(1498257965.818598) can0 152#A1BC000000000080
(1498257965.822674) can0 282#FE2300FEFE003A00
(1498257965.832682) can0 156#0000000000000028
(1498257965.832704) can0 3D1#FF1F0000FD000000
(1498257965.838670) can0 152#A9CC000000000080
(1498257965.838702) can0 376#AD
(1498257965.852576) can0 156#0000000000000028
(1498257965.858663) can0 152#A1DC000000000080
(1498257965.872689) can0 156#0000000000000028
(1498257965.872711) can0 282#FE3300FEFE003A00
(1498257965.878671) can0 152#A1EC000000000080
(1498257965.888655) can0 376#AD
(1498257965.892672) can0 156#0000000000000028
(1498257965.898659) can0 152#A9FC000000000080
(1498257965.898689) can0 374#0800000180000000
(1498257965.898693) can0 375#0301000320000000
(1498257965.904667) can0 284#8104040E00000000
(1498257965.912593) can0 156#0000000000000028
(1498257965.918629) can0 152#A90C000000000080
(1498257965.922654) can0 282#FE4300FEFE003A00
(1498257965.932683) can0 156#0000000000000028
(1498257965.932705) can0 3D1#FF1F0000FD000000
(1498257965.938677) can0 152#A11C000000000080
(1498257965.938706) can0 376#AD
(1498257965.952672) can0 156#0000000000000028
(1498257965.958669) can0 152#A12C000000000080
(1498257965.972637) can0 156#0000000000000028
(1498257965.972660) can0 282#FE5300FEFE003A00
(1498257965.978665) can0 152#A93C000000000080
(1498257965.988659) can0 376#AD
(1498257965.992665) can0 156#0000000000000028
(1498257965.998673) can0 152#A14C000000000080
(1498257966.005646) can0 284#8105040E00000000
(1498257966.012668) can0 156#0000000000000028
(1498257966.018652) can0 152#A95C000000000080
(1498257966.022671) can0 282#FE6300FEFE003A00
(1498257966.032654) can0 156#0000000000000028
(1498257966.032676) can0 3D1#FF1F0000FD000000
(1498257966.038653) can0 152#A96C000000000080
(1498257966.038683) can0 376#AD
(1498257966.052604) can0 156#0000000000000028
(1498257966.058666) can0 152#A17C000000000080
(1498257966.072685) can0 156#0000000000000028
(1498257966.072707) can0 282#FE7300FEFE003A00
(1498257966.078656) can0 152#A18C000000000080
(1498257966.088653) can0 376#AD
(1498257966.092667) can0 156#0000000000000028
(1498257966.098670) can0 152#A99C000000000080
(1498257966.105593) can0 284#8106040E00000000
(1498257966.112672) can0 156#0000000000000028
(1498257966.118668) can0 152#A9AC000000000080
(1498257966.122651) can0 282#FE8300FEFE003A00
(1498257966.132685) can0 156#0000000000000028
(1498257966.132707) can0 3D1#FF1F0000FD000000
(1498257966.138591) can0 152#A1BC000000000080
(1498257966.138627) can0 376#AD
(1498257966.142666) can0 6D1#7835020000000000
(1498257966.152661) can0 156#0000000000000028
(1498257966.158725) can0 152#A9CC000000000080
(1498257966.158754) can0 374#0800000000000000
(1498257966.158758) can0 375#0300000720000000
(1498257966.160664) can0 284#8107000E00000000
(1498257966.172670) can0 156#0000000000000028
(1498257966.172692) can0 282#FE9300FEFE003A00
(1498257966.178676) can0 152#A1DC000000000080
(1498257966.178706) can0 375#0300000220000000
(1498257966.188663) can0 376#AD
(1498257966.192662) can0 156#0000000000000028
(1498257966.198671) can0 152#A1EC000000000080
(1498257966.212665) can0 156#0000000000000028
(1498257966.218669) can0 152#A9FC000000000080
(1498257966.222667) can0 282#FEA300FEFE003A00
(1498257966.232682) can0 156#0000000000000028
(1498257966.232704) can0 3D1#FF1F0000FD000000
(1498257966.238680) can0 152#A90C000000000080
(1498257966.238709) can0 376#AD
(1498257966.238713) can0 660#FFFF0BAA0000106B
(1498257966.252667) can0 156#0000000000000028
(1498257966.258665) can0 152#A11C000000000080
(1498257966.260663) can0 284#8108000E00000000
(1498257966.272684) can0 156#0000000000000028
(1498257966.272707) can0 282#FEB300FEFE003A00
(1498257966.278652) can0 152#A12C000000000080
(1498257966.288654) can0 376#AD
(1498257966.292667) can0 156#0000000000000028
(1498257966.298669) can0 152#A93C000000000080
(1498257966.312667) can0 156#0000000000000028
(1498257966.318634) can0 152#A14C000000000080
(1498257966.322662) can0 282#FEC300FEFE003A00
(1498257966.332681) can0 156#0000000000000028
(1498257966.332703) can0 3D1#FF1F0000FD000000
(1498257966.338673) can0 152#A95C000000000080
(1498257966.338702) can0 376#AD
(1498257966.352670) can0 156#0000000000000028
(1498257966.358665) can0 152#A96C000000000080
(1498257966.360657) can0 284#8109000E00000000
(1498257966.372679) can0 156#0000000000000028
(1498257966.372702) can0 282#FED300FEFE003A00
(1498257966.378665) can0 152#A17C000000000080
(1498257966.388659) can0 376#AD
(1498257966.392666) can0 156#0000000000000028
(1498257966.398668) can0 152#A18C000000000080
(1498257966.412670) can0 156#0000000000000028
(1498257966.418664) can0 152#A99C000000000080
(1498257966.420597) can0 284#810A010E00700000
(1498257966.422660) can0 282#FEE300FEFE003A00
(1498257966.432668) can0 156#0000000000000028
(1498257966.433648) can0 3D1#FF1F0000FD000000
(1498257966.433670) can0 37A#6300000000100000
(1498257966.438669) can0 152#A9AC000000000080
(1498257966.438699) can0 376#AD
(1498257966.452664) can0 156#0000000000000028
(1498257966.458664) can0 152#A1BC000000000080
(1498257966.472667) can0 156#0000000000000028
(1498257966.472691) can0 282#FEF300FEFE003A00
(1498257966.478667) can0 152#A9CC000000000080
(1498257966.488657) can0 376#AD
(1498257966.492666) can0 156#0000000000000028
(1498257966.498670) can0 152#A1DC000000000080
(1498257966.512670) can0 156#0000000000000028
(1498257966.518657) can0 152#A1EC000000000080
(1498257966.520652) can0 284#810B000E00700000
(1498257966.522662) can0 282#FE0300FEFE003A00
(1498257966.532668) can0 156#0000000000000028
(1498257966.533659) can0 3D1#FF1F0000FD000000
(1498257966.538666) can0 152#A9FC000000000080
(1498257966.538696) can0 376#AD
(1498257966.552650) can0 156#0000000000000028
(1498257966.558637) can0 152#A90C000000000080
(1498257966.572645) can0 156#0000000000000028
(1498257966.572665) can0 282#FE1300FEFE003A00
(1498257966.578662) can0 152#A11C000000000080
(1498257966.588652) can0 376#AD
(1498257966.592661) can0 156#0000000000000028
(1498257966.598659) can0 152#A12C000000000080
(1498257966.612673) can0 156#0000000000000028
(1498257966.618670) can0 152#A93C000000000080
(1498257966.620593) can0 284#810C000E00700000
(1498257966.622661) can0 282#FE2300FEFE003A00
(1498257966.632622) can0 156#0000000000000028
(1498257966.633659) can0 3D1#FF1F0000FD000000
(1498257966.638665) can0 152#A14C000000000080
(1498257966.638695) can0 376#AD
(1498257966.652665) can0 156#0000000000000028
(1498257966.658660) can0 152#A95C000000000080
(1498257966.672665) can0 156#0000000000000028
(1498257966.672688) can0 282#FE3300FEFE003A00
(1498257966.678661) can0 152#A96C000000000080
(1498257966.688653) can0 376#AD
(1498257966.692666) can0 156#0000000000000028
(1498257966.698666) can0 152#A17C000000000080
(1498257966.712670) can0 156#0000000000000028
(1498257966.718658) can0 152#A18C000000000080
(1498257966.720603) can0 284#810D000E00700000
(1498257966.722658) can0 282#FE4300FEFE003A00
(1498257966.733661) can0 156#0000000000000028
(1498257966.733684) can0 3D1#FF1F0000FD000000
(1498257966.738667) can0 152#A99C000000000080
(1498257966.738696) can0 376#AD
(1498257966.738700) can0 660#FFFF0BAA00001070
(1498257966.752666) can0 156#0000000000000028
(1498257966.754660) can0 378#E100000000000000
(1498257966.758663) can0 152#A9AC000000000080
(1498257966.772675) can0 156#0000000000000028
(1498257966.772697) can0 282#FE5300FEFE003A00
(1498257966.778666) can0 152#A1BC000000000080
(1498257966.788656) can0 376#AD
(1498257966.792661) can0 156#0000000000000028
(1498257966.798667) can0 152#A9CC000000000080
(1498257966.812590) can0 156#0000000000000028
(1498257966.818649) can0 152#A1DC000000000080
(1498257966.820644) can0 284#810E000E00700000
(1498257966.822650) can0 282#FE6300FEFE003A00
(1498257966.833651) can0 156#0000000000000028
(1498257966.833676) can0 3D1#FF1F0000FD000000
(1498257966.838655) can0 152#A1EC000000000080
(1498257966.838687) can0 376#AD
(1498257966.852575) can0 156#0000000000000028
(1498257966.858559) can0 152#A9FC000000000080
(1498257966.872579) can0 156#0000000000000028
(1498257966.872628) can0 282#FE7300FEFE003A00
(1498257966.878660) can0 152#A90C000000000080
(1498257966.888642) can0 376#AD
(1498257966.892658) can0 156#0000000000000028
(1498257966.898653) can0 152#A11C000000000080
(1498257966.912678) can0 156#0000000000000028
(1498257966.918664) can0 152#A12C000000000080
(1498257966.920671) can0 284#810F000E00700000
(1498257966.922635) can0 282#FE8300FEFE003A00
(1498257966.933694) can0 156#0000000000000028
(1498257966.933717) can0 3D1#FF1F0000FD000000
(1498257966.938672) can0 152#A93C000000000080
(1498257966.938699) can0 376#AD
(1498257966.952668) can0 156#0000000000000028
(1498257966.958664) can0 152#A14C000000000080
(1498257966.972642) can0 156#0000000000000028
(1498257966.972668) can0 282#FE9300FEFE003A00
(1498257966.978661) can0 152#A95C000000000080
(1498257966.988656) can0 376#AD
(1498257966.992663) can0 156#0000000000000028
(1498257966.998664) can0 152#A96C000000000080
(1498257967.012667) can0 156#0000000000000028
(1498257967.018662) can0 152#A17C000000000080
(1498257967.020648) can0 284#8100000E00700000
(1498257967.022592) can0 282#FEA300FEFE003A00
(1498257967.033676) can0 156#0000000000000028
(1498257967.033698) can0 3D1#FF1F0000FD000000
(1498257967.038663) can0 152#A18C000000000080
(1498257967.038692) can0 376#AD
(1498257967.052562) can0 156#0000000000000028
(1498257967.058660) can0 152#A99C000000000080
(1498257967.072663) can0 156#0000000000000028
(1498257967.073645) can0 282#FEB300FEFE003A00
(1498257967.078666) can0 152#A9AC000000000080
(1498257967.088655) can0 376#AD
(1498257967.092663) can0 156#0000000000000028
(1498257967.098647) can0 152#A1BC000000000080
(1498257967.112665) can0 156#0000000000000028
(1498257967.118662) can0 152#A9CC000000000080
(1498257967.120658) can0 284#8101000E00700000
(1498257967.122657) can0 282#FEC300FEFE003A00
(1498257967.133655) can0 156#0000000000000028
(1498257967.133681) can0 3D1#FF1F0000FD000000
(1498257967.138598) can0 152#A1DC000000000080
(1498257967.138629) can0 376#AD
(1498257967.152660) can0 156#0000000000000028
(1498257967.158673) can0 152#A1EC000000000080
(1498257967.158703) can0 374#0800000000000000
(1498257967.172592) can0 156#0000000000000028
(1498257967.173592) can0 282#FED300FEFE003A00
(1498257967.178673) can0 152#A9FC000000000080
(1498257967.178704) can0 375#0300000220000000
(1498257967.188647) can0 376#AD
(1498257967.192656) can0 156#0000000000000028
(1498257967.198664) can0 152#A90C000000000080
(1498257967.212646) can0 156#0000000000000028
(1498257967.218662) can0 152#A11C000000000080
(1498257967.221660) can0 284#8102000E00700000
(1498257967.222649) can0 282#FEE300FEFE003A00
(1498257967.233672) can0 156#0000000000000028
(1498257967.233694) can0 3D1#FF1F0000FD000000
(1498257967.238676) can0 152#A12C000000000080
(1498257967.238705) can0 376#AD
(1498257967.238709) can0 660#FFFF0BAA00001075
(1498257967.252656) can0 156#0000000000000028
(1498257967.258656) can0 152#A93C000000000080
(1498257967.272651) can0 156#0000000000000028
(1498257967.273642) can0 282#FEF300FEFE003A00
(1498257967.278658) can0 152#A14C000000000080
(1498257967.288652) can0 376#AD
(1498257967.292657) can0 156#0000000000000028
(1498257967.298660) can0 152#A95C000000000080
(1498257967.313545) can0 156#0000000000000028
(1498257967.318597) can0 152#A96C000000000080
(1498257967.321660) can0 284#8103000E00700000
(1498257967.323563) can0 282#FE0300FEFE003A00
(1498257967.333676) can0 156#0000000000000028
(1498257967.333698) can0 3D1#FF1F0000FD000000
(1498257967.338666) can0 152#A17C000000000080
(1498257967.338694) can0 376#AD
(1498257967.343653) can0 6D1#7835020000000000
(1498257967.353641) can0 156#0000000000000028
(1498257967.358657) can0 152#A18C000000000080
(1498257967.373646) can0 156#0000000000000028
(1498257967.373668) can0 282#FE1300FEFE003A00
(1498257967.378659) can0 152#A99C000000000080
(1498257967.388649) can0 376#AD
(1498257967.393645) can0 156#0000000000000028
(1498257967.398660) can0 152#A9AC000000000080
(1498257967.413643) can0 156#0000000000000028
(1498257967.418656) can0 152#A1BC000000000080
(1498257967.421660) can0 284#8104000E00700000
(1498257967.423647) can0 282#FE2300FEFE003A00
(1498257967.433720) can0 156#0000000000000028
(1498257967.433743) can0 3D1#FF1F0000FD000000
(1498257967.433746) can0 37A#0000000000100000
(1498257967.438662) can0 152#A9CC000000000080
(1498257967.438691) can0 376#AD
(1498257967.453640) can0 156#0000000000000028
(1498257967.458643) can0 152#A1DC000000000080
(1498257967.473654) can0 156#0000000000000028
(1498257967.473678) can0 282#FE3300FEFE003A00
(1498257967.478663) can0 152#A1EC000000000080
(1498257967.488650) can0 376#AD
(1498257967.493640) can0 156#0000000000000028
(1498257967.498658) can0 152#A9FC000000000080
(1498257967.513617) can0 156#0000000000000028
(1498257967.518641) can0 152#A90C000000000080
(1498257967.521660) can0 284#8105000E00700000
(1498257967.523638) can0 282#FE4300FEFE003A00
(1498257967.533668) can0 156#0000000000000028
(1498257967.533689) can0 3D1#FF1F0000FD000000
(1498257967.538664) can0 152#A11C000000000080
(1498257967.538694) can0 376#AD
(1498257967.553643) can0 156#0000000000000028
(1498257967.558655) can0 152#A12C000000000080
(1498257967.573586) can0 156#0000000000000028
(1498257967.573607) can0 282#FE5300FEFE003A00
(1498257967.578646) can0 152#A93C000000000080
(1498257967.588653) can0 376#AD
(1498257967.593656) can0 156#0000000000000028
(1498257967.598657) can0 152#A14C000000000080
(1498257967.613658) can0 156#0000000000000028
(1498257967.618657) can0 152#A95C000000000080
(1498257967.621654) can0 284#8106000E00700000
(1498257967.623657) can0 282#FE6300FEFE003A00
(1498257967.633670) can0 156#0000000000000028
(1498257967.633693) can0 3D1#FF1F0000FD000000
(1498257967.638662) can0 152#A96C000000000080
(1498257967.638693) can0 376#AD
(1498257967.653657) can0 156#0000000000000028
(1498257967.658641) can0 152#A17C000000000080
(1498257967.673669) can0 156#0000000000000028
(1498257967.673692) can0 282#FE7300FEFE003A00
(1498257967.678654) can0 152#A18C000000000080
(1498257967.688641) can0 376#AD
(1498257967.693659) can0 156#0000000000000028
(1498257967.698655) can0 152#A99C000000000080
(1498257967.713659) can0 156#0000000000000028
(1498257967.718657) can0 152#A9AC000000000080
(1498257967.721651) can0 284#8107000E00700000
(1498257967.723630) can0 282#FE8300FEFE003A00
(1498257967.733669) can0 156#0000000000000028
(1498257967.733691) can0 3D1#FF1F0000FD000000
(1498257967.738678) can0 152#A1BC000000000080
(1498257967.738708) can0 376#AD
(1498257967.738713) can0 660#FFFF0BAA0000107A
(1498257967.753659) can0 156#0000000000000028
(1498257967.754648) can0 378#F100000000000000
(1498257967.758659) can0 152#A9CC000000000080
(1498257967.773575) can0 156#0000000000000028
(1498257967.773598) can0 282#FE9300FEFE003A00
(1498257967.778592) can0 152#A1DC000000000080
(1498257967.788640) can0 376#AD
(1498257967.793648) can0 156#0000000000000028
(1498257967.798649) can0 152#A1EC000000000080
(1498257967.813652) can0 156#0000000000000028
(1498257967.818657) can0 152#A9FC000000000080
(1498257967.821659) can0 284#8108000E00700000
(1498257967.823618) can0 282#FEA300FEFE003A00
(1498257967.833666) can0 156#0000000000000028
(1498257967.833686) can0 3D1#FF1F0000FD000000
(1498257967.838642) can0 152#A90C000000000080
(1498257967.838671) can0 376#AD
(1498257967.853654) can0 156#0000000000000028
(1498257967.858648) can0 152#A11C000000000080
(1498257967.873603) can0 156#0000000000000028
(1498257967.873624) can0 282#FEB300FEFE003A00
(1498257967.878654) can0 152#A12C000000000080
(1498257967.888645) can0 376#AD
(1498257967.893658) can0 156#0000000000000028
(1498257967.898661) can0 152#A93C000000000080
(1498257967.913660) can0 156#0000000000000028
(1498257967.918657) can0 152#A14C000000000080
(1498257967.921656) can0 284#8109000E00700000
(1498257967.923586) can0 282#FEC300FEFE003A00
(1498257967.933675) can0 156#0000000000000028
(1498257967.933697) can0 3D1#FF1F0000FD000000
(1498257967.938663) can0 152#A95C000000000080
(1498257967.938692) can0 376#AD
(1498257967.953660) can0 156#0000000000000028
(1498257967.958658) can0 152#A96C000000000080
(1498257967.973670) can0 156#0000000000000028
(1498257967.973690) can0 282#FED300FEFE003A00
(1498257967.978653) can0 152#A17C000000000080
(1498257967.988647) can0 376#AD
(1498257967.993654) can0 156#0000000000000028
(1498257967.998657) can0 152#A18C000000000080
(1498257968.013645) can0 156#0000000000000028
(1498257968.018653) can0 152#A99C000000000080
(1498257968.021656) can0 284#810A000E00700000
(1498257968.023655) can0 282#FEE300FEFE003A00
(1498257968.033667) can0 156#0000000000000028
(1498257968.033689) can0 3D1#FF1F0000FD000000
(1498257968.038639) can0 152#A9AC000000000080
(1498257968.038667) can0 376#AD
(1498257968.053652) can0 156#0000000000000028
(1498257968.058647) can0 152#A1BC000000000080
(1498257968.073663) can0 156#0000000000000028
(1498257968.073685) can0 282#FEF300FEFE003A00
(1498257968.078647) can0 152#A9CC000000000080
(1498257968.088647) can0 376#AD
(1498257968.093656) can0 156#0000000000000028
(1498257968.098656) can0 152#A1DC000000000080
(1498257968.113657) can0 156#0000000000000028
(1498257968.118653) can0 152#A1EC000000000080
(1498257968.121584) can0 284#810B000E00700000
(1498257968.123622) can0 282#FE0300FEFE003A00
(1498257968.133578) can0 156#0000000000000028
(1498257968.133602) can0 3D1#FF1F0000FD000000
(1498257968.138592) can0 152#A9FC000000000080
(1498257968.138621) can0 376#AD
(1498257968.153647) can0 156#0000000000000028
(1498257968.158647) can0 152#A90C000000000080
(1498257968.158678) can0 374#0800000000000000
(1498257968.173664) can0 156#0000000000000028
(1498257968.173686) can0 282#FE1300FEFE003A00
(1498257968.178666) can0 152#A11C000000000080
(1498257968.178697) can0 375#0300000120000000
(1498257968.188648) can0 376#AD
(1498257968.193643) can0 156#0000000000000028
(1498257968.198651) can0 152#A12C000000000080
(1498257968.213659) can0 156#0000000000000028
(1498257968.218656) can0 152#A93C000000000080
(1498257968.222652) can0 284#810C000E00700000
(1498257968.223624) can0 282#FE2300FEFE003A00
(1498257968.233640) can0 156#0000000000000028
(1498257968.234634) can0 3D1#FF1F0000FD000000
(1498257968.238670) can0 152#A14C000000000080
(1498257968.238701) can0 376#AD
(1498257968.238705) can0 660#FFFF0BAA0000107F
(1498257968.253650) can0 156#0000000000000028
(1498257968.258645) can0 152#A95C000000000080
(1498257968.273666) can0 156#0000000000000028
(1498257968.273688) can0 282#FE3300FEFE003A00
(1498257968.278651) can0 152#A96C000000000080
(1498257968.288645) can0 376#AD
(1498257968.293655) can0 156#0000000000000028
(1498257968.298656) can0 152#A17C000000000080
(1498257968.313638) can0 156#0000000000000028
(1498257968.318625) can0 152#A18C000000000080
(1498257968.322648) can0 284#810D000E00700000
(1498257968.323650) can0 282#FE4300FEFE003A00
(1498257968.333661) can0 156#0000000000000028
(1498257968.334609) can0 3D1#FF1F0000FD000000
(1498257968.338636) can0 152#A99C000000000080
(1498257968.338664) can0 376#AD
(1498257968.353657) can0 156#0000000000000028
(1498257968.358646) can0 152#A9AC000000000080
(1498257968.373594) can0 156#0000000000000028
(1498257968.373616) can0 282#FE5300FEFE003A00
(1498257968.378639) can0 152#A1BC000000000080
(1498257968.388638) can0 376#AD
(1498257968.393650) can0 156#0000000000000028
(1498257968.398654) can0 152#A9CC000000000080
(1498257968.413652) can0 156#0000000000000028
(1498257968.418649) can0 152#A1DC000000000080
(1498257968.422652) can0 284#810E000E00700000
(1498257968.423633) can0 282#FE6300FEFE003A00
(1498257968.433656) can0 156#0000000000000028
(1498257968.434651) can0 3D1#FF1F0000FD000000
(1498257968.434672) can0 37A#0000000000100000
(1498257968.438650) can0 152#A1EC000000000080
(1498257968.438678) can0 376#AD
(1498257968.453642) can0 156#0000000000000028
(1498257968.458650) can0 152#A9FC000000000080
(1498257968.473671) can0 156#0000000000000028
(1498257968.473696) can0 282#FE7300FEFE003A00
(1498257968.478649) can0 152#A90C000000000080
(1498257968.488647) can0 376#AD
(1498257968.493652) can0 156#0000000000000028
(1498257968.498634) can0 152#A11C000000000080
(1498257968.513654) can0 156#0000000000000028
(1498257968.518652) can0 152#A12C000000000080
(1498257968.522643) can0 284#810F000E00700000
(1498257968.523629) can0 282#FE8300FEFE003A00
(1498257968.533653) can0 156#0000000000000028
(1498257968.534625) can0 3D1#FF1F0000FD000000
(1498257968.538658) can0 152#A93C000000000080
(1498257968.538686) can0 376#AD
(1498257968.543651) can0 6D1#7835020000000000
(1498257968.553580) can0 156#0000000000000028
(1498257968.558653) can0 152#A14C000000000080
(1498257968.573641) can0 156#0000000000000028
(1498257968.573663) can0 282#FE9300FEFE003A00
(1498257968.578646) can0 152#A95C000000000080
(1498257968.588643) can0 376#AD
(1498257968.593652) can0 156#0000000000000028
(1498257968.598653) can0 152#A96C000000000080
(1498257968.613652) can0 156#0000000000000028
(1498257968.618649) can0 152#A17C000000000080
(1498257968.622649) can0 284#8100000E00700000
(1498257968.623646) can0 282#FEA300FEFE003A00
(1498257968.633645) can0 156#0000000000000028
(1498257968.634643) can0 3D1#FF1F0000FD000000
(1498257968.638644) can0 152#A18C000000000080
(1498257968.638673) can0 376#AD
(1498257968.653647) can0 156#0000000000000028
(1498257968.658646) can0 152#A99C000000000080
(1498257968.673668) can0 156#0000000000000028
(1498257968.673689) can0 282#FEB300FEFE003A00
(1498257968.678622) can0 152#A9AC000000000080
(1498257968.688638) can0 376#AD
(1498257968.693650) can0 156#0000000000000028
(1498257968.698653) can0 152#A1BC000000000080
(1498257968.713652) can0 156#0000000000000028
(1498257968.718647) can0 152#A9CC000000000080
(1498257968.722651) can0 284#8101000E00700000
(1498257968.723639) can0 282#FEC300FEFE003A00
(1498257968.734650) can0 156#0000000000000028
(1498257968.734672) can0 3D1#FF1F0000FD000000
(1498257968.738671) can0 152#A1DC000000000080
(1498257968.738701) can0 376#AD
(1498257968.738706) can0 660#FFFF0BAA00001084
(1498257968.753648) can0 156#0000000000000028
(1498257968.754634) can0 378#0100000000000000
(1498257968.758652) can0 152#A1EC000000000080
(1498257968.773662) can0 156#0000000000000028
(1498257968.774630) can0 282#FED300FEFE003A00
(1498257968.778583) can0 152#A9FC000000000080
(1498257968.788644) can0 376#AD
(1498257968.793644) can0 156#0000000000000028
(1498257968.798647) can0 152#A90C000000000080
(1498257968.813652) can0 156#0000000000000028
(1498257968.818649) can0 152#A11C000000000080
(1498257968.822646) can0 284#8102000E00700000
(1498257968.823650) can0 282#FEE300FEFE003A00
(1498257968.834645) can0 156#0000000000000028
(1498257968.834667) can0 3D1#FF1F0000FD000000
(1498257968.838648) can0 152#A12C000000000080
(1498257968.838678) can0 376#AD
(1498257968.853649) can0 156#0000000000000028
(1498257968.858646) can0 152#A93C000000000080
(1498257968.873656) can0 156#0000000000000028
(1498257968.874629) can0 282#FEF300FEFE003A00
(1498257968.878645) can0 152#A14C000000000080
(1498257968.888637) can0 376#AD
(1498257968.893649) can0 156#0000000000000028
(1498257968.898650) can0 152#A95C000000000080
(1498257968.913651) can0 156#0000000000000028
(1498257968.918649) can0 152#A96C000000000080
(1498257968.922647) can0 284#8103000E00700000
(1498257968.923623) can0 282#FE0300FEFE003A00
(1498257968.934665) can0 156#0000000000000028
(1498257968.934688) can0 3D1#FF1F0000FD000000
(1498257968.938653) can0 152#A17C000000000080
(1498257968.938683) can0 376#AD
(1498257968.953635) can0 156#0000000000000028
(1498257968.958649) can0 152#A18C000000000080
(1498257968.973648) can0 156#0000000000000028
(1498257968.974563) can0 282#FE1300FEFE003A00
(1498257968.978641) can0 152#A99C000000000080
(1498257968.988633) can0 376#AD
(1498257968.993640) can0 156#0000000000000028
(1498257968.998647) can0 152#A9AC000000000080
(1498257969.013642) can0 156#0000000000000028
(1498257969.018639) can0 152#A1BC000000000080
(1498257969.022643) can0 284#8104000E00700000
(1498257969.023621) can0 282#FE2300FEFE003A00
(1498257969.034635) can0 156#0000000000000028
(1498257969.034659) can0 3D1#FF1F0000FD000000
(1498257969.038649) can0 152#A9CC000000000080
(1498257969.038678) can0 376#AD
(1498257969.053634) can0 156#0000000000000028
(1498257969.058645) can0 152#A1DC000000000080
(1498257969.073648) can0 156#0000000000000028
(1498257969.074644) can0 282#FE3300FEFE003A00
(1498257969.078644) can0 152#A1EC000000000080
(1498257969.088638) can0 376#AD
(1498257969.093648) can0 156#0000000000000028
(1498257969.098648) can0 152#A9FC000000000080
(1498257969.113651) can0 156#0000000000000028
(1498257969.118638) can0 152#A90C000000000080
(1498257969.122642) can0 284#8105000E00700000
(1498257969.123639) can0 282#FE4300FEFE003A00
(1498257969.134572) can0 156#0000000000000028
(1498257969.134595) can0 3D1#FF1F0000FD000000
(1498257969.138555) can0 152#A11C000000000080
(1498257969.138581) can0 376#AD
(1498257969.153641) can0 156#0000000000000028
(1498257969.158656) can0 152#A12C000000000080
(1498257969.158687) can0 374#0800000000000000
(1498257969.173643) can0 156#0000000000000028
(1498257969.174643) can0 282#FE5300FEFE003A00
(1498257969.178642) can0 152#A93C000000000080
(1498257969.178671) can0 375#0300000120000000
(1498257969.188639) can0 376#AD
(1498257969.194626) can0 156#0000000000000028
(1498257969.198561) can0 152#A14C000000000080
(1498257969.214629) can0 156#0000000000000028
(1498257969.218645) can0 152#A95C000000000080
(1498257969.222636) can0 284#8106000E00700000
(1498257969.224565) can0 282#FE6300FEFE003A00
(1498257969.234659) can0 156#0000000000000028
(1498257969.234681) can0 3D1#FF1F0000FD000000
(1498257969.238662) can0 152#A96C000000000080
(1498257969.238691) can0 376#AD
(1498257969.238696) can0 660#FFFF0BAA00001089
(1498257969.254628) can0 156#0000000000000028
(1498257969.258643) can0 152#A17C000000000080
(1498257969.274646) can0 156#0000000000000028
(1498257969.274669) can0 282#FE7300FEFE003A00
(1498257969.278572) can0 152#A18C000000000080
(1498257969.288641) can0 376#AD
(1498257969.294629) can0 156#0000000000000028
(1498257969.298643) can0 152#A99C000000000080
(1498257969.314609) can0 156#0000000000000028
(1498257969.318576) can0 152#A9AC000000000080
(1498257969.323620) can0 284#8107000E00700000
(1498257969.324630) can0 282#FE8300FEFE003A00
(1498257969.334634) can0 156#0000000000000028
(1498257969.334656) can0 3D1#FF1F0000FD000000
(1498257969.338653) can0 152#A1BC000000000080
(1498257969.338687) can0 376#AD
(1498257969.354609) can0 156#0000000000000028
(1498257969.358643) can0 152#A9CC000000000080
(1498257969.374606) can0 156#0000000000000028
(1498257969.374628) can0 282#FE9300FEFE003A00
(1498257969.378642) can0 152#A1DC000000000080
(1498257969.388634) can0 376#AD
(1498257969.394645) can0 156#0000000000000028
(1498257969.398647) can0 152#A1EC000000000080
(1498257969.414647) can0 156#0000000000000028
(1498257969.418629) can0 152#A9FC000000000080
(1498257969.423657) can0 284#8108000E00700000
(1498257969.424627) can0 282#FEA300FEFE003A00
(1498257969.434664) can0 156#0000000000000028
(1498257969.434685) can0 3D1#FF1F0000FD000000
(1498257969.436576) can0 37A#0000000000100000
(1498257969.438626) can0 152#A90C000000000080
(1498257969.438657) can0 376#AD
(1498257969.454641) can0 156#0000000000000028
(1498257969.458641) can0 152#A11C000000000080
(1498257969.474663) can0 156#0000000000000028
(1498257969.474684) can0 282#FEB300FEFE003A00
(1498257969.478633) can0 152#A12C000000000080
(1498257969.488637) can0 376#AD
(1498257969.494646) can0 156#0000000000000028
(1498257969.498645) can0 152#A93C000000000080
(1498257969.514648) can0 156#0000000000000028
(1498257969.518649) can0 152#A14C000000000080
(1498257969.523645) can0 284#8109000E00700000
(1498257969.524626) can0 282#FEC300FEFE003A00
(1498257969.534663) can0 156#0000000000000028
(1498257969.534684) can0 3D1#FF1F0000FD000000
(1498257969.538652) can0 152#A95C000000000080
(1498257969.538680) can0 376#AD
(1498257969.554581) can0 156#0000000000000028
(1498257969.558568) can0 152#A96C000000000080
(1498257969.574532) can0 156#0000000000000028
(1498257969.574546) can0 282#FED300FEFE003A00
(1498257969.578534) can0 152#A17C000000000080
(1498257969.588642) can0 376#AD
(1498257969.594646) can0 156#0000000000000028
(1498257969.598671) can0 152#A18C000000000080
(1498257969.614632) can0 156#0000000000000028
(1498257969.618646) can0 152#A99C000000000080
(1498257969.623647) can0 284#810A000E00700000
(1498257969.624638) can0 282#FEE300FEFE003A00
(1498257969.634578) can0 156#0000000000000028
(1498257969.634595) can0 3D1#FF1F0000FD000000
(1498257969.638552) can0 152#A9AC000000000080
(1498257969.638569) can0 376#AD
(1498257969.654549) can0 156#0000000000000028
(1498257969.658552) can0 152#A1BC000000000080
(1498257969.674565) can0 156#0000000000000028
(1498257969.674578) can0 282#FEF300FEFE003A00
(1498257969.678541) can0 152#A9CC000000000080
(1498257969.688543) can0 376#AD
(1498257969.694551) can0 156#0000000000000028
(1498257969.698551) can0 152#A1DC000000000080
(1498257969.714551) can0 156#0000000000000028
(1498257969.718550) can0 152#A1EC000000000080
(1498257969.723531) can0 284#810B000E00700000
(1498257969.724549) can0 282#FE0300FEFE003A00
(1498257969.734565) can0 156#0000000000000028
(1498257969.734577) can0 3D1#FF1F0000FD000000
(1498257969.738570) can0 152#A9FC000000000080
(1498257969.738585) can0 376#AD
(1498257969.738588) can0 660#FFFF0BAA0000108E
(1498257969.744536) can0 6D1#7835020000000000
(1498257969.754566) can0 156#0000000000000028
(1498257969.754578) can0 378#1100000000000000
(1498257969.758543) can0 152#A90C000000000080
(1498257969.774562) can0 156#0000000000000028
(1498257969.774574) can0 282#FE1300FEFE003A00
(1498257969.778565) can0 152#A11C000000000080
(1498257969.788634) can0 376#AD
(1498257969.794646) can0 156#0000000000000028
(1498257969.798644) can0 152#A12C000000000080
(1498257969.814656) can0 156#0000000000000028
(1498257969.818650) can0 152#A93C000000000080
(1498257969.823581) can0 284#810C000E00700000
(1498257969.824647) can0 282#FE2300FEFE003A00
(1498257969.834663) can0 156#0000000000000028
(1498257969.834687) can0 3D1#FF1F0000FD000000
(1498257969.838653) can0 152#A14C000000000080
(1498257969.838687) can0 376#AD
(1498257969.854651) can0 156#0000000000000028
(1498257969.858572) can0 152#A95C000000000080
(1498257969.874655) can0 156#0000000000000028
(1498257969.874679) can0 282#FE3300FEFE003A00
(1498257969.878587) can0 152#A96C000000000080
(1498257969.888635) can0 376#AD
(1498257969.894648) can0 156#0000000000000028
(1498257969.898644) can0 152#A17C000000000080
(1498257969.914651) can0 156#0000000000000028
(1498257969.918652) can0 152#A18C000000000080
(1498257969.923650) can0 284#810D000E00700000
(1498257969.924644) can0 282#FE4300FEFE003A00
(1498257969.934656) can0 156#0000000000000028
(1498257969.934680) can0 3D1#FF1F0000FD000000
(1498257969.938656) can0 152#A99C000000000080
(1498257969.938688) can0 376#AD
(1498257969.954652) can0 156#0000000000000028
(1498257969.958653) can0 152#A9AC000000000080
(1498257969.974662) can0 156#0000000000000028
(1498257969.974686) can0 282#FE5300FEFE003A00
(1498257969.978635) can0 152#A1BC000000000080
(1498257969.988561) can0 376#AD
(1498257969.994547) can0 156#0000000000000028
(1498257969.998545) can0 152#A9CC000000000080
(1498257970.014639) can0 156#0000000000000028
(1498257970.018637) can0 152#A1DC000000000080
(1498257970.023633) can0 284#810E000E00700000
(1498257970.024623) can0 282#FE6300FEFE003A00
(1498257970.034650) can0 156#0000000000000028
(1498257970.035532) can0 3D1#FF1F0000FD000000
(1498257970.038643) can0 152#A1EC000000000080
(1498257970.038674) can0 376#AD
(1498257970.054628) can0 156#0000000000000028
(1498257970.058624) can0 152#A9FC000000000080
(1498257970.074654) can0 156#0000000000000028
(1498257970.074678) can0 282#FE7300FEFE003A00
(1498257970.078639) can0 152#A90C000000000080
(1498257970.088633) can0 376#AD
(1498257970.094641) can0 156#0000000000000028
(1498257970.098639) can0 152#A11C000000000080
(1498257970.114642) can0 156#0000000000000028
(1498257970.118642) can0 152#A12C000000000080
(1498257970.123620) can0 284#810F000E00700000
(1498257970.124635) can0 282#FE8300FEFE003A00
(1498257970.134554) can0 156#0000000000000028
(1498257970.135537) can0 3D1#FF1F0000FD000000
(1498257970.138579) can0 152#A93C000000000080
(1498257970.138607) can0 376#AD
(1498257970.154560) can0 156#0000000000000028
(1498257970.158651) can0 152#A14C000000000080
(1498257970.158682) can0 374#0800000000000000
(1498257970.174562) can0 156#0000000000000028
(1498257970.174583) can0 282#FE9300FEFE003A00
(1498257970.178612) can0 152#A95C000000000080
(1498257970.178638) can0 375#0300000120000000
(1498257970.188626) can0 376#AD
(1498257970.194633) can0 156#0000000000000028
(1498257970.198638) can0 152#A96C000000000080
(1498257970.214635) can0 156#0000000000000028
(1498257970.218639) can0 152#A17C000000000080
(1498257970.223569) can0 284#8100000E00700000
(1498257970.224632) can0 282#FEA300FEFE003A00
(1498257970.234646) can0 156#0000000000000028
(1498257970.235516) can0 3D1#FF1F0000FD000000
(1498257970.238624) can0 152#A18C000000000080
(1498257970.238654) can0 376#AD
(1498257970.238658) can0 660#FFFF0BAA00001093
(1498257970.254639) can0 156#0000000000000028
(1498257970.258639) can0 152#A99C000000000080
(1498257970.274657) can0 156#0000000000000028
(1498257970.274679) can0 282#FEB300FEFE003A00
(1498257970.278637) can0 152#A9AC000000000080
(1498257970.288632) can0 376#AD
(1498257970.294641) can0 156#0000000000000028
(1498257970.298644) can0 152#A1BC000000000080
(1498257970.314642) can0 156#0000000000000028
(1498257970.318613) can0 152#A9CC000000000080
(1498257970.324636) can0 284#8101000E00700000
(1498257970.324666) can0 282#FEC300FEFE003A00
(1498257970.334636) can0 156#0000000000000028
(1498257970.335636) can0 3D1#FF1F0000FD000000
(1498257970.338642) can0 152#A1DC000000000080
(1498257970.338671) can0 376#AD
(1498257970.354639) can0 156#0000000000000028
(1498257970.358635) can0 152#A1EC000000000080
(1498257970.374654) can0 156#0000000000000028
(1498257970.374675) can0 282#FED300FEFE003A00
(1498257970.378641) can0 152#A9FC000000000080
(1498257970.388634) can0 376#AD
(1498257970.394639) can0 156#0000000000000028
(1498257970.398631) can0 152#A90C000000000080
(1498257970.414643) can0 156#0000000000000028
(1498257970.418636) can0 152#A11C000000000080
(1498257970.424657) can0 284#8102000E00700000
(1498257970.424688) can0 282#FEE300FEFE003A00
(1498257970.434576) can0 156#0000000000000028
(1498257970.435536) can0 3D1#FF1F0000FD000000
(1498257970.437634) can0 37A#0000000000100000
(1498257970.438639) can0 152#A12C000000000080
(1498257970.438669) can0 376#AD
(1498257970.454636) can0 156#0000000000000028
(1498257970.458636) can0 152#A93C000000000080
(1498257970.474638) can0 156#0000000000000028
(1498257970.474660) can0 282#FEF300FEFE003A00
(1498257970.478638) can0 152#A14C000000000080
(1498257970.488628) can0 376#AD
(1498257970.494629) can0 156#0000000000000028
(1498257970.498641) can0 152#A95C000000000080
(1498257970.514640) can0 156#0000000000000028
(1498257970.518622) can0 152#A96C000000000080
(1498257970.524656) can0 284#8103000E00700000
(1498257970.524686) can0 282#FE0300FEFE003A00
(1498257970.535646) can0 156#0000000000000028
(1498257970.535669) can0 3D1#FF1F0000FD000000
(1498257970.538572) can0 152#A17C000000000080
(1498257970.538601) can0 376#AD
(1498257970.554632) can0 156#0000000000000028
(1498257970.558642) can0 152#A18C000000000080
(1498257970.574655) can0 156#0000000000000028
(1498257970.574677) can0 282#FE1300FEFE003A00
(1498257970.578635) can0 152#A99C000000000080
(1498257970.588634) can0 376#AD
(1498257970.594625) can0 156#0000000000000028
(1498257970.598639) can0 152#A9AC000000000080
(1498257970.614637) can0 156#0000000000000028
(1498257970.618639) can0 152#A1BC000000000080
(1498257970.624653) can0 284#8104000E00700000
(1498257970.624684) can0 282#FE2300FEFE003A00
(1498257970.635534) can0 156#0000000000000028
(1498257970.635554) can0 3D1#FF1F0000FD000000
(1498257970.638639) can0 152#A9CC000000000080
(1498257970.638668) can0 376#AD
(1498257970.654635) can0 156#0000000000000028
(1498257970.658633) can0 152#A1DC000000000080
(1498257970.674637) can0 156#0000000000000028
(1498257970.675623) can0 282#FE3300FEFE003A00
(1498257970.678618) can0 152#A1EC000000000080
(1498257970.688627) can0 376#AD
(1498257970.694637) can0 156#0000000000000028
(1498257970.698640) can0 152#A9FC000000000080
(1498257970.714639) can0 156#0000000000000028
(1498257970.718620) can0 152#A90C000000000080
(1498257970.724656) can0 284#8105000E00700000
(1498257970.724685) can0 282#FE4300FEFE003A00
(1498257970.735577) can0 156#0000000000000028
(1498257970.735598) can0 3D1#FF1F0000FD000000
(1498257970.738631) can0 152#A11C000000000080
(1498257970.738661) can0 376#AD
(1498257970.738665) can0 660#FFFF0BAA00001098
(1498257970.754651) can0 378#2100000000000000
(1498257970.754680) can0 156#0000000000000028
(1498257970.758637) can0 152#A12C000000000080
(1498257970.774570) can0 156#0000000000000028
(1498257970.775531) can0 282#FE5300FEFE003A00
(1498257970.778547) can0 152#A93C000000000080
(1498257970.788622) can0 376#AD
(1498257970.794632) can0 156#0000000000000028
(1498257970.798637) can0 152#A14C000000000080
(1498257970.814639) can0 156#0000000000000028
(1498257970.818637) can0 152#A95C000000000080
(1498257970.824652) can0 284#8106000E00700000
(1498257970.824683) can0 282#FE6300FEFE003A00
(1498257970.835557) can0 156#0000000000000028
(1498257970.835583) can0 3D1#FF1F0000FD000000
(1498257970.838636) can0 152#A96C000000000080
(1498257970.838665) can0 376#AD
(1498257970.854626) can0 156#0000000000000028
(1498257970.858633) can0 152#A17C000000000080
(1498257970.874634) can0 156#0000000000000028
(1498257970.875608) can0 282#FE7300FEFE003A00
(1498257970.878628) can0 152#A18C000000000080
(1498257970.888619) can0 376#AD
(1498257970.895617) can0 156#0000000000000028
(1498257970.898630) can0 152#A99C000000000080
(1498257970.914632) can0 156#0000000000000028
(1498257970.918631) can0 152#A9AC000000000080
(1498257970.924642) can0 284#8107000E00700000
(1498257970.925618) can0 282#FE8300FEFE003A00
(1498257970.935638) can0 156#0000000000000028
(1498257970.935659) can0 3D1#FF1F0000FD000000
(1498257970.938636) can0 152#A1BC000000000080
(1498257970.938664) can0 376#AD
(1498257970.945636) can0 6D1#7835020000000000
(1498257970.954636) can0 156#0000000000000028
(1498257970.958636) can0 152#A9CC000000000080
(1498257970.974625) can0 156#0000000000000028
(1498257970.975623) can0 282#FE9300FEFE003A00
(1498257970.978632) can0 152#A1DC000000000080
(1498257970.988623) can0 376#AD
(1498257970.995616) can0 156#0000000000000028
(1498257970.998631) can0 152#A1EC000000000080
(1498257971.015617) can0 156#0000000000000028
(1498257971.018637) can0 152#A9FC000000000080
(1498257971.024637) can0 284#8108000E00700000
(1498257971.025559) can0 282#FEA300FEFE003A00
(1498257971.035540) can0 156#0000000000000028
(1498257971.035565) can0 3D1#FF1F0000FD000000
(1498257971.038628) can0 152#A90C000000000080
(1498257971.038658) can0 376#AD
(1498257971.055535) can0 156#0000000000000028
(1498257971.058631) can0 152#A11C000000000080
(1498257971.075635) can0 156#0000000000000028
(1498257971.075656) can0 282#FEB300FEFE003A00
(1498257971.078632) can0 152#A12C000000000080
(1498257971.088618) can0 376#AD
(1498257971.095620) can0 156#0000000000000028
(1498257971.098631) can0 152#A93C000000000080
(1498257971.115602) can0 156#0000000000000028
(1498257971.118628) can0 152#A14C000000000080
(1498257971.124634) can0 284#8109000E00700000
(1498257971.125624) can0 282#FEC300FEFE003A00
(1498257971.135576) can0 156#0000000000000028
(1498257971.135597) can0 3D1#FF1F0000FD000000
(1498257971.138571) can0 152#A95C000000000080
(1498257971.138603) can0 376#AD
(1498257971.155538) can0 156#0000000000000028
(1498257971.158636) can0 152#A96C000000000080
(1498257971.158665) can0 374#0800000000000000
(1498257971.175550) can0 156#0000000000000028
(1498257971.175572) can0 282#FED300FEFE003A00
(1498257971.178637) can0 152#A17C000000000080
(1498257971.178665) can0 375#0300000120000000
(1498257971.188625) can0 376#AD
(1498257971.195606) can0 156#0000000000000028
(1498257971.198627) can0 152#A18C000000000080
(1498257971.215637) can0 156#0000000000000028
(1498257971.218630) can0 152#A99C000000000080
(1498257971.224635) can0 284#810A000E00700000
(1498257971.225559) can0 282#FEE300FEFE003A00
(1498257971.235534) can0 156#0000000000000028
(1498257971.235556) can0 3D1#FF1F0000FD000000
(1498257971.238651) can0 152#A9AC000000000080
(1498257971.238682) can0 376#AD
(1498257971.238686) can0 660#FFFF0BAA0000109D
(1498257971.255547) can0 156#0000000000000028
(1498257971.258628) can0 152#A1BC000000000080
(1498257971.275598) can0 156#0000000000000028
(1498257971.275619) can0 282#FEF300FEFE003A00
(1498257971.278624) can0 152#A9CC000000000080
(1498257971.288620) can0 376#AD
(1498257971.295635) can0 156#0000000000000028
(1498257971.298632) can0 152#A1DC000000000080
(1498257971.315629) can0 156#0000000000000028
(1498257971.318611) can0 152#A1EC000000000080
(1498257971.324634) can0 284#810B000E00700000
(1498257971.325631) can0 282#FE0300FEFE003A00
(1498257971.335647) can0 156#0000000000000028
(1498257971.335668) can0 3D1#FF1F0000FD000000
(1498257971.338618) can0 152#A9FC000000000080
(1498257971.338647) can0 376#AD
(1498257971.355614) can0 156#0000000000000028
(1498257971.358627) can0 152#A90C000000000080
(1498257971.375579) can0 156#0000000000000028
(1498257971.375600) can0 282#FE1300FEFE003A00
(1498257971.378562) can0 152#A11C000000000080
(1498257971.388619) can0 376#AD
(1498257971.395547) can0 156#0000000000000028
(1498257971.398630) can0 152#A12C000000000080
(1498257971.415545) can0 156#0000000000000028
(1498257971.418628) can0 152#A93C000000000080
(1498257971.425623) can0 284#810C000E00700000
(1498257971.425657) can0 282#FE2300FEFE003A00
(1498257971.435537) can0 156#0000000000000028
(1498257971.435558) can0 3D1#FF1F0000FD000000
(1498257971.438647) can0 152#A14C000000000080
(1498257971.438678) can0 376#AD
(1498257971.438682) can0 37A#0000000000100000
(1498257971.455539) can0 156#0000000000000028
(1498257971.458626) can0 152#A95C000000000080
(1498257971.475647) can0 156#0000000000000028
(1498257971.475670) can0 282#FE3300FEFE003A00
(1498257971.478629) can0 152#A96C000000000080
(1498257971.488616) can0 376#AD
(1498257971.495632) can0 156#0000000000000028
(1498257971.498619) can0 152#A17C000000000080
(1498257971.515614) can0 156#0000000000000028
(1498257971.518625) can0 152#A18C000000000080
(1498257971.525646) can0 284#810D000E00700000
(1498257971.525675) can0 282#FE4300FEFE003A00
(1498257971.535636) can0 156#0000000000000028
(1498257971.535658) can0 3D1#FF1F0000FD000000
(1498257971.538623) can0 152#A99C000000000080
(1498257971.538654) can0 376#AD
(1498257971.555630) can0 156#0000000000000028
(1498257971.558628) can0 152#A9AC000000000080
(1498257971.575646) can0 156#0000000000000028
(1498257971.575668) can0 282#FE5300FEFE003A00
(1498257971.578626) can0 152#A1BC000000000080
(1498257971.588591) can0 376#AD
(1498257971.595613) can0 156#0000000000000028
(1498257971.598626) can0 152#A9CC000000000080
(1498257971.615632) can0 156#0000000000000028
(1498257971.618625) can0 152#A1DC000000000080
(1498257971.625540) can0 284#810E000E00700000
(1498257971.625577) can0 282#FE6300FEFE003A00
(1498257971.635546) can0 156#0000000000000028
(1498257971.635567) can0 3D1#FF1F0000FD000000
(1498257971.638572) can0 152#A1EC000000000080
(1498257971.638600) can0 376#AD
(1498257971.655562) can0 156#0000000000000028
(1498257971.658611) can0 152#A9FC000000000080
(1498257971.675623) can0 156#0000000000000028
(1498257971.675644) can0 282#FE7300FEFE003A00
(1498257971.678596) can0 152#A90C000000000080
(1498257971.688567) can0 376#AD
(1498257971.695626) can0 156#0000000000000028
(1498257971.698614) can0 152#A11C000000000080
(1498257971.715634) can0 156#0000000000000028
(1498257971.718624) can0 152#A12C000000000080
(1498257971.725647) can0 284#810F000E00700000
(1498257971.725677) can0 282#FE8300FEFE003A00
(1498257971.735633) can0 156#0000000000000028
(1498257971.735654) can0 3D1#FF1F0000FD000000
(1498257971.738650) can0 152#A93C000000000080
(1498257971.738680) can0 376#AD
(1498257971.738684) can0 660#FFFF0BAA000010A2
(1498257971.754631) can0 378#3100000000000000
(1498257971.755604) can0 156#0000000000000028
(1498257971.758621) can0 152#A14C000000000080
(1498257971.775643) can0 156#0000000000000028
(1498257971.775665) can0 282#FE9300FEFE003A00
(1498257971.778625) can0 152#A95C000000000080
(1498257971.788617) can0 376#AD
(1498257971.795632) can0 156#0000000000000028
(1498257971.798622) can0 152#A96C000000000080
(1498257971.815613) can0 156#0000000000000028
(1498257971.818624) can0 152#A17C000000000080
(1498257971.825560) can0 284#8100000E00700000
(1498257971.825597) can0 282#FEA300FEFE003A00
(1498257971.835545) can0 156#0000000000000028
(1498257971.836611) can0 3D1#FF1F0000FD000000
(1498257971.838610) can0 152#A18C000000000080
(1498257971.838640) can0 376#AD
(1498257971.855563) can0 156#0000000000000028
(1498257971.858599) can0 152#A99C000000000080
(1498257971.875539) can0 156#0000000000000028
(1498257971.875558) can0 282#FEB300FEFE003A00
(1498257971.878499) can0 152#A9AC000000000080
(1498257971.888487) can0 376#AD
(1498257971.895482) can0 156#0000000000000028
(1498257971.898477) can0 152#A1BC000000000080
(1498257971.915597) can0 156#0000000000000028
(1498257971.918618) can0 152#A9CC000000000080
(1498257971.925622) can0 284#8101000E00700000
(1498257971.925654) can0 282#FEC300FEFE003A00
(1498257971.935619) can0 156#0000000000000028
(1498257971.936600) can0 3D1#FF1F0000FD000000
(1498257971.938616) can0 152#A1DC000000000080
(1498257971.938647) can0 376#AD
(1498257971.955618) can0 156#0000000000000028
(1498257971.958608) can0 152#A1EC000000000080
(1498257971.975631) can0 156#0000000000000028
(1498257971.975655) can0 282#FED300FEFE003A00
(1498257971.978549) can0 152#A9FC000000000080
(1498257971.988613) can0 376#AD
(1498257971.995535) can0 156#0000000000000028
(1498257971.998626) can0 152#A90C000000000080
(1498257972.015549) can0 156#0000000000000028
(1498257972.018623) can0 152#A11C000000000080
(1498257972.025581) can0 284#8102000E00700000
(1498257972.025617) can0 282#FEE300FEFE003A00
(1498257972.035556) can0 156#0000000000000028
(1498257972.036620) can0 3D1#FF1F0000FD000000
(1498257972.038628) can0 152#A12C000000000080
(1498257972.038658) can0 376#AD
(1498257972.055564) can0 156#0000000000000028
(1498257972.058623) can0 152#A93C000000000080
(1498257972.075617) can0 156#0000000000000028
(1498257972.075637) can0 282#FEF300FEFE003A00
(1498257972.078611) can0 152#A14C000000000080
(1498257972.088591) can0 376#AD
(1498257972.095628) can0 156#0000000000000028
(1498257972.098620) can0 152#A95C000000000080
(1498257972.115631) can0 156#0000000000000028
(1498257972.118621) can0 152#A96C000000000080
(1498257972.125620) can0 284#8103000E00700000
(1498257972.125650) can0 282#FE0300FEFE003A00
(1498257972.135556) can0 156#0000000000000028
(1498257972.136534) can0 3D1#FF1F0000FD000000
(1498257972.138565) can0 152#A17C000000000080
(1498257972.138600) can0 376#AD
(1498257972.145628) can0 6D1#7835020000000000
(1498257972.155505) can0 156#0000000000000028
(1498257972.158637) can0 152#A18C000000000080
(1498257972.158669) can0 374#0800000000000000
(1498257972.175551) can0 156#0000000000000028
(1498257972.175573) can0 282#FE1300FEFE003A00
(1498257972.178625) can0 152#A99C000000000080
(1498257972.178654) can0 375#0300000120000000
(1498257972.188614) can0 376#AD
(1498257972.195628) can0 156#0000000000000028
(1498257972.198621) can0 152#A9AC000000000080
(1498257972.215630) can0 156#0000000000000028
(1498257972.218621) can0 152#A1BC000000000080
(1498257972.225558) can0 282#FE2300FEFE003A00
(1498257972.226522) can0 284#8104000E00700000
(1498257972.236628) can0 156#0000000000000028
(1498257972.236649) can0 3D1#FF1F0000FD000000
(1498257972.238642) can0 152#A9CC000000000080
(1498257972.238670) can0 376#AD
(1498257972.238674) can0 660#FFFF0BAA000010A7
(1498257972.255535) can0 156#0000000000000028
(1498257972.258619) can0 152#A1DC000000000080
(1498257972.275639) can0 156#0000000000000028
(1498257972.275660) can0 282#FE3300FEFE003A00
(1498257972.278622) can0 152#A1EC000000000080
(1498257972.288614) can0 376#AD
(1498257972.295617) can0 156#0000000000000028
(1498257972.298622) can0 152#A9FC000000000080
(1498257972.315608) can0 156#0000000000000028
(1498257972.318603) can0 152#A90C000000000080
(1498257972.325642) can0 282#FE4300FEFE003A00
(1498257972.325671) can0 284#8105000E00700000
(1498257972.336608) can0 156#0000000000000028
(1498257972.336629) can0 3D1#FF1F0000FD000000
(1498257972.338623) can0 152#A11C000000000080
(1498257972.338654) can0 376#AD
(1498257972.355629) can0 156#0000000000000028
(1498257972.358617) can0 152#A12C000000000080
(1498257972.375628) can0 156#0000000000000028
(1498257972.376585) can0 282#FE5300FEFE003A00
(1498257972.378624) can0 152#A93C000000000080
(1498257972.388609) can0 376#AD
(1498257972.395604) can0 156#0000000000000028
(1498257972.398619) can0 152#A14C000000000080
(1498257972.415628) can0 156#0000000000000028
(1498257972.418615) can0 152#A95C000000000080
(1498257972.425568) can0 282#FE6300FEFE003A00
(1498257972.426521) can0 284#8106000E00700000
(1498257972.436578) can0 156#0000000000000028
(1498257972.436599) can0 3D1#FF1F0000FD000000
(1498257972.438625) can0 152#A96C000000000080
(1498257972.438654) can0 376#AD
(1498257972.438659) can0 37A#0000000000100000
(1498257972.455542) can0 156#0000000000000028
(1498257972.458618) can0 152#A17C000000000080
(1498257972.475605) can0 156#0000000000000028
(1498257972.476611) can0 282#FE7300FEFE003A00
(1498257972.478617) can0 152#A18C000000000080
(1498257972.488616) can0 376#AD
(1498257972.495625) can0 156#0000000000000028
(1498257972.498618) can0 152#A99C000000000080
(1498257972.515627) can0 156#0000000000000028
(1498257972.518620) can0 152#A9AC000000000080
(1498257972.525629) can0 282#FE8300FEFE003A00
(1498257972.526587) can0 284#8107000E00700000
(1498257972.536636) can0 156#0000000000000028
(1498257972.536657) can0 3D1#FF1F0000FD000000
(1498257972.538625) can0 152#A1BC000000000080
(1498257972.538653) can0 376#AD
(1498257972.555603) can0 156#0000000000000028
(1498257972.558616) can0 152#A9CC000000000080
(1498257972.575628) can0 156#0000000000000028
(1498257972.576581) can0 282#FE9300FEFE003A00
(1498257972.578613) can0 152#A1DC000000000080
(1498257972.588573) can0 376#AD
(1498257972.595529) can0 156#0000000000000028
(1498257972.598504) can0 152#A1EC000000000080
(1498257972.615542) can0 156#0000000000000028
(1498257972.618617) can0 152#A9FC000000000080
(1498257972.625532) can0 282#FEA300FEFE003A00
(1498257972.626526) can0 284#8108000E00700000
(1498257972.636620) can0 156#0000000000000028
(1498257972.636639) can0 3D1#FF1F0000FD000000
(1498257972.638605) can0 152#A90C000000000080
(1498257972.638633) can0 376#AD
(1498257972.655553) can0 156#0000000000000028
(1498257972.658603) can0 152#A11C000000000080
(1498257972.675539) can0 156#0000000000000028
(1498257972.676612) can0 282#FEB300FEFE003A00
(1498257972.678586) can0 152#A12C000000000080
(1498257972.688603) can0 376#AD
(1498257972.695559) can0 156#0000000000000028
(1498257972.698619) can0 152#A93C000000000080
(1498257972.715535) can0 156#0000000000000028
(1498257972.718613) can0 152#A14C000000000080
(1498257972.725619) can0 282#FEC300FEFE003A00
(1498257972.726608) can0 284#8109000E00700000
(1498257972.736586) can0 156#0000000000000028
(1498257972.736609) can0 3D1#FF1F0000FD000000
(1498257972.738637) can0 152#A95C000000000080
(1498257972.738666) can0 376#AD
(1498257972.738670) can0 660#FFFF0BAA000010AC
(1498257972.754620) can0 378#4100000000000000
(1498257972.755615) can0 156#0000000000000028
(1498257972.758616) can0 152#A96C000000000080
(1498257972.775622) can0 156#0000000000000028
(1498257972.776617) can0 282#FED300FEFE003A00
(1498257972.778622) can0 152#A17C000000000080
(1498257972.788613) can0 376#AD
(1498257972.796601) can0 156#0000000000000028
(1498257972.798619) can0 152#A18C000000000080
(1498257972.816603) can0 156#0000000000000028
(1498257972.818621) can0 152#A99C000000000080
(1498257972.825621) can0 282#FEE300FEFE003A00
(1498257972.826550) can0 284#810A000E00700000
(1498257972.836594) can0 156#0000000000000028
(1498257972.836616) can0 3D1#FF1F0000FD000000
(1498257972.838623) can0 152#A9AC000000000080
(1498257972.838654) can0 376#AD
(1498257972.855576) can0 156#0000000000000028
(1498257972.858616) can0 152#A1BC000000000080
(1498257972.876604) can0 156#0000000000000028
(1498257972.876627) can0 282#FEF300FEFE003A00
(1498257972.878616) can0 152#A9CC000000000080
(1498257972.888611) can0 376#AD
(1498257972.896606) can0 156#0000000000000028
(1498257972.898619) can0 152#A1DC000000000080
(1498257972.916600) can0 156#0000000000000028
(1498257972.918603) can0 152#A1EC000000000080
(1498257972.926641) can0 282#FE0300FEFE003A00
(1498257972.926671) can0 284#810B000E00700000
(1498257972.936637) can0 156#0000000000000028
(1498257972.936660) can0 3D1#FF1F0000FD000000
(1498257972.938620) can0 152#A9FC000000000080
(1498257972.938649) can0 376#AD
(1498257972.956611) can0 156#0000000000000028
(1498257972.958610) can0 152#A90C000000000080
(1498257972.976637) can0 156#0000000000000028
(1498257972.976659) can0 282#FE1300FEFE003A00
(1498257972.978616) can0 152#A11C000000000080
(1498257972.988605) can0 376#AD
(1498257972.996607) can0 156#0000000000000028
(1498257972.998612) can0 152#A12C000000000080
(1498257973.016613) can0 156#0000000000000028
(1498257973.018603) can0 152#A93C000000000080
(1498257973.026576) can0 282#FE2300FEFE003A00
(1498257973.026612) can0 284#810C000E00700000
(1498257973.036615) can0 156#0000000000000028
(1498257973.036640) can0 3D1#FF1F0000FD000000
(1498257973.038631) can0 152#A14C000000000080
(1498257973.038664) can0 376#AD
(1498257973.056623) can0 156#0000000000000028
(1498257973.058591) can0 152#A95C000000000080
(1498257973.076626) can0 156#0000000000000028
(1498257973.076651) can0 282#FE3300FEFE003A00
(1498257973.078629) can0 152#A96C000000000080
(1498257973.088616) can0 376#AD
(1498257973.096627) can0 156#0000000000000028
(1498257973.098641) can0 152#A17C000000000080
(1498257973.098674) can0 374#0800000280000000
(1498257973.098680) can0 375#0302000320000000
(1498257973.116632) can0 156#0000000000000028
(1498257973.118621) can0 152#A18C000000000080
(1498257973.126576) can0 282#FE4300FEFE003A00
(1498257973.126608) can0 284#810D000E00700000
(1498257973.136561) can0 156#0000000000000028
(1498257973.136584) can0 3D1#FF1F0000FD000000
(1498257973.138558) can0 152#A99C000000000080
(1498257973.138589) can0 376#AD
(1498257973.156539) can0 156#0000000000000028
(1498257973.158625) can0 152#A9AC000000000080
(1498257973.176634) can0 156#0000000000000028
(1498257973.176659) can0 282#FE5300FEFE003A00
(1498257973.178626) can0 152#A1BC000000000080
(1498257973.188615) can0 376#AD
(1498257973.196627) can0 156#0000000000000028
(1498257973.198624) can0 152#A9CC000000000080
(1498257973.216620) can0 156#0000000000000028
(1498257973.218615) can0 152#A1DC000000000080
(1498257973.226572) can0 282#FE6300FEFE003A00
(1498257973.226603) can0 284#810E000E00700000
(1498257973.236633) can0 156#0000000000000028
(1498257973.236655) can0 3D1#FF1F0000FD000000
(1498257973.238628) can0 152#A1EC000000000080
(1498257973.238658) can0 376#AD
(1498257973.238665) can0 660#FFFF0BAA000010B1
(1498257973.256615) can0 156#0000000000000028
(1498257973.258611) can0 152#A9FC000000000080
(1498257973.276636) can0 156#0000000000000028
(1498257973.276658) can0 282#FE7300FEFE003A00
(1498257973.278613) can0 152#A90C000000000080
(1498257973.288602) can0 376#AD
(1498257973.296616) can0 156#0000000000000028
(1498257973.298614) can0 152#A11C000000000080
(1498257973.316622) can0 156#0000000000000028
(1498257973.318602) can0 152#A12C000000000080
(1498257973.326635) can0 282#FE8300FEFE003A00
(1498257973.326665) can0 284#810F000E00700000
(1498257973.336635) can0 156#0000000000000028
(1498257973.336657) can0 3D1#FF1F0000FD000000
(1498257973.338594) can0 152#A93C000000000080
(1498257973.338625) can0 376#AD
(1498257973.346614) can0 6D1#7835020000000000
(1498257973.356611) can0 156#0000000000000028
(1498257973.358604) can0 152#A14C000000000080
(1498257973.376642) can0 156#0000000000000028
(1498257973.376668) can0 282#FE9300FEFE003A00
(1498257973.378626) can0 152#A95C000000000080
(1498257973.388577) can0 376#AD
(1498257973.396578) can0 156#0000000000000028
(1498257973.398620) can0 152#A96C000000000080
(1498257973.416563) can0 156#0000000000000028
(1498257973.418622) can0 152#A17C000000000080
(1498257973.426553) can0 282#FEA300FEFE003A00
(1498257973.426589) can0 284#8100000E00700000
(1498257973.436566) can0 156#0000000000000028
(1498257973.436592) can0 3D1#FF1F0000FD000000
(1498257973.438592) can0 152#A18C000000000080
(1498257973.438624) can0 376#AD
(1498257973.439537) can0 37A#0000000000100000
(1498257973.456618) can0 156#0000000000000028
(1498257973.458621) can0 152#A99C000000000080
(1498257973.476632) can0 156#0000000000000028
(1498257973.476658) can0 282#FEB300FEFE003A00
(1498257973.478625) can0 152#A9AC000000000080
(1498257973.488551) can0 376#AD
(1498257973.496625) can0 156#0000000000000028
(1498257973.498623) can0 152#A1BC000000000080
(1498257973.516626) can0 156#0000000000000028
(1498257973.518612) can0 152#A9CC000000000080
(1498257973.526625) can0 282#FEC300FEFE003A00
(1498257973.526656) can0 284#8101000E00700000
(1498257973.536631) can0 156#0000000000000028
(1498257973.536658) can0 3D1#FF1F0000FD000000
(1498257973.538593) can0 152#A1DC000000000080
(1498257973.538626) can0 376#AD
(1498257973.556611) can0 156#0000000000000028
(1498257973.558621) can0 152#A1EC000000000080
(1498257973.576639) can0 156#0000000000000028
(1498257973.576665) can0 282#FED300FEFE003A00
(1498257973.578621) can0 152#A9FC000000000080
(1498257973.588615) can0 376#AD
(1498257973.596618) can0 156#0000000000000028
(1498257973.598623) can0 152#A90C000000000080
(1498257973.616630) can0 156#0000000000000028
(1498257973.618623) can0 152#A11C000000000080
(1498257973.626538) can0 282#FEE300FEFE003A00
(1498257973.627488) can0 284#8102000E00700000
(1498257973.636610) can0 156#0000000000000028
(1498257973.637603) can0 3D1#FF1F0000FD000000
(1498257973.638618) can0 152#A12C000000000080
(1498257973.638650) can0 376#AD
(1498257973.656617) can0 156#0000000000000028
(1498257973.658614) can0 152#A93C000000000080
(1498257973.676628) can0 156#0000000000000028
(1498257973.676654) can0 282#FEF300FEFE003A00
(1498257973.678533) can0 152#A14C000000000080
(1498257973.688603) can0 376#AD
(1498257973.696613) can0 156#0000000000000028
(1498257973.698608) can0 152#A95C000000000080
(1498257973.716614) can0 156#0000000000000028
(1498257973.718598) can0 152#A96C000000000080
(1498257973.726617) can0 282#FE0300FEFE003A00
(1498257973.727613) can0 284#8103000E00700000
(1498257973.736621) can0 156#0000000000000028
(1498257973.737598) can0 3D1#FF1F0000FD000000
(1498257973.738618) can0 152#A17C000000000080
(1498257973.738648) can0 376#AD
(1498257973.738652) can0 660#FFFF0BAA000010B6
(1498257973.754617) can0 378#5100000000000000
(1498257973.756611) can0 156#0000000000000028
(1498257973.758610) can0 152#A18C000000000080
(1498257973.776629) can0 156#0000000000000028
(1498257973.776652) can0 282#FE1300FEFE003A00
(1498257973.778610) can0 152#A99C000000000080
(1498257973.788611) can0 376#AD
(1498257973.796587) can0 156#0000000000000028
(1498257973.798544) can0 152#A9AC000000000080
(1498257973.816613) can0 156#0000000000000028
(1498257973.818612) can0 152#A1BC000000000080
(1498257973.826528) can0 282#FE2300FEFE003A00
(1498257973.827495) can0 284#8104000E00700000
(1498257973.836612) can0 156#0000000000000028
(1498257973.837609) can0 3D1#FF1F0000FD000000
(1498257973.838614) can0 152#A9CC000000000080
(1498257973.838645) can0 376#AD
(1498257973.856589) can0 156#0000000000000028
(1498257973.858608) can0 152#A1DC000000000080
(1498257973.876631) can0 156#0000000000000028
(1498257973.876656) can0 282#FE3300FEFE003A00
(1498257973.878597) can0 152#A1EC000000000080
(1498257973.888613) can0 376#AD
(1498257973.896539) can0 156#0000000000000028
(1498257973.898607) can0 152#A9FC000000000080
(1498257973.916624) can0 156#0000000000000028
(1498257973.918520) can0 152#A90C000000000080
(1498257973.926615) can0 282#FE4300FEFE003A00
(1498257973.927599) can0 284#8105000E00700000
(1498257973.936612) can0 156#0000000000000028
(1498257973.937576) can0 3D1#FF1F0000FD000000
(1498257973.938613) can0 152#A11C000000000080
(1498257973.938644) can0 376#AD
(1498257973.956614) can0 156#0000000000000028
(1498257973.958608) can0 152#A12C000000000080
(1498257973.976626) can0 156#0000000000000028
(1498257973.976649) can0 282#FE5300FEFE003A00
(1498257973.978610) can0 152#A93C000000000080
(1498257973.988604) can0 376#AD
(1498257973.996613) can0 156#0000000000000028
(1498257973.998611) can0 152#A14C000000000080
(1498257974.016572) can0 156#0000000000000028
(1498257974.018609) can0 152#A95C000000000080
(1498257974.026518) can0 282#FE6300FEFE003A00
(1498257974.027476) can0 284#8106000E00700000
(1498257974.037614) can0 156#0000000000000028
(1498257974.037637) can0 3D1#FF1F0000FD000000
(1498257974.038613) can0 152#A96C000000000080
(1498257974.038643) can0 376#AD
(1498257974.056602) can0 156#0000000000000028
(1498257974.058604) can0 152#A17C000000000080
(1498257974.076623) can0 156#0000000000000028
(1498257974.076645) can0 282#FE7300FEFE003A00
(1498257974.078607) can0 152#A18C000000000080
(1498257974.088605) can0 376#AD
(1498257974.096610) can0 156#0000000000000028
(1498257974.098598) can0 152#A99C000000000080
(1498257974.098629) can0 374#0800000280000000
(1498257974.098632) can0 375#0302000320000000
(1498257974.116607) can0 156#0000000000000028
(1498257974.118536) can0 152#A9AC000000000080
(1498257974.126615) can0 282#FE8300FEFE003A00
(1498257974.127593) can0 284#8107000E00700000
(1498257974.137584) can0 156#0000000000000028
(1498257974.137605) can0 3D1#FF1F0000FD000000
(1498257974.138545) can0 152#A1BC000000000080
(1498257974.138574) can0 376#AD
(1498257974.156539) can0 156#0000000000000028
(1498257974.158601) can0 152#A9CC000000000080
(1498257974.176623) can0 156#0000000000000028
(1498257974.176644) can0 282#FE9300FEFE003A00
(1498257974.178608) can0 152#A1DC000000000080
(1498257974.188603) can0 376#AD
(1498257974.196611) can0 156#0000000000000028
(1498257974.198609) can0 152#A1EC000000000080
(1498257974.216598) can0 156#0000000000000028
(1498257974.218619) can0 152#A9FC000000000080
(1498257974.226538) can0 282#FEA300FEFE003A00
(1498257974.227542) can0 284#8108000E00700000
(1498257974.237634) can0 156#0000000000000028
(1498257974.237658) can0 3D1#FF1F0000FD000000
(1498257974.238631) can0 152#A90C000000000080
(1498257974.238665) can0 376#AD
(1498257974.238669) can0 660#FFFF0BAA000010BB
(1498257974.256616) can0 156#0000000000000028
(1498257974.258618) can0 152#A11C000000000080
(1498257974.276622) can0 156#0000000000000028
(1498257974.277540) can0 282#FEB300FEFE003A00
(1498257974.278555) can0 152#A12C000000000080
(1498257974.288614) can0 376#AD
(1498257974.296620) can0 156#0000000000000028
(1498257974.298614) can0 152#A93C000000000080
(1498257974.316623) can0 156#0000000000000028
(1498257974.318552) can0 152#A14C000000000080
(1498257974.326599) can0 282#FEC300FEFE003A00
(1498257974.327572) can0 284#8109000E00700000
(1498257974.337616) can0 156#0000000000000028
(1498257974.337641) can0 3D1#FF1F0000FD000000
(1498257974.338602) can0 152#A95C000000000080
(1498257974.338633) can0 376#AD
(1498257974.356593) can0 156#0000000000000028
(1498257974.358592) can0 152#A96C000000000080
(1498257974.376601) can0 156#0000000000000028
(1498257974.377588) can0 282#FED300FEFE003A00
(1498257974.378594) can0 152#A17C000000000080
(1498257974.388584) can0 376#AD
(1498257974.396599) can0 156#0000000000000028
(1498257974.398560) can0 152#A18C000000000080
(1498257974.416529) can0 156#0000000000000028
(1498257974.418606) can0 152#A99C000000000080
(1498257974.426522) can0 282#FEE300FEFE003A00
(1498257974.428526) can0 284#810A000E00700000
(1498257974.437603) can0 156#0000000000000028
(1498257974.437624) can0 3D1#FF1F0000FD000000
(1498257974.438611) can0 152#A9AC000000000080
(1498257974.438641) can0 376#AD
(1498257974.441552) can0 37A#0000000000100000
(1498257974.456609) can0 156#0000000000000028
(1498257974.458601) can0 152#A1BC000000000080
(1498257974.476597) can0 156#0000000000000028
(1498257974.477599) can0 282#FEF300FEFE003A00
(1498257974.478604) can0 152#A9CC000000000080
(1498257974.488604) can0 376#AD
(1498257974.496608) can0 156#0000000000000028
(1498257974.498518) can0 152#A1DC000000000080
(1498257974.516608) can0 156#0000000000000028
(1498257974.518518) can0 152#A1EC000000000080
(1498257974.526609) can0 282#FE0300FEFE003A00
(1498257974.527604) can0 284#810B000E00700000
(1498257974.537625) can0 156#0000000000000028
(1498257974.537647) can0 3D1#FF1F0000FD000000
(1498257974.538597) can0 152#A9FC000000000080
(1498257974.538628) can0 376#AD
(1498257974.547605) can0 6D1#7835020000000000
(1498257974.557503) can0 156#0000000000000028
(1498257974.558487) can0 152#A90C000000000080
(1498257974.576509) can0 156#0000000000000028
(1498257974.577460) can0 282#FE1300FEFE003A00
(1498257974.578536) can0 152#A11C000000000080
(1498257974.588501) can0 376#AD
(1498257974.597494) can0 156#0000000000000028
(1498257974.598504) can0 152#A12C000000000080
(1498257974.616593) can0 156#0000000000000028
(1498257974.618528) can0 152#A93C000000000080
(1498257974.626590) can0 282#FE2300FEFE003A00
(1498257974.627653) can0 284#810C000E00700000
(1498257974.637606) can0 156#0000000000000028
(1498257974.637630) can0 3D1#FF1F0000FD000000
(1498257974.638593) can0 152#A14C000000000080
(1498257974.638632) can0 376#AD
(1498257974.657556) can0 156#0000000000000028
(1498257974.658578) can0 152#A95C000000000080
(1498257974.677595) can0 156#0000000000000028
(1498257974.677623) can0 282#FE3300FEFE003A00
(1498257974.678608) can0 152#A96C000000000080
(1498257974.688592) can0 376#AD
(1498257974.697592) can0 156#0000000000000028
(1498257974.698595) can0 152#A17C000000000080
(1498257974.717590) can0 156#0000000000000028
(1498257974.718592) can0 152#A18C000000000080
(1498257974.727596) can0 282#FE4300FEFE003A00
(1498257974.728627) can0 284#810D000E00700000
(1498257974.728657) can0 374#0800000000000000
(1498257974.728661) can0 375#0300000720000000
(1498257974.737613) can0 156#0000000000000028
(1498257974.738629) can0 3D1#FF1F0000FD000000
(1498257974.738652) can0 152#A99C000000000080
(1498257974.738665) can0 376#AD
(1498257974.738669) can0 660#FFFF0BAA000010C0
(1498257974.748611) can0 375#0300000220000000
(1498257974.754589) can0 378#6100000000000000
(1498257974.757588) can0 156#0000000000000028
(1498257974.758601) can0 152#A9AC000000000080
(1498257974.777622) can0 156#0000000000000028
(1498257974.777644) can0 282#FE5300FEFE003A00
(1498257974.778594) can0 152#A1BC000000000080
(1498257974.788592) can0 376#AD
(1498257974.797607) can0 156#0000000000000028
(1498257974.798604) can0 152#A9CC000000000080
(1498257974.817610) can0 156#0000000000000028
(1498257974.818601) can0 152#A1DC000000000080
(1498257974.827486) can0 282#FE6300FEFE003A00
(1498257974.828522) can0 284#810E000E00700000
(1498257974.837620) can0 156#0000000000000028
(1498257974.837641) can0 3D1#FF1F0000FD000000
(1498257974.838553) can0 152#A1EC000000000080
(1498257974.838578) can0 376#AD
(1498257974.857612) can0 156#0000000000000028
(1498257974.858543) can0 152#A9FC000000000080
(1498257974.877619) can0 156#0000000000000028
(1498257974.877641) can0 282#FE7300FEFE003A00
(1498257974.878601) can0 152#A90C000000000080
(1498257974.888602) can0 376#AD
(1498257974.897607) can0 156#0000000000000028
(1498257974.898571) can0 152#A11C000000000080
(1498257974.917598) can0 156#0000000000000028
(1498257974.918602) can0 152#A12C000000000080
(1498257974.927610) can0 282#FE8300FEFE003A00
(1498257974.928600) can0 284#810F000E00700000
(1498257974.937624) can0 156#0000000000000028
(1498257974.937646) can0 3D1#FF1F0000FD000000
(1498257974.938589) can0 152#A93C000000000080
(1498257974.938620) can0 376#AD
(1498257974.957608) can0 156#0000000000000028
(1498257974.958577) can0 152#A14C000000000080
(1498257974.977622) can0 156#0000000000000028
(1498257974.977643) can0 282#FE9300FEFE003A00
(1498257974.978595) can0 152#A95C000000000080
(1498257974.988525) can0 376#AD
(1498257974.993596) can0 284#8100010E00700000
(1498257974.997609) can0 156#0000000000000028
(1498257974.998508) can0 152#A96C000000000080
(1498257975.007558) can0 37A#6300000000100000
(1498257975.017607) can0 156#0000000000000028
(1498257975.018589) can0 152#A17C000000000080
(1498257975.027520) can0 282#FEA300FEFE003A00
(1498257975.037614) can0 156#0000000000000028
(1498257975.037635) can0 3D1#FF1F0000FD000000
(1498257975.038605) can0 152#A18C000000000080
(1498257975.038635) can0 376#AD
(1498257975.057601) can0 156#0000000000000028
(1498257975.058599) can0 152#A99C000000000080
(1498257975.077622) can0 156#0000000000000028
(1498257975.077643) can0 282#FEB300FEFE003A00
(1498257975.078594) can0 152#A9AC000000000080
(1498257975.088599) can0 376#AD
(1498257975.093601) can0 284#8101000E00700000
(1498257975.097591) can0 156#0000000000000028
(1498257975.098603) can0 152#A1BC000000000080
(1498257975.117606) can0 156#0000000000000028
(1498257975.118596) can0 152#A9CC000000000080
(1498257975.127608) can0 282#FEC300FEFE003A00
(1498257975.137522) can0 156#0000000000000028
(1498257975.137544) can0 3D1#FF1F0000FD000000
(1498257975.138517) can0 152#A1DC000000000080
(1498257975.138535) can0 376#AD
(1498257975.157536) can0 156#0000000000000028
(1498257975.158555) can0 152#A1EC000000000080
(1498257975.177613) can0 156#0000000000000028
(1498257975.177634) can0 282#FED300FEFE003A00
(1498257975.178599) can0 152#A9FC000000000080
(1498257975.188595) can0 376#AD
(1498257975.193597) can0 284#8102000E00700000
(1498257975.197588) can0 156#0000000000000028
(1498257975.198599) can0 152#A90C000000000080
(1498257975.217605) can0 156#0000000000000028
(1498257975.218587) can0 152#A11C000000000080
(1498257975.227505) can0 282#FEE300FEFE003A00
(1498257975.237616) can0 156#0000000000000028
(1498257975.237639) can0 3D1#FF1F0000FD000000
