(1498256920.791686) can0 371#FFFF0000802D0000
(1498256920.793720) can0 140#0000004000001600
(1498256920.793734) can0 141#5626722700803F00
(1498256920.793737) can0 144#C000067C5024A000
(1498256920.796714) can0 156#0100000000000028
(1498256920.796724) can0 282#8A90008282013A00
(1498256920.799710) can0 002#00477005BC000000
(1498256920.800737) can0 152#E11C000000000880
(1498256920.803724) can0 140#0001004000001600
(1498256920.803734) can0 141#5626722700803F00
(1498256920.805743) can0 0D0#DCFF000000000000
(1498256920.805754) can0 0D1#00000080
(1498256920.805757) can0 0D2#0000FFFF10000000
(1498256920.806743) can0 0D3#0046C04E000082
(1498256920.806749) can0 0D4#0000000000000000
(1498256920.808722) can0 280#000A180000000000
(1498256920.809778) can0 002#00477007BE000000
(1498256920.811742) can0 371#FFFF0000802C0000
(1498256920.812809) can0 140#0002004000001600
(1498256920.813756) can0 141#5626722700803F00
(1498256920.813772) can0 144#C000067C5024A000
(1498256920.816716) can0 156#0100000000000028
(1498256920.819779) can0 002#00477009C0000000
(1498256920.820817) can0 152#E12C000000000880
(1498256920.820833) can0 376#AD
(1498256920.823783) can0 140#0003004000001600
(1498256920.823799) can0 141#5626722700803F00
(1498256920.823803) can0 360#000045462F000100
(1498256920.823805) can0 361#00013DD167000000
(1498256920.823806) can0 362#E07189BE7561BE04
(1498256920.825837) can0 0D0#DCFF000000000000
(1498256920.825855) can0 0D1#00000080
(1498256920.825857) can0 0D2#0000FFFF10000000
(1498256920.826805) can0 0D3#8046C04E000083
(1498256920.826827) can0 0D4#0000000000000000
(1498256920.828823) can0 280#000B180000000000
(1498256920.828841) can0 25C#2500000000000000
(1498256920.829793) can0 002#0047700BC2000000
(1498256920.831780) can0 371#FFFF0000802C0000
(1498256920.833833) can0 140#0004004000001600
(1498256920.833854) can0 141#5626722700803F00
(1498256920.833856) can0 144#C000067C5024A000
(1498256920.835744) can0 370#FFFF2001800C0000
(1498256920.835913) can0 156#0100000000000028
(1498256920.839744) can0 002#0047700DC4000000
(1498256920.840798) can0 152#E93C000000000880
(1498256920.843791) can0 140#0005004000001600
(1498256920.843812) can0 141#5626722700803F00
(1498256920.845831) can0 0D0#DCFF000000000000
(1498256920.845852) can0 0D1#00000080
(1498256920.845856) can0 0D2#0000FFFF10000000
(1498256920.846805) can0 0D3#0046C04E000084
(1498256920.846825) can0 0D4#0000000000000000
(1498256920.846828) can0 282#89A0008282013A00
(1498256920.848800) can0 280#000C180000000000
(1498256920.849809) can0 002#0047700FC6000000
(1498256920.851744) can0 371#FFFF0000802C0000
(1498256920.852806) can0 140#0006004000001600
(1498256920.853821) can0 141#5626722700803F00
(1498256920.853842) can0 144#C000067C5024A000
(1498256920.854786) can0 372#0098000000000000
(1498256920.856825) can0 156#0100000000000028
(1498256920.856845) can0 3D1#9A100000FD000000
(1498256920.859734) can0 002#00477001B8000000
(1498256920.860824) can0 152#E14C000000000880
(1498256920.860845) can0 284#C105000E00000000
(1498256920.862734) can0 140#0007004000001600
(1498256920.863723) can0 141#5626722700803F00
(1498256920.865836) can0 0D0#DCFF000000000000
(1498256920.865858) can0 0D1#00000080
(1498256920.865861) can0 0D2#0000FFFF10000000
(1498256920.866815) can0 0D3#8046C04E000085
(1498256920.866837) can0 0D4#0000000000000000
(1498256920.868813) can0 280#000D180000000000
(1498256920.869822) can0 002#00477003BA000000
(1498256920.870806) can0 376#AD
(1498256920.871753) can0 371#FFFF0000802C0000
(1498256920.873914) can0 140#0008004000001600
(1498256920.873936) can0 141#5626722700803F00
(1498256920.873939) can0 144#C000067C5024A000
(1498256920.873941) can0 360#000045462F000100
(1498256920.873943) can0 361#00013DD168000000
(1498256920.874797) can0 362#E07189BE7561BE04
(1498256920.876763) can0 156#0100000000000028
(1498256920.879754) can0 002#00477005BC000000
(1498256920.880819) can0 152#E95C000000000880
(1498256920.883848) can0 140#0009004000001600
(1498256920.883870) can0 141#5626722700803F00
(1498256920.883873) can0 370#FFFF2001800D0000
(1498256920.885841) can0 0D0#DCFF000000000000
(1498256920.885865) can0 0D1#00000080
(1498256920.885868) can0 0D2#0000FFFF10000000
(1498256920.886810) can0 0D3#8046C04E000086
(1498256920.886832) can0 0D4#0000000000000000
(1498256920.888793) can0 280#000E180000000000
(1498256920.888815) can0 25C#2600000000000000
(1498256920.889822) can0 002#00477007BE000000
(1498256920.891816) can0 371#FFFF0000802D0000
(1498256920.892820) can0 140#000A004000001600
(1498256920.893818) can0 141#5626722700803F00
(1498256920.893840) can0 144#C000067C5024A000
(1498256920.896841) can0 156#0100000000000028
(1498256920.896864) can0 282#89B0008282013A00
(1498256920.899793) can0 002#00477009C0000000
(1498256920.900796) can0 152#E96C000000000880
(1498256920.902826) can0 140#000B004000001600
(1498256920.903805) can0 141#5626722700803F00
(1498256920.905851) can0 0D0#DCFF000000000000
(1498256920.905873) can0 0D1#00000080
(1498256920.905876) can0 0D2#0000FFFF10000000
(1498256920.906831) can0 0D3#0046C04E000087
(1498256920.906853) can0 0D4#0000000000000000
(1498256920.908812) can0 280#000F180000000000
(1498256920.909821) can0 002#0047700BC2000000
(1498256920.911830) can0 371#FFFF0000802C0000
(1498256920.912822) can0 140#000C004000001600
(1498256920.913817) can0 141#5626722700803F00
(1498256920.913840) can0 144#C000067C5024A000
(1498256920.916816) can0 156#0100000000000028
(1498256920.919739) can0 002#0047700DC4000000
(1498256920.920723) can0 152#E17C000000000880
(1498256920.920737) can0 376#AD
(1498256920.922777) can0 140#000D004000001600
(1498256920.923833) can0 141#5626722700803F00
(1498256920.923855) can0 360#000045462F000100
(1498256920.923858) can0 361#00013DD169000000
(1498256920.923860) can0 362#E07189BE7561BE04
(1498256920.925851) can0 0D0#DCFF000000000000
(1498256920.925873) can0 0D1#00000080
(1498256920.925876) can0 0D2#0000FFFF10000000
(1498256920.926826) can0 0D3#0046C04E000088
(1498256920.926848) can0 0D4#0000000000000000
(1498256920.928813) can0 280#0000180000000000
(1498256920.929800) can0 002#0047700FC6000000
(1498256920.931846) can0 370#FFFF2001800E0000
(1498256920.931869) can0 371#FFFF0000802C0000
(1498256920.932805) can0 140#000E004000001600
(1498256920.933786) can0 141#5626722700803F00
(1498256920.933804) can0 144#C000067C5024A000
(1498256920.936827) can0 156#0100000000000028
(1498256920.939831) can0 002#00477001B8000000
(1498256920.940840) can0 152#E18C000000000880
(1498256920.940863) can0 374#0808000080000000
(1498256920.942831) can0 140#000F004000001600
(1498256920.943822) can0 141#5626722700803F00
(1498256920.945850) can0 0D0#DCFF000000000000
(1498256920.945872) can0 0D1#00000080
(1498256920.945875) can0 0D2#0000FFFF10000000
(1498256920.946799) can0 0D3#8046C04E000089
(1498256920.946822) can0 0D4#0000000000000000
(1498256920.946825) can0 282#89C0008282013A00
(1498256920.948810) can0 280#0001180000000000
(1498256920.948833) can0 25C#A700000000000000
(1498256920.949824) can0 002#00477003BA000000
(1498256920.951833) can0 371#FFFF0000802D0000
(1498256920.952816) can0 140#0000004000001600
(1498256920.953801) can0 141#5626722700803F00
(1498256920.953818) can0 144#C000067C5024A000
(1498256920.954808) can0 372#00A8000000000000
(1498256920.956849) can0 156#0100000000000028
(1498256920.956872) can0 3D1#9B100000FD000000
(1498256920.959835) can0 002#00477005BC000000
(1498256920.960838) can0 152#E99C000000000880
(1498256920.960862) can0 284#C106000E00000000
(1498256920.962801) can0 140#0001004000001600
(1498256920.963827) can0 141#5626722700803F00
(1498256920.965827) can0 0D0#DCFF000000000000
(1498256920.965851) can0 0D1#00000080
(1498256920.965854) can0 0D2#0000FFFF10000000
(1498256920.966766) can0 0D3#8046C04E00008A
(1498256920.966789) can0 0D4#0000000000000000
(1498256920.968813) can0 280#0002180000000000
(1498256920.969824) can0 002#00477007BE000000
(1498256920.970812) can0 376#AD
(1498256920.971833) can0 371#FFFF0000802D0000
(1498256920.972811) can0 140#0002004000001600
(1498256920.972833) can0 141#5626722700803F00
(1498256920.973851) can0 144#C000067C5024A000
(1498256920.973874) can0 360#000045462F000100
(1498256920.973876) can0 361#00013DD16A000000
(1498256920.973878) can0 362#DF7189BE7561BE04
(1498256920.976829) can0 156#0100000000000028
(1498256920.979753) can0 370#FFFF2001800F0000
(1498256920.979774) can0 002#00477009C0000000
(1498256920.980835) can0 152#E9AC000000000880
(1498256920.980858) can0 37A#0000000000040000
(1498256920.983801) can0 140#0003004000001600
(1498256920.983828) can0 141#5626722700803F00
(1498256920.985847) can0 0D0#DCFF000000000000
(1498256920.985869) can0 0D1#00000080
(1498256920.985872) can0 0D2#0000FFFF10000000
(1498256920.986796) can0 0D3#0046C04E00008B
(1498256920.986819) can0 0D4#0000000000000000
(1498256920.988789) can0 280#0003180000000000
(1498256920.989824) can0 002#0047700BC2000000
(1498256920.991831) can0 371#FFFF0000802C0000
(1498256920.992828) can0 140#0004004000001600
(1498256920.993813) can0 141#5626722700803F00
(1498256920.993835) can0 144#C000067C5024A000
(1498256920.996849) can0 156#0100000000000028
(1498256920.996872) can0 282#89D0008282013A00
(1498256920.999834) can0 002#0047700DC4000000
(1498256921.000826) can0 152#E1BC000000000880
(1498256921.002821) can0 140#0005004000001600
(1498256921.003798) can0 141#5626722700803F00
(1498256921.005843) can0 0D0#DCFF000000000000
(1498256921.005867) can0 0D1#00000080
(1498256921.005870) can0 0D2#0000FFFF10000000
(1498256921.006838) can0 0D3#8046C04E00008C
(1498256921.006862) can0 0D4#0000000000000000
(1498256921.008838) can0 280#0004180000000000
(1498256921.008860) can0 25C#2000000000000000
(1498256921.009831) can0 002#0047700FC6000000
(1498256921.011832) can0 371#FFFF0000802D0000
(1498256921.012839) can0 140#0006004000001600
(1498256921.012863) can0 141#5626722700803F00
(1498256921.013821) can0 144#C000067C5024A000
(1498256921.016830) can0 156#0100000000000028
(1498256921.019833) can0 002#00477001B8000000
(1498256921.020834) can0 152#E9CC000000000880
(1498256921.020856) can0 376#AD
(1498256921.022832) can0 140#0007004000001600
(1498256921.022855) can0 141#5626712700803F00
(1498256921.023891) can0 360#000045462F000100
(1498256921.023913) can0 361#00013DD16B000000
(1498256921.023916) can0 362#DF7189BE7561BE04
(1498256921.025843) can0 0D0#DCFF000000000000
(1498256921.025867) can0 0D1#00000080
(1498256921.025870) can0 0D2#0000FFFF10000000
(1498256921.026818) can0 0D3#0046C04E00008D
(1498256921.026840) can0 0D4#0000000000000000
(1498256921.027794) can0 370#FFFF200180000000
(1498256921.028816) can0 280#0005180000000000
(1498256921.029807) can0 002#00477003BA000000
(1498256921.031829) can0 371#FFFF0000802D0000
(1498256921.032803) can0 140#0008004000001600
(1498256921.033796) can0 141#5626722700803F00
(1498256921.033812) can0 144#C000067C5024A000
(1498256921.036833) can0 156#0100000000000028
(1498256921.039812) can0 002#00477005BC000000
(1498256921.040809) can0 152#E1DC000000000880
(1498256921.042810) can0 140#0009004000001600
(1498256921.042829) can0 141#5626722700803F00
(1498256921.045848) can0 0D0#DCFF000000000000
(1498256921.045869) can0 0D1#00000080
(1498256921.045872) can0 0D2#0000FFFF10000000
(1498256921.046788) can0 0D3#0046C04E00008E
(1498256921.046809) can0 0D4#0000000000000000
(1498256921.046812) can0 282#88E0008282013A00
(1498256921.048812) can0 280#0006180000000000
(1498256921.049817) can0 002#00477007BE000000
(1498256921.051757) can0 371#FFFF0000802D0000
(1498256921.052742) can0 140#000A004000001600
(1498256921.052765) can0 141#5626722700803F00
(1498256921.053800) can0 144#C000067C5024A000
(1498256921.054749) can0 372#00B0000000000000
(1498256921.056838) can0 156#0100000000000028
(1498256921.056858) can0 3D1#9B100000FD000000
(1498256921.059815) can0 002#00477009C0000000
(1498256921.060829) can0 152#E1EC000000000880
(1498256921.060849) can0 284#C107000E00000000
(1498256921.062832) can0 140#000B004000001600
(1498256921.062852) can0 141#5626722700803F00
(1498256921.065830) can0 0D0#DCFF000000000000
(1498256921.065850) can0 0D1#00000080
(1498256921.065852) can0 0D2#0000FFFF10000000
(1498256921.066781) can0 0D3#8046C04E00008F
(1498256921.066800) can0 0D4#0000000000000000
(1498256921.068783) can0 280#0007180000000000
(1498256921.068802) can0 25C#A100000000000000
(1498256921.069777) can0 002#0047700BC2000000
(1498256921.070806) can0 376#AD
(1498256921.071822) can0 371#FFFF0000802C0000
(1498256921.072806) can0 140#000C004000001600
(1498256921.073839) can0 141#5626722700803F00
(1498256921.073859) can0 144#C000067C5024A000
(1498256921.073862) can0 360#000045462F000100
(1498256921.073864) can0 361#00013DD16C000000
(1498256921.073866) can0 362#DD7189BE7561BE04
(1498256921.075823) can0 370#FFFF200180010000
(1498256921.076816) can0 156#0100000000000028
(1498256921.079822) can0 002#0047700DC4000000
(1498256921.080816) can0 152#E9FC000000000880
(1498256921.082813) can0 140#000D004000001600
(1498256921.083754) can0 141#5626722700803F00
(1498256921.085842) can0 0D0#DCFF000000000000
(1498256921.085865) can0 0D1#00000080
(1498256921.085868) can0 0D2#0000FFFF10000000
(1498256921.086813) can0 0D3#0046C04E000090
(1498256921.086832) can0 0D4#0000000000000000
(1498256921.088813) can0 280#0008180000000000
(1498256921.089819) can0 002#0047700FC6000000
(1498256921.091827) can0 371#FFFF0000802C0000
(1498256921.092790) can0 140#000E004000001600
(1498256921.092806) can0 141#5626722700803F00
(1498256921.092826) can0 144#C000067C5024A000
(1498256921.096839) can0 156#0100000000000028
(1498256921.096858) can0 282#88F0008282013A00
(1498256921.099805) can0 002#00477001B8000000
(1498256921.100791) can0 152#E90C000000000880
(1498256921.102802) can0 140#000F004000001600
(1498256921.102822) can0 141#5626722700803F00
(1498256921.105852) can0 0D0#DCFF000000000000
(1498256921.105877) can0 0D1#00000080
(1498256921.105881) can0 0D2#0000FFFF10000000
(1498256921.105932) can0 0D3#8046C04E000091
(1498256921.106790) can0 0D4#0000000000000000
(1498256921.108811) can0 280#0009180000000000
(1498256921.109814) can0 002#00477003BA000000
(1498256921.111825) can0 371#FFFF0000802D0000
(1498256921.112804) can0 140#0000004000001600
(1498256921.112824) can0 141#5626722700803F00
(1498256921.113812) can0 144#C000067C5024A000
(1498256921.116800) can0 156#0100000000000028
(1498256921.119826) can0 002#00477005BC000000
(1498256921.120819) can0 152#E11C000000000880
(1498256921.120839) can0 376#AD
(1498256921.122825) can0 140#0001004000001600
(1498256921.122851) can0 141#5626722700803F00
(1498256921.123891) can0 360#000045462F000100
(1498256921.123911) can0 361#00013DD16D000000
(1498256921.123914) can0 362#DD7189BE7561BE04
(1498256921.123916) can0 370#FFFF200180020000
(1498256921.125846) can0 0D0#DCFF000000000000
(1498256921.125865) can0 0D1#00000080
(1498256921.125868) can0 0D2#0000FFFF10000000
(1498256921.126803) can0 0D3#8046C04E000092
(1498256921.126823) can0 0D4#0000000000000000
(1498256921.128824) can0 280#000A180000000000
(1498256921.128843) can0 25C#A200000000000000
(1498256921.129817) can0 002#00477007BE000000
(1498256921.131816) can0 371#FFFF0000802C0000
(1498256921.132839) can0 140#0002004000001600
(1498256921.132859) can0 141#5626722700803F00
(1498256921.133729) can0 144#C000067C5024A000
(1498256921.136741) can0 156#0100000000000028
(1498256921.139755) can0 002#00477009C0000000
(1498256921.140726) can0 152#E12C000000000880
(1498256921.142829) can0 140#0003004000001600
(1498256921.142849) can0 141#5626722700803F00
(1498256921.145837) can0 0D0#DCFF000000000000
(1498256921.145856) can0 0D1#00000080
(1498256921.145858) can0 0D2#0000FFFF10000000
(1498256921.146803) can0 0D3#0046C04E000093
(1498256921.146822) can0 0D4#0000000000000000
(1498256921.146825) can0 282#8900008282013A00
(1498256921.148832) can0 280#000B180000000000
(1498256921.148851) can0 281#0000FCFC40000000
(1498256921.149817) can0 002#0047700BC2000000
(1498256921.150818) can0 6C8#4000000000000000
(1498256921.151789) can0 371#FFFF0000802C0000
(1498256921.152832) can0 140#0004004000001600
(1498256921.152851) can0 141#5626722700803F00
(1498256921.153808) can0 144#C000067C5024A000
(1498256921.154719) can0 372#00C8000000000000
(1498256921.156734) can0 156#0100000000000028
(1498256921.156763) can0 3D1#9B100000FD000000
(1498256921.159747) can0 002#0047700DC4000000
(1498256921.160830) can0 152#E93C000000000880
(1498256921.160849) can0 284#C108000E00000000
(1498256921.162827) can0 140#0005004000001600
(1498256921.162846) can0 141#5626722700803F00
(1498256921.165846) can0 0D0#DCFF000000000000
(1498256921.165865) can0 0D1#00000080
(1498256921.165868) can0 0D2#0000FFFF10000000
(1498256921.166823) can0 0D3#8046C04E000094
(1498256921.166844) can0 0D4#0000000000000000
(1498256921.168752) can0 280#000C180000000000
(1498256921.169748) can0 002#0047700FC6000000
(1498256921.170763) can0 376#AD
(1498256921.171776) can0 370#FFFF200180030000
(1498256921.171794) can0 371#FFFF0000802C0000
(1498256921.172837) can0 140#0006004000001600
(1498256921.172856) can0 141#5626722700803F00
(1498256921.172858) can0 144#C000067C5024A000
(1498256921.173876) can0 360#000045462F000100
(1498256921.173896) can0 361#00013DD16E000000
(1498256921.173898) can0 362#DD7189BE7561BE04
(1498256921.176815) can0 156#0100000000000028
(1498256921.179750) can0 002#00477001B8000000
(1498256921.180808) can0 152#E14C000000000880
(1498256921.182827) can0 140#0007004000001600
(1498256921.182846) can0 141#5626722700803F00
(1498256921.185847) can0 0D0#DCFF000000000000
(1498256921.185866) can0 0D1#00000080
(1498256921.185868) can0 0D2#0000FFFF10000000
(1498256921.186778) can0 0D3#0046C04E000095
(1498256921.186797) can0 0D4#0000000000000000
(1498256921.188832) can0 280#000D180000000000
(1498256921.188851) can0 25C#2300000000000000
(1498256921.189817) can0 002#00477003BA000000
(1498256921.191817) can0 371#FFFF0000802D0000
(1498256921.192747) can0 140#0008004000001600
(1498256921.192771) can0 141#5626722700803F00
(1498256921.192890) can0 144#C000067C5024A000
(1498256921.196838) can0 156#0100000000000028
(1498256921.196857) can0 282#8910008282013A00
(1498256921.199823) can0 002#00477005BC000000
(1498256921.200801) can0 152#E95C000000000880
(1498256921.202809) can0 140#0009004000001600
(1498256921.202828) can0 141#5626722700803F00
(1498256921.205850) can0 0D0#DCFF000000000000
(1498256921.205868) can0 0D1#00000080
(1498256921.205871) can0 0D2#0000FFFF10000000
(1498256921.206800) can0 0D3#0046C04E000096
(1498256921.206819) can0 0D4#0000000000000000
(1498256921.208824) can0 280#000E180000000000
(1498256921.209816) can0 002#00477007BE000000
(1498256921.211825) can0 371#FFFF0000802D0000
(1498256921.212800) can0 140#000A004000001600
(1498256921.212820) can0 141#5626722700803F00
(1498256921.212822) can0 144#C000067C5024A000
(1498256921.216822) can0 156#0100000000000028
(1498256921.219837) can0 370#FFFF200180040000
(1498256921.219857) can0 002#00477009C0000000
(1498256921.220818) can0 152#E96C000000000880
(1498256921.220838) can0 376#AD
(1498256921.220841) can0 660#FFFF0BA9000008EC
(1498256921.222845) can0 140#000B004000001600
(1498256921.222864) can0 141#5626722700803F00
(1498256921.222867) can0 360#000045462F000100
(1498256921.223826) can0 361#00013DD16F000000
(1498256921.223845) can0 362#DD7189BE7561BE04
(1498256921.225844) can0 0D0#DCFF000000000000
(1498256921.225863) can0 0D1#00000080
(1498256921.225865) can0 0D2#0000FFFF10000000
(1498256921.226823) can0 0D3#8046C04E000097
(1498256921.226842) can0 0D4#0000000000000000
(1498256921.228818) can0 280#000F180000000000
(1498256921.229801) can0 002#0047700BC2000000
(1498256921.231746) can0 371#FFFF0000802C0000
(1498256921.232836) can0 140#000C004000001600
(1498256921.232855) can0 141#5626722700803F00
(1498256921.233701) can0 144#C000067C5024A000
(1498256921.236821) can0 156#0100000000000028
(1498256921.239802) can0 002#0047700DC4000000
(1498256921.240817) can0 152#E17C000000000880
(1498256921.242829) can0 140#000D004000001600
(1498256921.242849) can0 141#5626722700803F00
(1498256921.245776) can0 0D0#DCFF000000000000
(1498256921.245796) can0 0D1#00000080
(1498256921.245798) can0 0D2#0000FFFF10000000
(1498256921.246797) can0 0D3#8046C04E000098
(1498256921.246816) can0 0D4#0000000000000000
(1498256921.246819) can0 282#8A20008282013A00
(1498256921.248833) can0 280#0000180000000000
(1498256921.248851) can0 25C#A400000000000000
(1498256921.249801) can0 002#0047700FC6000000
(1498256921.251814) can0 371#FFFF0000802D0000
(1498256921.252880) can0 140#000E004000001600
(1498256921.252898) can0 141#5626722700803F00
(1498256921.252901) can0 144#C000067C5024A000
(1498256921.254816) can0 372#00D0000000000000
(1498256921.256804) can0 156#0100000000000028
(1498256921.256823) can0 3D1#9B100000FD000000
(1498256921.259820) can0 002#00477001B8000000
(1498256921.260829) can0 152#E18C000000000880
(1498256921.260848) can0 284#C109000E00000000
(1498256921.262727) can0 140#000F004000001600
(1498256921.262752) can0 141#5626712700803F00
(1498256921.265848) can0 0D0#DCFF000000000000
(1498256921.265868) can0 0D1#00000080
(1498256921.265871) can0 0D2#0000FFFF10000000
(1498256921.266799) can0 0D3#0046C04E000099
(1498256921.266818) can0 0D4#0000000000000000
(1498256921.267807) can0 370#FFFF200180050000
(1498256921.268740) can0 280#0001180000000000
(1498256921.269814) can0 002#00477003BA000000
(1498256921.270733) can0 376#AD
(1498256921.271815) can0 371#FFFF0000802D0000
(1498256921.272822) can0 140#0000004000001600
(1498256921.272844) can0 141#5626722700803F00
(1498256921.272847) can0 144#C000067C5024A000
(1498256921.273877) can0 360#000045462F000100
(1498256921.273899) can0 361#00013DD160000000
(1498256921.273901) can0 362#DC7189BE7561BE04
(1498256921.276817) can0 156#0100000000000028
(1498256921.279816) can0 002#00477005BC000000
(1498256921.280813) can0 152#E99C000000000880
(1498256921.282809) can0 140#0001004000001600
(1498256921.282829) can0 141#5626722700803F00
(1498256921.285843) can0 0D0#DCFF000000000000
(1498256921.285865) can0 0D1#00000080
(1498256921.285867) can0 0D2#0000FFFF10000000
(1498256921.286820) can0 0D3#0046C04E00009A
(1498256921.286840) can0 0D4#0000000000000000
(1498256921.288751) can0 280#0002180000000000
(1498256921.289813) can0 002#00477007BE000000
(1498256921.290843) can0 371#FFFF0000802C0000
(1498256921.292800) can0 140#0002004000001600
(1498256921.292825) can0 141#5626712700803F00
(1498256921.292828) can0 144#C000067C5024A000
(1498256921.296823) can0 156#0100000000000028
(1498256921.296845) can0 282#8A30008282013A00
(1498256921.299763) can0 002#00477009C0000000
(1498256921.300796) can0 152#E9AC000000000880
(1498256921.302821) can0 140#0003004000001600
(1498256921.302844) can0 141#5626722700803F00
(1498256921.305827) can0 0D0#DCFF000000000000
(1498256921.305847) can0 0D1#00000080
(1498256921.305850) can0 0D2#0000FFFF10000000
(1498256921.306790) can0 0D3#8046C04E00009B
(1498256921.306815) can0 0D4#0000000000000000
(1498256921.308820) can0 280#0003180000000000
(1498256921.308842) can0 25C#2500000000000000
(1498256921.309805) can0 002#0047700BC2000000
(1498256921.311804) can0 371#FFFF0000802D0000
(1498256921.312799) can0 140#0004004000001600
(1498256921.312826) can0 141#5626722700803F00
(1498256921.312828) can0 144#C000067C5024A000
(1498256921.315803) can0 370#FFFF200180060000
(1498256921.316800) can0 156#0100000000000028
(1498256921.319808) can0 002#0047700DC4000000
(1498256921.320793) can0 152#E1BC000000000880
(1498256921.320817) can0 376#AD
(1498256921.322868) can0 140#0005004000001600
(1498256921.322894) can0 141#5626722700803F00
(1498256921.322898) can0 360#000045462F000100
(1498256921.323733) can0 361#00013DD161000000
(1498256921.323758) can0 362#DC7189BE7561BE04
(1498256921.325791) can0 0D0#DCFF000000000000
(1498256921.325816) can0 0D1#00000080
(1498256921.325820) can0 0D2#0000FFFF10000000
(1498256921.326820) can0 0D3#0046C04E00009C
(1498256921.326840) can0 0D4#0000000000000000
(1498256921.328820) can0 280#0004180000000000
(1498256921.329804) can0 002#0047700FC6000000
(1498256921.331814) can0 371#FFFF0000802C0000
(1498256921.332815) can0 140#0006004000001600
(1498256921.332833) can0 141#5626722700803F00
(1498256921.332836) can0 144#C000067C5024A000
(1498256921.336822) can0 156#0100000000000028
(1498256921.339815) can0 002#00477001B8000000
(1498256921.340813) can0 152#E9CC000000000880
(1498256921.342831) can0 140#0007004000001600
(1498256921.342849) can0 141#5626722700803F00
(1498256921.345842) can0 0D0#DCFF000000000000
(1498256921.345861) can0 0D1#00000080
(1498256921.345863) can0 0D2#0000FFFF10000000
(1498256921.346810) can0 0D3#8046C04E00009D
(1498256921.346831) can0 0D4#0000000000000000
(1498256921.346838) can0 282#8940008282013A00
(1498256921.348822) can0 280#0005180000000000
(1498256921.349810) can0 002#00477003BA000000
(1498256921.351815) can0 371#FFFF0000802C0000
(1498256921.352852) can0 140#0008004000001600
(1498256921.352870) can0 141#5626722700803F00
(1498256921.352873) can0 144#C000067C5024A000
(1498256921.354815) can0 372#00E0000000000000
(1498256921.356822) can0 156#0100000000000028
(1498256921.356842) can0 3D1#9B100000FD000000
(1498256921.359822) can0 002#00477005BC000000
(1498256921.360827) can0 152#E1DC000000000880
(1498256921.360846) can0 284#C10A000E00000000
(1498256921.362823) can0 140#0009004000001600
(1498256921.362842) can0 141#5626722700803F00
(1498256921.362845) can0 370#FFFF200180070000
(1498256921.365778) can0 0D0#DCFF000000000000
(1498256921.365797) can0 0D1#00000080
(1498256921.365800) can0 0D2#0000FFFF10000000
(1498256921.366702) can0 0D3#8046C04E00009E
(1498256921.366722) can0 0D4#0000000000000000
(1498256921.368711) can0 280#0006180000000000
(1498256921.368728) can0 25C#2600000000000000
(1498256921.369767) can0 002#00477007BE000000
(1498256921.370812) can0 376#AD
(1498256921.371818) can0 371#FFFF0000802D0000
(1498256921.372838) can0 140#000A004000001600
(1498256921.372860) can0 141#5626722700803F00
(1498256921.372863) can0 144#C000067C5024A000
(1498256921.372865) can0 360#000045462F000100
(1498256921.373813) can0 361#00013DD162000000
(1498256921.373835) can0 362#DB7189BE7561BE04
(1498256921.376759) can0 156#0100000000000028
(1498256921.379820) can0 002#00477009C0000000
(1498256921.380819) can0 152#E1EC000000000880
(1498256921.382831) can0 140#000B004000001600
(1498256921.382851) can0 141#5626722700803F00
(1498256921.385845) can0 0D0#DCFF000000000000
(1498256921.385865) can0 0D1#00000080
(1498256921.385870) can0 0D2#0000FFFF10000000
(1498256921.386821) can0 0D3#0046C04E00009F
(1498256921.386840) can0 0D4#0000000000000000
(1498256921.388821) can0 280#0007180000000000
(1498256921.389810) can0 002#0047700BC2000000
(1498256921.391806) can0 371#FFFF0000802D0000
(1498256921.392812) can0 140#000C004000001600
(1498256921.392833) can0 141#5626722700803F00
(1498256921.392837) can0 144#C000067C5024A000
(1498256921.396840) can0 156#0100000000000028
(1498256921.396860) can0 282#8950008282013A00
(1498256921.399822) can0 002#0047700DC4000000
(1498256921.400814) can0 152#E9FC000000000880
(1498256921.402775) can0 140#000D004000001600
(1498256921.402795) can0 141#5626722700803F00
(1498256921.405845) can0 0D0#DCFF000000000000
(1498256921.405866) can0 0D1#00000080
(1498256921.405872) can0 0D2#0000FFFF10000000
(1498256921.406812) can0 0D3#0046C04E0000A0
(1498256921.406833) can0 0D4#0000000000000000
(1498256921.408820) can0 280#0008180000000000
(1498256921.409815) can0 002#0047700FC6000000
(1498256921.411825) can0 370#FFFF200180080000
(1498256921.411846) can0 371#FFFF0000802C0000
(1498256921.412815) can0 140#000E004000001600
(1498256921.412834) can0 141#5626722700803F00
(1498256921.412838) can0 144#C000067C5024A000
(1498256921.416753) can0 156#0100000000000028
(1498256921.419795) can0 002#00477001B8000000
(1498256921.420817) can0 152#E90C000000000880
(1498256921.420839) can0 376#AD
(1498256921.422804) can0 140#000F004000001600
(1498256921.422828) can0 141#5626722700803F00
(1498256921.422832) can0 360#000045462F000100
(1498256921.422835) can0 361#00013DD163000000
(1498256921.423815) can0 362#DB7189BE7561BE04
(1498256921.425835) can0 0D0#DCFF000000000000
(1498256921.425857) can0 0D1#00000080
(1498256921.425860) can0 0D2#0000FFFF10000000
(1498256921.426813) can0 0D3#8046C04E0000A1
(1498256921.426834) can0 0D4#0000000000000000
(1498256921.428843) can0 280#0009180000000000
(1498256921.428867) can0 25C#A700000000000000
(1498256921.429822) can0 002#00477003BA000000
(1498256921.430794) can0 371#FFFF0000802D0000
(1498256921.432893) can0 140#0000004000001600
(1498256921.432916) can0 141#5626722700803F00
(1498256921.432919) can0 144#C000067C5024A000
(1498256921.436761) can0 156#0100000000000028
(1498256921.439826) can0 002#00477005BC000000
(1498256921.440820) can0 152#E11C000000000880
(1498256921.442823) can0 140#0001004000001600
(1498256921.442845) can0 141#5626722700803F00
(1498256921.445854) can0 0D0#DCFF000000000000
(1498256921.445877) can0 0D1#00000080
(1498256921.445880) can0 0D2#0000FFFF10000000
(1498256921.446825) can0 0D3#8046C04E0000A2
(1498256921.446847) can0 0D4#0000000000000000
(1498256921.446850) can0 282#8960008282013A00
(1498256921.448827) can0 280#000A180000000000
(1498256921.449827) can0 002#00477007BE000000
(1498256921.451816) can0 371#FFFF0000802C0000
(1498256921.452850) can0 140#0002004000001600
(1498256921.452872) can0 141#5626722700803F00
(1498256921.452875) can0 144#C000067C5024A000
(1498256921.454829) can0 372#00F8000000000000
(1498256921.456838) can0 156#0100000000000028
(1498256921.457811) can0 3D1#9B100000FD000000
(1498256921.459834) can0 370#FFFF200180090000
(1498256921.459857) can0 002#00477009C0000000
(1498256921.460809) can0 152#E12C000000000880
(1498256921.461812) can0 284#C10B000E00000000
(1498256921.462838) can0 140#0003004000001600
(1498256921.462860) can0 141#5626722700803F00
(1498256921.465850) can0 0D0#DCFF000000000000
(1498256921.465871) can0 0D1#00000080
(1498256921.465874) can0 0D2#0000FFFF10000000
(1498256921.466836) can0 0D3#0046C04E0000A3
(1498256921.466859) can0 0D4#0000000000000000
(1498256921.468827) can0 280#000B180000000000
(1498256921.469801) can0 002#0047700BC2000000
(1498256921.470818) can0 376#AD
(1498256921.471814) can0 371#FFFF0000802C0000
(1498256921.472870) can0 140#0004004000001600
(1498256921.472892) can0 141#5626722700803F00
(1498256921.472895) can0 144#C000067C5024A000
(1498256921.472897) can0 360#000045462F000100
(1498256921.473831) can0 361#00013DD164000000
(1498256921.473853) can0 362#DB7189BE7561BE04
(1498256921.476830) can0 156#0100000000000028
(1498256921.479827) can0 002#0047700DC4000000
(1498256921.480826) can0 152#E93C000000000880
(1498256921.482817) can0 140#0005004000001600
(1498256921.483823) can0 141#5626722700803F00
(1498256921.485842) can0 0D0#DCFF000000000000
(1498256921.485863) can0 0D1#00000080
(1498256921.485866) can0 0D2#0000FFFF10000000
(1498256921.486816) can0 0D3#8046C04E0000A4
(1498256921.486838) can0 0D4#0000000000000000
(1498256921.488822) can0 280#000C180000000000
(1498256921.488842) can0 25C#2000000000000000
(1498256921.489815) can0 002#0047700FC6000000
(1498256921.491817) can0 371#FFFF0000802C0000
(1498256921.492814) can0 140#0006004000001600
(1498256921.492839) can0 141#5626712700803F00
(1498256921.492845) can0 144#C000067C5024A000
(1498256921.496837) can0 156#0100000000000028
(1498256921.496857) can0 282#8970008282013A00
(1498256921.499822) can0 002#00477001B8000000
(1498256921.500817) can0 152#E14C000000000880
(1498256921.502804) can0 140#0007004000001600
(1498256921.502824) can0 141#5626722700803F00
(1498256921.505840) can0 0D0#DCFF000000000000
(1498256921.505862) can0 0D1#00000080
(1498256921.505866) can0 0D2#0000FFFF10000000
(1498256921.506795) can0 0D3#0046C04E0000A5
(1498256921.506817) can0 0D4#0000000000000000
(1498256921.506821) can0 370#FFFF2001800A0000
(1498256921.508821) can0 280#000D180000000000
(1498256921.509812) can0 002#00477003BA000000
(1498256921.510814) can0 371#FFFF0000802C0000
(1498256921.512826) can0 140#0008004000001600
(1498256921.512846) can0 141#5626722700803F00
(1498256921.512851) can0 144#C000067C5024A000
(1498256921.516818) can0 156#0100000000000028
(1498256921.519756) can0 002#00477005BC000000
(1498256921.520763) can0 152#E95C000000000880
(1498256921.520783) can0 376#AD
(1498256921.522799) can0 140#0009004000001600
(1498256921.522825) can0 141#5626722700803F00
(1498256921.522830) can0 360#000045462F000100
(1498256921.522833) can0 361#00013DD165000000
(1498256921.523802) can0 362#DB7189BE7561BE04
(1498256921.525837) can0 0D0#DCFF000000000000
(1498256921.525865) can0 0D1#00000080
(1498256921.525870) can0 0D2#0000FFFF10000000
(1498256921.526810) can0 0D3#0046C04E0000A6
(1498256921.526831) can0 0D4#0000000000000000
(1498256921.528818) can0 280#000E180000000000
(1498256921.529814) can0 002#00477007BE000000
(1498256921.530813) can0 371#FFFF0000802D0000
(1498256921.532833) can0 140#000A004000001600
(1498256921.532853) can0 141#5626722700803F00
(1498256921.532855) can0 144#C000067C5024A000
(1498256921.536815) can0 156#0100000000000028
(1498256921.539823) can0 002#00477009C0000000
(1498256921.540811) can0 152#E96C000000000880
(1498256921.542826) can0 140#000B004000001600
(1498256921.542846) can0 141#5626722700803F00
(1498256921.545849) can0 0D0#DCFF000000000000
(1498256921.545869) can0 0D1#00000080
(1498256921.545872) can0 0D2#0000FFFF10000000
(1498256921.546807) can0 0D3#8046C04E0000A7
(1498256921.546828) can0 0D4#0000000000000000
(1498256921.546831) can0 282#8980008282013A00
(1498256921.548836) can0 280#000F180000000000
(1498256921.548857) can0 25C#A100000000000000
(1498256921.549813) can0 002#0047700BC2000000
(1498256921.550788) can0 371#FFFF0000802C0000
(1498256921.552811) can0 140#000C004000001600
(1498256921.552830) can0 141#5626722700803F00
(1498256921.552833) can0 144#C000067C5024A000
(1498256921.554736) can0 372#0008000000000000
(1498256921.554761) can0 370#FFFF2001800B0000
(1498256921.556764) can0 156#0100000000000028
(1498256921.557812) can0 3D1#9B100000FD000000
(1498256921.559829) can0 002#0047700DC4000000
(1498256921.560833) can0 152#E17C000000000880
(1498256921.561816) can0 284#C10C000E00000000
(1498256921.562835) can0 140#000D004000001600
(1498256921.562858) can0 141#5626722700803F00
(1498256921.565817) can0 0D0#DCFF000000000000
(1498256921.565841) can0 0D1#00000080
(1498256921.565844) can0 0D2#0000FFFF10000000
(1498256921.566809) can0 0D3#8046C04E0000A8
(1498256921.566836) can0 0D4#0000000000000000
(1498256921.566839) can0 6D1#7835020000000000
(1498256921.568801) can0 280#0000180000000000
(1498256921.569740) can0 002#0047700FC6000000
(1498256921.570788) can0 376#AD
(1498256921.570812) can0 371#FFFF0000802C0000
(1498256921.571800) can0 140#000E004000001600
(1498256921.572813) can0 141#5626722700803F00
(1498256921.572855) can0 144#C000067C5024A000
(1498256921.572859) can0 360#000045462F000100
(1498256921.572862) can0 361#00013DD166000000
(1498256921.572926) can0 362#DA7189BE7561BE04
(1498256921.576795) can0 156#0100000000000028
(1498256921.579807) can0 002#00477001B8000000
(1498256921.580734) can0 152#E18C000000000880
(1498256921.582721) can0 140#000F004000001600
(1498256921.582739) can0 141#5626722700803F00
(1498256921.585710) can0 0D0#DCFF000000000000
(1498256921.585726) can0 0D1#00000080
(1498256921.585730) can0 0D2#0000FFFF10000000
(1498256921.586656) can0 0D3#0046C04E0000A9
(1498256921.586690) can0 0D4#0000000000000000
(1498256921.588717) can0 280#0001180000000000
(1498256921.589715) can0 002#00477003BA000000
(1498256921.590712) can0 371#FFFF0000802C0000
(1498256921.592690) can0 140#0000004000001600
(1498256921.592719) can0 141#5626722700803F00
(1498256921.592721) can0 144#C000067C5024A000
(1498256921.596696) can0 156#0100000000000028
(1498256921.596703) can0 282#8990008282013A00
(1498256921.599682) can0 002#00477005BC000000
(1498256921.600674) can0 152#E99C000000000880
(1498256921.602698) can0 140#0001004000001600
(1498256921.602706) can0 141#5626722700803F00
(1498256921.602739) can0 370#FFFF2001800C0000
(1498256921.605742) can0 0D0#DCFF000000000000
(1498256921.605762) can0 0D1#00000080
(1498256921.605765) can0 0D2#0000FFFF10000000
(1498256921.606714) can0 0D3#0046C04E0000AA
(1498256921.606733) can0 0D4#0000000000000000
(1498256921.608743) can0 280#0002180000000000
(1498256921.608752) can0 25C#A200000000000000
(1498256921.609728) can0 002#00477007BE000000
(1498256921.610715) can0 371#FFFF0000802C0000
(1498256921.611721) can0 140#0002004000001600
(1498256921.612803) can0 141#5626722700803F00
(1498256921.612819) can0 144#C000067C5024A000
(1498256921.616814) can0 156#0100000000000028
(1498256921.619763) can0 002#00477009C0000000
(1498256921.620769) can0 152#E9AC000000000880
(1498256921.620776) can0 376#AD
(1498256921.621752) can0 140#0003004000001600
(1498256921.622812) can0 141#5626722700803F00
(1498256921.622840) can0 360#000045462F000100
(1498256921.622843) can0 361#00013DD167000000
(1498256921.622845) can0 362#DA7189BE7561BE04
(1498256921.625822) can0 0D0#DCFF000000000000
(1498256921.625844) can0 0D1#00000080
(1498256921.625847) can0 0D2#0000FFFF10000000
(1498256921.626816) can0 0D3#8046C04E0000AB
(1498256921.626838) can0 0D4#0000000000000000
(1498256921.628807) can0 280#0003180000000000
(1498256921.629805) can0 002#0047700BC2000000
(1498256921.630790) can0 371#FFFF0000802D0000
(1498256921.632813) can0 140#0004004000001600
(1498256921.632832) can0 141#5626722700803F00
(1498256921.632834) can0 144#C000067C5024A000
(1498256921.636814) can0 156#0100000000000028
(1498256921.639742) can0 002#0047700DC4000000
(1498256921.640803) can0 152#E1BC000000000880
(1498256921.641825) can0 140#0005004000001600
(1498256921.642765) can0 141#5626722700803F00
(1498256921.645835) can0 0D0#DCFF000000000000
(1498256921.645856) can0 0D1#00000080
(1498256921.645858) can0 0D2#0000FFFF10000000
(1498256921.646793) can0 0D3#0046C04E0000AC
(1498256921.646814) can0 0D4#0000000000000000
(1498256921.646820) can0 282#89A0008282013A00
(1498256921.648803) can0 280#0004180000000000
(1498256921.649800) can0 002#0047700FC6000000
(1498256921.650785) can0 370#FFFF2001800D0000
(1498256921.651742) can0 371#FFFF0000802C0000
(1498256921.651761) can0 140#0006004000001600
(1498256921.652818) can0 141#5626722700803F00
(1498256921.652838) can0 144#C000067C5024A000
(1498256921.654812) can0 372#0010000000000000
(1498256921.656815) can0 156#0100000000000028
(1498256921.657803) can0 3D1#9B100000FD000000
(1498256921.659780) can0 002#00477001B8000000
(1498256921.660810) can0 152#E9CC000000000880
(1498256921.661826) can0 284#C10D000E00000000
(1498256921.661846) can0 140#0007004000001600
(1498256921.662812) can0 141#5626722700803F00
(1498256921.665807) can0 0D0#DCFF000000000000
(1498256921.665827) can0 0D1#00000080
(1498256921.665830) can0 0D2#0000FFFF10000000
(1498256921.666794) can0 0D3#8046C04E0000AD
(1498256921.666815) can0 0D4#0000000000000000
(1498256921.668750) can0 280#0005180000000000
(1498256921.668764) can0 25C#2300000000000000
(1498256921.669716) can0 002#00477003BA000000
(1498256921.670807) can0 376#AD
(1498256921.670830) can0 371#FFFF0000802C0000
(1498256921.671770) can0 140#0008004000001600
(1498256921.672812) can0 141#5626722700803F00
(1498256921.672836) can0 144#C000067C5024A000
(1498256921.672840) can0 360#000045462F000100
(1498256921.672843) can0 361#00013DD168000000
(1498256921.673795) can0 362#DA7189BE7561BE04
(1498256921.676801) can0 156#0100000000000028
(1498256921.679750) can0 002#00477005BC000000
(1498256921.680801) can0 152#E1DC000000000880
(1498256921.682768) can0 140#0009004000001600
(1498256921.682794) can0 141#5626722700803F00
(1498256921.685828) can0 0D0#DCFF000000000000
(1498256921.685851) can0 0D1#00000080
(1498256921.685854) can0 0D2#0000FFFF10000000
(1498256921.686794) can0 0D3#8046C04E0000AE
(1498256921.686817) can0 0D4#0000000000000000
(1498256921.688807) can0 280#0006180000000000
(1498256921.689803) can0 002#00477007BE000000
(1498256921.690799) can0 371#FFFF0000802C0000
(1498256921.691815) can0 140#000A004000001600
(1498256921.692769) can0 141#5626722700803F00
(1498256921.692794) can0 144#C000067C5024A000
(1498256921.696815) can0 156#0100000000000028
(1498256921.696839) can0 282#89B0008282013A00
(1498256921.698679) can0 370#FFFF2001800E0000
(1498256921.699694) can0 002#00477009C0000000
(1498256921.700692) can0 152#E1EC000000000880
(1498256921.701745) can0 140#000B004000001600
(1498256921.702684) can0 141#5626722700803F00
(1498256921.705718) can0 0D0#DCFF000000000000
(1498256921.705730) can0 0D1#00000080
(1498256921.705734) can0 0D2#0000FFFF10000000
(1498256921.706694) can0 0D3#0046C04E0000AF
(1498256921.706705) can0 0D4#0000000000000000
(1498256921.708693) can0 280#0007180000000000
(1498256921.709691) can0 002#0047700BC2000000
(1498256921.710692) can0 371#FFFF0000802D0000
(1498256921.711706) can0 140#000C004000001600
(1498256921.712673) can0 141#5626722700803F00
(1498256921.712717) can0 144#C000067C5024A000
(1498256921.716820) can0 156#0100000000000028
(1498256921.719816) can0 002#0047700DC4000000
(1498256921.720836) can0 152#E9FC000000000880
(1498256921.720855) can0 376#AD
(1498256921.720867) can0 660#FFFF0BA9000008F1
(1498256921.721812) can0 140#000D004000001600
(1498256921.722879) can0 141#5626722700803F00
(1498256921.722893) can0 360#000045462F000100
(1498256921.722894) can0 361#00013DD169000000
(1498256921.722895) can0 362#DA7189BE7561BE04
(1498256921.725735) can0 0D0#DCFF000000000000
(1498256921.725752) can0 0D1#00000080
(1498256921.725754) can0 0D2#0000FFFF10000000
(1498256921.726713) can0 0D3#8046C04E0000B0
(1498256921.726741) can0 0D4#0000000000000000
(1498256921.727776) can0 378#6100000000000000
(1498256921.728838) can0 280#0008180000000000
(1498256921.728861) can0 25C#A400000000000000
(1498256921.729832) can0 002#0047700FC6000000
(1498256921.730810) can0 371#FFFF0000802C0000
(1498256921.731826) can0 140#000E004000001600
(1498256921.731857) can0 141#5626722700803F00
(1498256921.732828) can0 144#C000067C5024A000
(1498256921.736763) can0 156#0100000000000028
(1498256921.739824) can0 002#00477001B8000000
(1498256921.740825) can0 152#E90C000000000880
(1498256921.740842) can0 375#0300000120000200
(1498256921.741818) can0 140#000F004000001600
(1498256921.742733) can0 141#5626722700803F00
(1498256921.745836) can0 0D0#DCFF000000000000
(1498256921.745855) can0 0D1#00000080
(1498256921.745858) can0 0D2#0000FFFF10000000
(1498256921.746866) can0 0D3#0046C04E0000B1
(1498256921.746884) can0 0D4#0000000000000000
(1498256921.746887) can0 282#8AC0008282013A00
(1498256921.746889) can0 370#FFFF2001800F0000
(1498256921.748809) can0 280#0009180000000000
(1498256921.749817) can0 002#00477003BA000000
(1498256921.750795) can0 371#FFFF0000802C0000
(1498256921.751824) can0 140#0000004000001600
(1498256921.752829) can0 141#5626722700803F00
(1498256921.752846) can0 144#C000067C5024A000
(1498256921.754822) can0 372#0020000000000000
(1498256921.756841) can0 156#0100000000000028
(1498256921.757820) can0 3D1#9B100000FD000000
(1498256921.759816) can0 002#00477005BC000000
(1498256921.760810) can0 152#E11C000000000880
(1498256921.761820) can0 284#C10E000E00000000
(1498256921.761840) can0 140#0001004000001600
(1498256921.761842) can0 141#5626722700803F00
(1498256921.765841) can0 0D0#DCFF000000000000
(1498256921.765861) can0 0D1#00000080
(1498256921.765864) can0 0D2#0000FFFF10000000
(1498256921.766782) can0 0D3#0046C04E0000B2
(1498256921.766801) can0 0D4#0000000000000000
(1498256921.768817) can0 280#000A180000000000
(1498256921.769809) can0 002#00477007BE000000
(1498256921.770817) can0 376#AD
(1498256921.770836) can0 371#FFFF0000802C0000
(1498256921.771823) can0 140#0002004000001600
(1498256921.771842) can0 141#5626722700803F00
(1498256921.772887) can0 144#C000067C5024A000
(1498256921.772906) can0 360#000045462F000100
(1498256921.772909) can0 361#00013DD16A000000
(1498256921.772911) can0 362#DA7189BE7561BE04
(1498256921.776725) can0 156#0100000000000028
(1498256921.779743) can0 002#00477009C0000000
(1498256921.780722) can0 152#E12C000000000880
(1498256921.782724) can0 140#0003004000001600
(1498256921.782735) can0 141#5626722700803F00
(1498256921.785742) can0 0D0#DCFF000000000000
(1498256921.785756) can0 0D1#00000080
(1498256921.785758) can0 0D2#0000FFFF10000000
(1498256921.786727) can0 0D3#8046C04E0000B3
(1498256921.786739) can0 0D4#0000000000000000
(1498256921.788738) can0 280#000B180000000000
(1498256921.788749) can0 25C#2500000000000000
(1498256921.789721) can0 002#0047700BC2000000
(1498256921.790719) can0 371#FFFF0000802C0000
(1498256921.791696) can0 140#0004004000001600
(1498256921.792704) can0 141#5626722700803F00
(1498256921.792707) can0 144#C000067C5024A000
(1498256921.794675) can0 370#FFFF200180000000
(1498256921.796701) can0 156#0100000000000028
(1498256921.796705) can0 282#8AD0008282013A00
(1498256921.799694) can0 002#0047700DC4000000
(1498256921.800733) can0 152#E93C000000000880
(1498256921.801712) can0 140#0005004000001600
(1498256921.802684) can0 141#5626722700803F00
(1498256921.805701) can0 0D0#DCFF000000000000
(1498256921.805705) can0 0D1#00000080
(1498256921.805706) can0 0D2#0000FFFF10000000
(1498256921.806704) can0 0D3#0046C04E0000B4
(1498256921.806707) can0 0D4#0000000000000000
(1498256921.808697) can0 280#000C180000000000
(1498256921.809697) can0 002#0047700FC6000000
(1498256921.810672) can0 371#FFFF0000802C0000
(1498256921.811710) can0 140#0006004000001600
(1498256921.811714) can0 141#5626722700803F00
(1498256921.812690) can0 144#C000067C5024A000
(1498256921.816697) can0 156#0100000000000028
(1498256921.819688) can0 002#00477001B8000000
(1498256921.820741) can0 152#E14C000000000880
(1498256921.820745) can0 376#AD
(1498256921.821687) can0 140#0007004000001600
(1498256921.821691) can0 141#5626722700803F00
(1498256921.822756) can0 360#000045462F000100
(1498256921.822760) can0 361#00013DD16B000000
(1498256921.822761) can0 362#DA7189BE7561BE04
(1498256921.825713) can0 0D0#DCFF000000000000
(1498256921.825719) can0 0D1#00000080
(1498256921.825720) can0 0D2#0000FFFF10000000
(1498256921.826688) can0 0D3#8046C04E0000B5
(1498256921.826694) can0 0D4#0000000000000000
(1498256921.828714) can0 280#000D180000000000
(1498256921.829697) can0 002#00477003BA000000
(1498256921.830697) can0 371#FFFF0000802C0000
(1498256921.831792) can0 140#0008004000001600
(1498256921.832700) can0 141#5626722700803F00
(1498256921.832704) can0 144#C000067C5024A000
(1498256921.836697) can0 156#0100000000000028
(1498256921.839689) can0 002#00477005BC000000
(1498256921.840707) can0 152#E95C000000000880
(1498256921.841708) can0 140#0009004000001600
(1498256921.841713) can0 141#5626722700803F00
(1498256921.842661) can0 370#FFFF200180010000
(1498256921.845699) can0 0D0#DCFF000000000000
(1498256921.845746) can0 0D1#00000080
(1498256921.845749) can0 0D2#0000FFFF10000000
(1498256921.846688) can0 0D3#8046C04E0000B6
(1498256921.846693) can0 0D4#0000000000000000
(1498256921.846694) can0 282#89E0008282013A00
(1498256921.848702) can0 280#000E180000000000
(1498256921.848711) can0 25C#2600000000000000
(1498256921.849695) can0 002#00477007BE000000
(1498256921.850697) can0 371#FFFF0000802D0000
(1498256921.851717) can0 140#000A004000001600
(1498256921.851722) can0 141#5626722700803F00
(1498256921.852690) can0 144#C000067C5024A000
(1498256921.854685) can0 372#0038000000000000
(1498256921.857700) can0 156#0100000000000028
(1498256921.857708) can0 3D1#9B100000FD000000
(1498256921.859700) can0 002#00477009C0000000
(1498256921.860698) can0 152#E96C000000000880
(1498256921.861702) can0 284#C10F000E00000000
(1498256921.861712) can0 140#000B004000001600
(1498256921.861714) can0 141#5626722700803F00
(1498256921.865717) can0 0D0#DCFF000000000000
(1498256921.865721) can0 0D1#00000080
(1498256921.865722) can0 0D2#0000FFFF10000000
(1498256921.866695) can0 0D3#0046C04E0000B7
(1498256921.866699) can0 0D4#0000000000000000
(1498256921.868695) can0 280#000F180000000000
(1498256921.869694) can0 002#0047700BC2000000
(1498256921.870701) can0 376#AD
(1498256921.870705) can0 371#FFFF0000802C0000
(1498256921.871701) can0 140#000C004000001600
(1498256921.871781) can0 141#5626722700803F00
(1498256921.872770) can0 144#C000067C5024A000
(1498256921.872774) can0 360#000045462F000100
(1498256921.872775) can0 361#00013DD16C000000
(1498256921.872775) can0 362#D77189BE7561BE04
(1498256921.876693) can0 156#0100000000000028
(1498256921.879695) can0 002#0047700DC4000000
(1498256921.880694) can0 152#E17C000000000880
(1498256921.881695) can0 140#000D004000001600
(1498256921.882690) can0 141#5626722700803F00
(1498256921.885715) can0 0D0#DCFF000000000000
(1498256921.885719) can0 0D1#00000080
(1498256921.885720) can0 0D2#0000FFFF10000000
(1498256921.886698) can0 0D3#0046C04E0000B8
(1498256921.886701) can0 0D4#0000000000000000
(1498256921.888692) can0 280#0000180000000000
(1498256921.889694) can0 002#0047700FC6000000
(1498256921.890677) can0 370#FFFF200180020000
(1498256921.891684) can0 371#FFFF0000802C0000
(1498256921.891713) can0 140#000E004000001600
(1498256921.891715) can0 141#5626722700803F00
(1498256921.892682) can0 144#C000067C5024A000
(1498256921.896704) can0 156#0100000000000028
(1498256921.896708) can0 282#89F0008282013A00
(1498256921.899692) can0 002#00477001B8000000
(1498256921.900697) can0 152#E18C000000000880
(1498256921.901710) can0 140#000F004000001600
(1498256921.901714) can0 141#5626722700803F00
(1498256921.905719) can0 0D0#DCFF000000000000
(1498256921.905724) can0 0D1#00000080
(1498256921.905725) can0 0D2#0000FFFF10000000
(1498256921.906683) can0 0D3#8046C04E0000B9
(1498256921.906687) can0 0D4#0000000000000000
(1498256921.908711) can0 280#0001180000000000
(1498256921.908715) can0 25C#A700000000000000
(1498256921.909695) can0 002#00477003BA000000
(1498256921.910696) can0 371#FFFF0000802C0000
(1498256921.911746) can0 140#0000004000001600
(1498256921.911751) can0 141#5626722700803F00
(1498256921.912687) can0 144#C000067C5024A000
(1498256921.916733) can0 156#0100000000000028
(1498256921.919714) can0 002#00477005BC000000
(1498256921.920719) can0 152#E99C000000000880
(1498256921.920725) can0 376#AD
(1498256921.921733) can0 140#0001004000001600
(1498256921.921741) can0 141#5626722700803F00
(1498256921.922718) can0 360#000045462F000100
(1498256921.922724) can0 361#00013DD16D000000
(1498256921.922725) can0 362#D77189BE7561BE04
(1498256921.925747) can0 0D0#DCFF000000000000
(1498256921.925755) can0 0D1#00000080
(1498256921.925757) can0 0D2#0000FFFF10000000
(1498256921.926732) can0 0D3#8046C04E0000BA
(1498256921.926741) can0 0D4#0000000000000000
(1498256921.928693) can0 280#0002180000000000
(1498256921.929689) can0 002#00477007BE000000
(1498256921.930696) can0 371#FFFF0000802C0000
(1498256921.931717) can0 140#0002004000001600
(1498256921.931721) can0 141#5626722700803F00
(1498256921.931722) can0 144#C000067C5024A000
(1498256921.936694) can0 156#0100000000000028
(1498256921.938684) can0 370#FFFF200180030000
(1498256921.939703) can0 002#00477009C0000000
(1498256921.940719) can0 152#E9AC000000000880
(1498256921.940723) can0 374#0808000080000000
(1498256921.941715) can0 140#0003004000001600
(1498256921.941722) can0 141#5626722700803F00
(1498256921.945735) can0 0D0#DCFF000000000000
(1498256921.945744) can0 0D1#00000080
(1498256921.945747) can0 0D2#0000FFFF10000000
(1498256921.946696) can0 0D3#0046C04E0000BB
(1498256921.946703) can0 0D4#0000000000000000
(1498256921.946706) can0 282#8A00008282013A00
(1498256921.948675) can0 280#0003180000000000
(1498256921.949675) can0 002#0047700BC2000000
(1498256921.950677) can0 371#FFFF0000802C0000
(1498256921.951684) can0 140#0004004000001600
(1498256921.951689) can0 141#5626722700803F00
(1498256921.952663) can0 144#C000067C5024A000
(1498256921.954678) can0 372#0040000000000000
(1498256921.957676) can0 156#0100000000000028
(1498256921.957681) can0 3D1#9A100000FD000000
(1498256921.959669) can0 002#0047700DC4000000
(1498256921.960668) can0 152#E1BC000000000880
(1498256921.961676) can0 284#C100000E00000000
(1498256921.961709) can0 140#0005004000001600
(1498256921.961711) can0 141#5626722700803F00
(1498256921.965691) can0 0D0#DCFF000000000000
(1498256921.965696) can0 0D1#00000080
(1498256921.965727) can0 0D2#0000FFFF10000000
(1498256921.966670) can0 0D3#8046C04E0000BC
(1498256921.966708) can0 0D4#0000000000000000
(1498256921.968679) can0 280#0004180000000000
(1498256921.968683) can0 25C#2000000000000000
(1498256921.969665) can0 002#0047700FC6000000
(1498256921.970649) can0 376#AD
(1498256921.970653) can0 371#FFFF0000802D0000
(1498256921.971669) can0 140#0006004000001600
(1498256921.971728) can0 141#5626722700803F00
(1498256921.971729) can0 144#C000067C5024A000
(1498256921.972681) can0 360#000045462F000100
(1498256921.972685) can0 361#00013DD16E000000
(1498256921.972686) can0 362#D57189BE7561BE04
(1498256921.976670) can0 156#0100000000000028
(1498256921.979691) can0 002#00477001B8000000
(1498256921.980669) can0 152#E9CC000000000880
(1498256921.981691) can0 37A#0000000000040000
(1498256921.981695) can0 140#0007004000001600
(1498256921.981766) can0 141#5626722700803F00
(1498256921.985685) can0 0D0#DCFF000000000000
(1498256921.985724) can0 0D1#00000080
(1498256921.985726) can0 0D2#0000FFFF10000000
(1498256921.986667) can0 0D3#0046C04E0000BD
(1498256921.986671) can0 0D4#0000000000000000
(1498256921.986673) can0 370#FFFF200180040000
(1498256921.988702) can0 280#0005180000000000
(1498256921.989690) can0 002#00477003BA000000
(1498256921.990702) can0 371#FFFF0000802D0000
(1498256921.991719) can0 140#0008004000001600
(1498256921.991735) can0 141#5626722700803F00
(1498256921.992694) can0 144#C000067C5024A000
(1498256921.996671) can0 156#0100000000000028
(1498256921.996839) can0 282#8A10008282013A00
(1498256921.999698) can0 002#00477005BC000000
(1498256922.000699) can0 152#E1DC000000000880
(1498256922.001714) can0 140#0009004000001600
(1498256922.001720) can0 141#5626722700803F00
(1498256922.005691) can0 0D0#DCFF000000000000
(1498256922.005700) can0 0D1#00000080
(1498256922.005704) can0 0D2#0000FFFF10000000
(1498256922.005905) can0 0D3#0046C04E0000BE
(1498256922.006666) can0 0D4#0000000000000000
(1498256922.008719) can0 280#0006180000000000
(1498256922.009708) can0 002#00477007BE000000
(1498256922.010677) can0 371#FFFF0000802D0000
(1498256922.011751) can0 140#000A004000001600
(1498256922.011759) can0 141#5626712700803F00
(1498256922.011760) can0 144#C000067C5024A000
(1498256922.016695) can0 156#0100000000000028
(1498256922.019706) can0 002#00477009C0000000
(1498256922.020718) can0 152#E1EC000000000880
(1498256922.020728) can0 376#AD
(1498256922.021765) can0 140#000B004000001600
(1498256922.021793) can0 141#5626712700803F00
(1498256922.021796) can0 360#000045462F000100
(1498256922.022706) can0 361#00013DD16F000000
(1498256922.022729) can0 362#D57189BE7561BE04
(1498256922.025719) can0 0D0#DCFF000000000000
(1498256922.025732) can0 0D1#00000080
(1498256922.025735) can0 0D2#0000FFFF10000000
(1498256922.026685) can0 0D3#8046C04E0000BF
(1498256922.026694) can0 0D4#0000000000000000
(1498256922.028710) can0 280#0007180000000000
(1498256922.028718) can0 25C#A100000000000000
(1498256922.029706) can0 002#0047700BC2000000
(1498256922.030713) can0 371#FFFF0000802D0000
(1498256922.031741) can0 140#000C004000001600
(1498256922.031751) can0 141#5626712700803F00
(1498256922.032678) can0 144#C000067C5024A000
(1498256922.034678) can0 370#FFFF200180050000
(1498256922.036681) can0 156#0100000000000028
(1498256922.039685) can0 002#0047700DC4000000
(1498256922.040691) can0 152#E9FC000000000880
(1498256922.041706) can0 140#000D004000001600
(1498256922.041710) can0 141#5626722700803F00
(1498256922.045715) can0 0D0#DCFF000000000000
(1498256922.045719) can0 0D1#00000080
(1498256922.045720) can0 0D2#0000FFFF10000000
(1498256922.046715) can0 0D3#0046C04E0000C0
(1498256922.046719) can0 0D4#0000000000000000
(1498256922.046720) can0 282#8920008282013A00
(1498256922.048678) can0 280#0008180000000000
(1498256922.049694) can0 002#0047700FC6000000
(1498256922.050672) can0 371#FFFF0000802C0000
(1498256922.051748) can0 140#000E004000001600
(1498256922.051752) can0 141#5626722700803F00
(1498256922.051753) can0 144#C000067C5024A000
(1498256922.054695) can0 372#0058000000000000
(1498256922.057707) can0 156#0100000000000028
(1498256922.057711) can0 3D1#9A100000FD000000
(1498256922.059697) can0 002#00477001B8000000
(1498256922.060696) can0 152#E90C000000000880
(1498256922.061728) can0 284#C101000E00000000
(1498256922.061734) can0 140#000F004000001600
(1498256922.061735) can0 141#5626722700803F00
(1498256922.065720) can0 0D0#DCFF000000000000
(1498256922.065726) can0 0D1#00000080
(1498256922.065727) can0 0D2#0000FFFF10000000
(1498256922.066666) can0 0D3#8046C04E0000C1
(1498256922.066670) can0 0D4#0000000000000000
(1498256922.068698) can0 280#0009180000000000
(1498256922.069695) can0 002#00477003BA000000
(1498256922.070680) can0 376#AD
(1498256922.070687) can0 371#FFFF0000802D0000
(1498256922.071722) can0 140#0000004000001600
(1498256922.071728) can0 141#5626722700803F00
(1498256922.071729) can0 144#C000067C5024A000
(1498256922.072757) can0 360#000045462F000100
(1498256922.072765) can0 361#00013DD160000000
(1498256922.072766) can0 362#D47189BE7561BE04
(1498256922.076695) can0 156#0100000000000028
(1498256922.079687) can0 002#00477005BC000000
(1498256922.080709) can0 152#E11C000000000880
(1498256922.081690) can0 140#0001004000001600
(1498256922.081697) can0 141#5626722700803F00
(1498256922.082668) can0 370#FFFF200180060000
(1498256922.085719) can0 0D0#DCFF000000000000
(1498256922.085726) can0 0D1#00000080
(1498256922.085728) can0 0D2#0000FFFF10000000
(1498256922.086682) can0 0D3#8046C04E0000C2
(1498256922.086688) can0 0D4#0000000000000000
(1498256922.088699) can0 280#000A180000000000
(1498256922.088706) can0 25C#A200000000000000
(1498256922.089673) can0 002#00477007BE000000
(1498256922.090668) can0 371#FFFF0000802D0000
(1498256922.091726) can0 140#0002004000001600
(1498256922.091729) can0 141#5626722700803F00
(1498256922.091730) can0 144#C000067C5024A000
(1498256922.096691) can0 156#0100000000000028
(1498256922.097684) can0 282#8930008282013A00
(1498256922.099715) can0 002#00477009C0000000
(1498256922.100712) can0 152#E12C000000000880
(1498256922.101729) can0 140#0003004000001600
(1498256922.101740) can0 141#5626722700803F00
(1498256922.105738) can0 0D0#DCFF000000000000
(1498256922.105748) can0 0D1#00000080
(1498256922.105750) can0 0D2#0000FFFF10000000
(1498256922.105870) can0 0D3#0046C04E0000C3
(1498256922.106713) can0 0D4#0000000000000000
(1498256922.108707) can0 280#000B180000000000
(1498256922.109697) can0 002#0047700BC2000000
(1498256922.110672) can0 371#FFFF0000802D0000
(1498256922.111768) can0 140#0004004000001600
(1498256922.111790) can0 141#5626722700803F00
(1498256922.111792) can0 144#C000067C5024A000
(1498256922.116722) can0 156#0100000000000028
(1498256922.119723) can0 002#0047700DC4000000
(1498256922.120720) can0 152#E93C000000000880
(1498256922.120731) can0 376#AD
(1498256922.121756) can0 140#0005004000001600
(1498256922.121766) can0 141#5626722700803F00
(1498256922.121769) can0 360#000045462F000100
(1498256922.122704) can0 361#00013DD161000000
(1498256922.122717) can0 362#D47189BE7561BE04
(1498256922.125736) can0 0D0#DCFF000000000000
(1498256922.125747) can0 0D1#00000080
(1498256922.125750) can0 0D2#0000FFFF10000000
(1498256922.126713) can0 0D3#8046C04E0000C4
(1498256922.126724) can0 0D4#0000000000000000
(1498256922.128712) can0 280#000C180000000000
(1498256922.129700) can0 002#0047700FC6000000
(1498256922.130675) can0 370#FFFF200180070000
(1498256922.130681) can0 371#FFFF0000802D0000
(1498256922.131766) can0 140#0006004000001600
(1498256922.131785) can0 141#5626712700803F00
(1498256922.131787) can0 144#C000067C5024A000
(1498256922.136678) can0 156#0100000000000028
(1498256922.139682) can0 002#00477001B8000000
(1498256922.140697) can0 152#E14C000000000880
(1498256922.141705) can0 140#0007004000001600
(1498256922.141712) can0 141#5626722700803F00
(1498256922.145687) can0 0D0#DCFF000000000000
(1498256922.145714) can0 0D1#00000080
(1498256922.145717) can0 0D2#0000FFFF10000000
(1498256922.146702) can0 0D3#0046C04E0000C5
(1498256922.146710) can0 0D4#0000000000000000
(1498256922.146712) can0 282#8A40008282013A00
(1498256922.148709) can0 280#000D180000000000
(1498256922.148732) can0 281#0000FCFC40000000
(1498256922.148736) can0 25C#2300000000000000
(1498256922.149686) can0 002#00477003BA000000
(1498256922.150694) can0 371#FFFF0000802D0000
(1498256922.150700) can0 6C8#5000000000000000
(1498256922.151716) can0 140#0008004000001600
(1498256922.151726) can0 141#5626722700803F00
(1498256922.151728) can0 144#C000067C5024A000
(1498256922.154683) can0 372#0068000000000000
(1498256922.157693) can0 156#0100000000000028
(1498256922.157709) can0 3D1#9C100000FD000000
(1498256922.159670) can0 002#00477005BC000000
(1498256922.160697) can0 152#E95C000000000880
(1498256922.161732) can0 140#0009004000001600
(1498256922.161740) can0 141#5626722700803F00
(1498256922.161742) can0 284#C102000E00000000
(1498256922.165709) can0 0D0#DCFF000000000000
(1498256922.165718) can0 0D1#00000080
(1498256922.165719) can0 0D2#0000FFFF10000000
(1498256922.166708) can0 0D3#0046C04E0000C6
(1498256922.166718) can0 0D4#0000000000000000
(1498256922.168697) can0 280#000E180000000000
(1498256922.169695) can0 002#00477007BE000000
(1498256922.170692) can0 376#AD
(1498256922.170701) can0 371#FFFF0000802D0000
(1498256922.171805) can0 140#000A004000001600
(1498256922.171812) can0 141#5626722700803F00
(1498256922.171813) can0 144#C000067C5024A000
(1498256922.171815) can0 360#000045462F000100
(1498256922.171923) can0 361#00013DD162000000
(1498256922.172695) can0 362#D57189BE7561BE04
(1498256922.176676) can0 156#0100000000000028
(1498256922.178683) can0 370#FFFF200180080000
(1498256922.179677) can0 002#00477009C0000000
(1498256922.180676) can0 152#E96C000000000880
(1498256922.181711) can0 140#000B004000001600
(1498256922.181718) can0 141#5626722700803F00
(1498256922.185715) can0 0D0#DCFF000000000000
(1498256922.185736) can0 0D1#00000080
(1498256922.185739) can0 0D2#0000FFFF10000000
(1498256922.186688) can0 0D3#8046C04E0000C7
(1498256922.186710) can0 0D4#0000000000000000
(1498256922.188690) can0 280#000F180000000000
(1498256922.189684) can0 002#0047700BC2000000
(1498256922.190709) can0 371#FFFF0000802C0000
(1498256922.191749) can0 140#000C004000001600
(1498256922.191764) can0 141#5626722700803F00
(1498256922.191767) can0 144#C000067C5024A000
(1498256922.196705) can0 156#0100000000000028
(1498256922.197704) can0 282#8A50008282013A00
(1498256922.199705) can0 002#0047700DC4000000
(1498256922.200694) can0 152#E17C000000000880
(1498256922.201702) can0 140#000D004000001600
(1498256922.201713) can0 141#5626722700803F00
(1498256922.205752) can0 0D0#DCFF000000000000
(1498256922.205763) can0 0D1#00000080
(1498256922.205765) can0 0D2#0000FFFF10000000
(1498256922.206693) can0 0D3#8046C04E0000C8
(1498256922.206700) can0 0D4#0000000000000000
(1498256922.208689) can0 280#0000180000000000
(1498256922.208695) can0 25C#A400000000000000
(1498256922.209671) can0 002#0047700FC6000000
(1498256922.210658) can0 371#FFFF0000802C0000
(1498256922.211740) can0 140#000E004000001600
(1498256922.211747) can0 141#5626722700803F00
(1498256922.211748) can0 144#C000067C5024A000
(1498256922.216692) can0 156#0100000000000028
(1498256922.219686) can0 002#00477001B8000000
(1498256922.220732) can0 152#E18C000000000880
(1498256922.220744) can0 376#AD
(1498256922.220747) can0 660#FFFF0BA9000008F6
(1498256922.221713) can0 140#000F004000001600
(1498256922.221718) can0 141#5626722700803F00
(1498256922.221721) can0 360#000045462F000100
(1498256922.221722) can0 361#00013DD163000000
(1498256922.222730) can0 362#D57189BE7561BE04
(1498256922.225721) can0 0D0#DCFF000000000000
(1498256922.225733) can0 0D1#00000080
(1498256922.225737) can0 0D2#0000FFFF10000000
(1498256922.226742) can0 0D3#0046C04E0000C9
(1498256922.226754) can0 0D4#0000000000000000
(1498256922.226756) can0 370#FFFF200180090000
(1498256922.228679) can0 280#0001180000000000
(1498256922.229686) can0 002#00477003BA000000
(1498256922.230678) can0 371#FFFF0000802C0000
(1498256922.231728) can0 140#0000004000001600
(1498256922.231736) can0 141#5626722700803F00
(1498256922.231738) can0 144#C000067C5024A000
(1498256922.236669) can0 156#0100000000000028
(1498256922.239668) can0 002#00477005BC000000
(1498256922.240675) can0 152#E99C000000000880
(1498256922.241692) can0 140#0001004000001600
(1498256922.241699) can0 141#5626722700803F00
(1498256922.245701) can0 0D0#DCFF000000000000
(1498256922.245710) can0 0D1#00000080
(1498256922.245712) can0 0D2#0000FFFF10000000
(1498256922.246672) can0 0D3#0046C04E0000CA
(1498256922.246702) can0 0D4#0000000000000000
(1498256922.246739) can0 282#8960008282013A00
(1498256922.248677) can0 280#0002180000000000
(1498256922.249648) can0 002#00477007BE000000
(1498256922.250682) can0 371#FFFF0000802D0000
(1498256922.251684) can0 140#0002004000001600
(1498256922.251727) can0 141#5626722700803F00
(1498256922.251729) can0 144#C000067C5024A000
(1498256922.254679) can0 372#0070000000000000
(1498256922.257695) can0 156#0100000000000028
(1498256922.257699) can0 3D1#9B100000FD000000
(1498256922.259680) can0 002#00477009C0000000
(1498256922.260669) can0 152#E9AC000000000880
(1498256922.261701) can0 140#0003004000001600
(1498256922.261704) can0 141#5626722700803F00
(1498256922.261704) can0 284#C103000E00000000
(1498256922.265690) can0 0D0#DCFF000000000000
(1498256922.265705) can0 0D1#00000080
(1498256922.265722) can0 0D2#0000FFFF10000000
(1498256922.265886) can0 0D3#8046C04E0000CB
(1498256922.266664) can0 0D4#0000000000000000
(1498256922.268684) can0 280#0003180000000000
(1498256922.268699) can0 25C#2500000000000000
(1498256922.269670) can0 002#0047700BC2000000
(1498256922.270669) can0 376#AD
(1498256922.270699) can0 371#FFFF0000802C0000
(1498256922.271776) can0 140#0004004000001600
(1498256922.271782) can0 141#5626722700803F00
(1498256922.271784) can0 144#C000067C5024A000
(1498256922.271786) can0 360#000045462F000100
(1498256922.272657) can0 361#00013DD164000000
(1498256922.272720) can0 362#D57189BE7561BE04
(1498256922.274702) can0 370#FFFF2001800A0000
(1498256922.276724) can0 156#0100000000000028
(1498256922.279725) can0 002#0047700DC4000000
(1498256922.280725) can0 152#E1BC000000000880
(1498256922.281755) can0 140#0005004000001600
(1498256922.281773) can0 141#5626722700803F00
(1498256922.285834) can0 0D0#DCFF000000000000
(1498256922.285852) can0 0D1#00000080
(1498256922.285854) can0 0D2#0000FFFF10000000
(1498256922.286716) can0 0D3#0046C04E0000CC
(1498256922.286737) can0 0D4#0000000000000000
(1498256922.288706) can0 280#0004180000000000
(1498256922.289671) can0 002#0047700FC6000000
(1498256922.290653) can0 371#FFFF0000802C0000
(1498256922.291702) can0 140#0006004000001600
(1498256922.291713) can0 141#5626722700803F00
(1498256922.291716) can0 144#C000067C5024A000
(1498256922.296710) can0 156#0100000000000028
(1498256922.297716) can0 282#8970008282013A00
(1498256922.299750) can0 002#00477001B8000000
(1498256922.300751) can0 152#E9CC000000000880
(1498256922.301746) can0 140#0007004000001600
(1498256922.301757) can0 141#5626722700803F00
(1498256922.305738) can0 0D0#DCFF000000000000
(1498256922.305750) can0 0D1#00000080
(1498256922.305754) can0 0D2#0000FFFF10000000
(1498256922.306748) can0 0D3#8046C04E0000CD
(1498256922.306760) can0 0D4#0000000000000000
(1498256922.308820) can0 280#0005180000000000
(1498256922.309785) can0 002#00477003BA000000
(1498256922.310822) can0 371#FFFF0000802C0000
(1498256922.311814) can0 140#0008004000001600
(1498256922.311831) can0 141#5626722700803F00
(1498256922.311833) can0 144#C000067C5024A000
(1498256922.317802) can0 156#0100000000000028
(1498256922.319798) can0 002#00477005BC000000
(1498256922.320819) can0 152#E1DC000000000880
(1498256922.320842) can0 376#AD
(1498256922.321879) can0 140#0009004000001600
(1498256922.321903) can0 141#5626722700803F00
(1498256922.321906) can0 360#000045462F000100
(1498256922.321908) can0 361#00013DD165000000
(1498256922.321910) can0 362#D57189BE7561BE04
(1498256922.322773) can0 370#FFFF2001800B0000
(1498256922.325839) can0 0D0#DCFF000000000000
(1498256922.325862) can0 0D1#00000080
(1498256922.325864) can0 0D2#0000FFFF10000000
(1498256922.326801) can0 0D3#8046C04E0000CE
(1498256922.326825) can0 0D4#0000000000000000
(1498256922.328828) can0 280#0006180000000000
(1498256922.328851) can0 25C#2600000000000000
(1498256922.329803) can0 002#00477007BE000000
(1498256922.330819) can0 371#FFFF0000802C0000
(1498256922.330843) can0 140#000A004000001600
(1498256922.331728) can0 141#5626722700803F00
(1498256922.331745) can0 144#C000067C5024A000
(1498256922.337801) can0 156#0100000000000028
(1498256922.339754) can0 002#00477009C0000000
(1498256922.340817) can0 152#E1EC000000000880
(1498256922.340843) can0 140#000B004000001600
(1498256922.341817) can0 141#5626722700803F00
(1498256922.345842) can0 0D0#DCFF000000000000
(1498256922.345865) can0 0D1#00000080
(1498256922.345868) can0 0D2#0000FFFF10000000
(1498256922.346823) can0 0D3#0046C04E0000CF
(1498256922.346848) can0 0D4#0000000000000000
(1498256922.347815) can0 282#8980008282013A00
(1498256922.348815) can0 280#0007180000000000
(1498256922.349791) can0 002#0047700BC2000000
(1498256922.350816) can0 371#FFFF0000802C0000
(1498256922.351820) can0 140#000C004000001600
(1498256922.351845) can0 141#5626722700803F00
(1498256922.351848) can0 144#C000067C5024A000
(1498256922.354803) can0 372#0080000000000000
(1498256922.357841) can0 156#0100000000000028
(1498256922.357863) can0 3D1#9A100000FD000000
(1498256922.359826) can0 002#0047700DC4000000
(1498256922.360822) can0 152#E9FC000000000880
(1498256922.361833) can0 140#000D004000001600
(1498256922.361856) can0 141#5626722700803F00
(1498256922.361859) can0 284#C104000E00000000
(1498256922.365847) can0 0D0#DCFF000000000000
(1498256922.365870) can0 0D1#00000080
(1498256922.365873) can0 0D2#0000FFFF10000000
(1498256922.366807) can0 0D3#8046C04E0000D0
(1498256922.366829) can0 0D4#0000000000000000
(1498256922.368825) can0 280#0008180000000000
(1498256922.369806) can0 002#0047700FC6000000
(1498256922.370817) can0 376#AD
(1498256922.370840) can0 370#FFFF2001800C0000
(1498256922.370843) can0 371#FFFF0000802C0000
(1498256922.371908) can0 140#000E004000001600
(1498256922.371931) can0 141#5626722700803F00
(1498256922.371934) can0 144#C000067C5024A000
(1498256922.371936) can0 360#000045462F000100
(1498256922.371938) can0 361#00013DD166000000
(1498256922.372805) can0 362#D67189BE7561BE04
(1498256922.377807) can0 156#0100000000000028
(1498256922.379824) can0 002#00477001B8000000
(1498256922.380802) can0 152#E90C000000000880
(1498256922.381835) can0 140#000F004000001600
(1498256922.381857) can0 141#5626722700803F00
(1498256922.385805) can0 0D0#DCFF000000000000
(1498256922.385826) can0 0D1#00000080
(1498256922.385829) can0 0D2#0000FFFF10000000
(1498256922.386744) can0 0D3#0046C04E0000D1
(1498256922.386766) can0 0D4#0000000000000000
(1498256922.388834) can0 280#0009180000000000
(1498256922.388857) can0 25C#A700000000000000
(1498256922.389806) can0 002#00477003BA000000
(1498256922.390826) can0 371#FFFF0000802D0000
(1498256922.391844) can0 140#0000004000001600
(1498256922.391867) can0 141#5626722700803F00
(1498256922.391870) can0 144#C000067C5024A000
(1498256922.397821) can0 156#0100000000000028
(1498256922.397843) can0 282#8990008282013A00
(1498256922.399824) can0 002#00477005BC000000
(1498256922.400826) can0 152#E11C000000000880
(1498256922.400848) can0 140#0001004000001600
(1498256922.401817) can0 141#5626722700803F00
(1498256922.405808) can0 0D0#DCFF000000000000
(1498256922.405831) can0 0D1#00000080
(1498256922.405834) can0 0D2#0000FFFF10000000
(1498256922.406826) can0 0D3#0046C04E0000D2
(1498256922.406849) can0 0D4#0000000000000000
(1498256922.408819) can0 280#000A180000000000
(1498256922.409804) can0 002#00477007BE000000
(1498256922.410831) can0 371#FFFF0000802C0000
(1498256922.410853) can0 140#0002004000001600
(1498256922.411828) can0 141#5626722700803F00
(1498256922.411851) can0 144#C000067C5024A000
(1498256922.417809) can0 156#0100000000000028
(1498256922.418797) can0 370#FFFF2001800D0000
(1498256922.419816) can0 002#00477009C0000000
(1498256922.420833) can0 152#E12C000000000880
(1498256922.420856) can0 376#AD
(1498256922.420859) can0 140#0003004000001600
(1498256922.421783) can0 141#5626712700803F00
(1498256922.421806) can0 360#000045462F000100
(1498256922.421809) can0 361#00013DD167000000
(1498256922.421811) can0 362#D67189BE7561BE04
(1498256922.425848) can0 0D0#DCFF000000000000
(1498256922.425870) can0 0D1#00000080
(1498256922.425874) can0 0D2#0000FFFF10000000
(1498256922.426811) can0 0D3#8046C04E0000D3
(1498256922.426833) can0 0D4#0000000000000000
(1498256922.428795) can0 280#000B180000000000
(1498256922.429814) can0 002#0047700BC2000000
(1498256922.430824) can0 371#FFFF0000802C0000
(1498256922.431833) can0 140#0004004000001600
(1498256922.431855) can0 141#5626722700803F00
(1498256922.431858) can0 144#C000067C5024A000
(1498256922.437806) can0 156#0100000000000028
(1498256922.439822) can0 002#0047700DC4000000
(1498256922.440829) can0 152#E93C000000000880
(1498256922.440852) can0 140#0005004000001600
(1498256922.441782) can0 141#5626712700803F00
(1498256922.445807) can0 0D0#DCFF000000000000
(1498256922.445831) can0 0D1#00000080
(1498256922.445834) can0 0D2#0000FFFF10000000
(1498256922.446783) can0 0D3#0046C04E0000D4
(1498256922.446798) can0 0D4#0000000000000000
(1498256922.447812) can0 282#8AA0008282013A00
(1498256922.448811) can0 280#000C180000000000
(1498256922.448834) can0 25C#2000000000000000
(1498256922.448853) can0 002#0047700FC6000000
(1498256922.450806) can0 371#FFFF0000802D0000
(1498256922.450826) can0 140#0006004000001600
(1498256922.451810) can0 141#5626722700803F00
(1498256922.451829) can0 144#C000067C5024A000
(1498256922.454803) can0 372#0098000000000000
(1498256922.457827) can0 156#0100000000000028
(1498256922.457847) can0 3D1#9A100000FD000000
(1498256922.459782) can0 002#00477001B8000000
(1498256922.460817) can0 152#E14C000000000880
(1498256922.460837) can0 140#0007004000001600
(1498256922.461815) can0 141#5626722700803F00
(1498256922.461835) can0 284#C105000E00000000
(1498256922.465842) can0 0D0#DCFF000000000000
(1498256922.465861) can0 0D1#00000080
(1498256922.465864) can0 0D2#0000FFFF10000000
(1498256922.466768) can0 0D3#8046C04E0000D5
(1498256922.466787) can0 0D4#0000000000000000
(1498256922.466790) can0 370#FFFF2001800E0000
(1498256922.468810) can0 280#000D180000000000
(1498256922.469796) can0 002#00477003BA000000
(1498256922.470819) can0 376#AD
(1498256922.470838) can0 371#FFFF0000802C0000
(1498256922.470841) can0 140#0008004000001600
(1498256922.471838) can0 141#5626712700803F00
(1498256922.471852) can0 144#C000067C5024A000
(1498256922.471855) can0 360#000045462F000100
(1498256922.471857) can0 361#00013DD168000000
(1498256922.472770) can0 362#D77189BE7561BE04
(1498256922.477812) can0 156#0100000000000028
(1498256922.479801) can0 002#00477005BC000000
(1498256922.480804) can0 152#E95C000000000880
(1498256922.481816) can0 140#0009004000001600
(1498256922.481837) can0 141#5626722700803F00
(1498256922.485746) can0 0D0#DCFF000000000000
(1498256922.485767) can0 0D1#00000080
(1498256922.485771) can0 0D2#0000FFFF10000000
(1498256922.486808) can0 0D3#8046C04E0000D6
(1498256922.486826) can0 0D4#0000000000000000
(1498256922.488814) can0 280#000E180000000000
(1498256922.489796) can0 002#00477007BE000000
(1498256922.490773) can0 371#FFFF0000802C0000
(1498256922.490793) can0 140#000A004000001600
(1498256922.490795) can0 141#5626722700803F00
(1498256922.491815) can0 144#C000067C5024A000
(1498256922.497818) can0 156#0100000000000028
(1498256922.497838) can0 282#8AB0008282013A00
(1498256922.499693) can0 002#00477009C0000000
(1498256922.500727) can0 152#E96C000000000880
(1498256922.500744) can0 140#000B004000001600
(1498256922.501700) can0 141#5626722700803F00
(1498256922.505715) can0 0D0#DCFF000000000000
(1498256922.505728) can0 0D1#00000080
(1498256922.505732) can0 0D2#0000FFFF10000000
(1498256922.506703) can0 0D3#0046C04E0000D7
(1498256922.506716) can0 0D4#0000000000000000
(1498256922.508731) can0 280#000F180000000000
(1498256922.508746) can0 25C#A100000000000000
(1498256922.509712) can0 002#0047700BC2000000
(1498256922.510735) can0 371#FFFF0000802C0000
(1498256922.510745) can0 140#000C004000001600
(1498256922.511731) can0 141#5626722700803F00
(1498256922.511742) can0 144#C000067C5024A000
(1498256922.514787) can0 370#FFFF2001800F0000
(1498256922.517809) can0 156#0100000000000028
(1498256922.518838) can0 002#0047700DC4000000
(1498256922.520834) can0 152#E17C000000000880
(1498256922.520853) can0 376#AD
(1498256922.520856) can0 140#000D004000001600
(1498256922.520858) can0 141#5626722700803F00
(1498256922.521774) can0 360#000045462F000100
(1498256922.521792) can0 361#00013DD169000000
(1498256922.521796) can0 362#D77189BE7561BE04
(1498256922.525837) can0 0D0#DCFF000000000000
(1498256922.525857) can0 0D1#00000080
(1498256922.525860) can0 0D2#0000FFFF10000000
(1498256922.526806) can0 0D3#0046C04E0000D8
(1498256922.526825) can0 0D4#0000000000000000
(1498256922.528818) can0 280#0000180000000000
(1498256922.529794) can0 002#0047700FC6000000
(1498256922.530741) can0 371#FFFF0000802C0000
(1498256922.530759) can0 140#000E004000001600
(1498256922.531781) can0 141#5626712700803F00
(1498256922.531799) can0 144#C000067C5024A000
(1498256922.537809) can0 156#0100000000000028
(1498256922.539729) can0 002#00477001B8000000
(1498256922.540744) can0 152#E18C000000000880
(1498256922.540770) can0 140#000F004000001600
(1498256922.541728) can0 141#5626722700803F00
(1498256922.545799) can0 0D0#DCFF000000000000
(1498256922.545818) can0 0D1#00000080
(1498256922.545820) can0 0D2#0000FFFF10000000
(1498256922.546792) can0 0D3#8046C04E0000D9
(1498256922.546815) can0 0D4#0000000000000000
(1498256922.547796) can0 282#89C0008282013A00
(1498256922.548807) can0 280#0001180000000000
(1498256922.549796) can0 002#00477003BA000000
(1498256922.550826) can0 371#FFFF0000802C0000
(1498256922.550846) can0 140#0000004000001600
(1498256922.551780) can0 141#5626722700803F00
(1498256922.551799) can0 144#C000067C5024A000
(1498256922.554806) can0 372#00A8000000000000
(1498256922.557823) can0 156#0100000000000028
(1498256922.557844) can0 3D1#9A100000FD000000
(1498256922.559734) can0 002#00477005BC000000
(1498256922.560771) can0 152#E99C000000000880
(1498256922.560787) can0 140#0001004000001600
(1498256922.560790) can0 141#5626712700803F00
(1498256922.561719) can0 284#C106000E00000000
(1498256922.562697) can0 370#FFFF200180000000
(1498256922.565717) can0 0D0#DCFF000000000000
(1498256922.565731) can0 0D1#00000080
(1498256922.565735) can0 0D2#0000FFFF10000000
(1498256922.566706) can0 0D3#8046C04E0000DA
(1498256922.566717) can0 0D4#0000000000000000
(1498256922.568709) can0 280#0002180000000000
(1498256922.568723) can0 25C#A200000000000000
(1498256922.569683) can0 002#00477007BE000000
(1498256922.570730) can0 376#AD
(1498256922.570754) can0 371#FFFF0000802C0000
(1498256922.570757) can0 140#0002004000001600
(1498256922.570761) can0 141#5626712700803F00
(1498256922.571830) can0 144#C000067C5024A000
(1498256922.571841) can0 360#000045462F000100
(1498256922.571844) can0 361#00013DD16A000000
(1498256922.571846) can0 362#D87189BE7561BE04
(1498256922.577792) can0 156#0100000000000028
(1498256922.579730) can0 002#00477009C0000000
(1498256922.580821) can0 152#E9AC000000000880
(1498256922.580843) can0 140#0003004000001600
(1498256922.581718) can0 141#5626722700803F00
(1498256922.585707) can0 0D0#DCFF000000000000
(1498256922.585724) can0 0D1#00000080
(1498256922.585726) can0 0D2#0000FFFF10000000
(1498256922.586778) can0 0D3#0046C04E0000DB
(1498256922.586796) can0 0D4#0000000000000000
(1498256922.588817) can0 280#0003180000000000
(1498256922.589793) can0 002#0047700BC2000000
(1498256922.590797) can0 371#FFFF0000802D0000
(1498256922.590817) can0 140#0004004000001600
(1498256922.591760) can0 141#5626722700803F00
(1498256922.591774) can0 144#C000067C5024A000
(1498256922.597726) can0 156#0100000000000028
(1498256922.597744) can0 282#89D0008282013A00
(1498256922.598805) can0 002#0047700DC4000000
(1498256922.600706) can0 152#E1BC000000000880
(1498256922.600715) can0 140#0005004000001600
(1498256922.600718) can0 141#5626722700803F00
(1498256922.605845) can0 0D0#DCFF000000000000
(1498256922.605863) can0 0D1#00000080
(1498256922.605866) can0 0D2#0000FFFF10000000
(1498256922.606819) can0 0D3#8046C04E0000DC
(1498256922.606837) can0 0D4#0000000000000000
(1498256922.608827) can0 280#0004180000000000
(1498256922.608846) can0 002#0047700FC6000000
(1498256922.610805) can0 370#FFFF200180010000
(1498256922.610823) can0 140#0006004000001600
(1498256922.611786) can0 141#5626722700803F00
(1498256922.611803) can0 144#C000067C5024A000
(1498256922.611805) can0 371#FFFF0000802D0000
(1498256922.617828) can0 156#0100000000000028
(1498256922.619730) can0 002#00477001B8000000
(1498256922.620799) can0 152#E9CC000000000880
(1498256922.620818) can0 376#AD
(1498256922.620821) can0 140#0007004000001600
(1498256922.620823) can0 141#5626712700803F00
(1498256922.621775) can0 360#000045462F000100
(1498256922.621795) can0 361#00013DD16B000000
(1498256922.621799) can0 362#D87189BE7561BE04
(1498256922.625724) can0 0D0#DCFF000000000000
(1498256922.625740) can0 0D1#00000080
(1498256922.625742) can0 0D2#0000FFFF10000000
(1498256922.626707) can0 0D3#0046C04E0000DD
(1498256922.626718) can0 0D4#0000000000000000
(1498256922.628805) can0 280#0005180000000000
(1498256922.628825) can0 25C#2300000000000000
(1498256922.629727) can0 002#00477003BA000000
(1498256922.630830) can0 371#FFFF0000802D0000
(1498256922.630851) can0 140#0008004000001600
(1498256922.630853) can0 141#5626722700803F00
(1498256922.631719) can0 144#C000067C5024A000
(1498256922.637726) can0 156#0100000000000028
(1498256922.639760) can0 002#00477005BC000000
(1498256922.640871) can0 152#E1DC000000000880
(1498256922.640890) can0 140#0009004000001600
(1498256922.640892) can0 141#5626722700803F00
(1498256922.645815) can0 0D0#DCFF000000000000
(1498256922.645834) can0 0D1#00000080
(1498256922.645837) can0 0D2#0000FFFF10000000
(1498256922.646806) can0 0D3#0046C04E0000DE
(1498256922.646826) can0 0D4#0000000000000000
(1498256922.647721) can0 282#89E0008282013A00
(1498256922.648774) can0 280#0006180000000000
(1498256922.648818) can0 002#00477007BE000000
(1498256922.650841) can0 371#FFFF0000802D0000
(1498256922.650860) can0 140#000A004000001600
(1498256922.650864) can0 141#5626722700803F00
(1498256922.651753) can0 144#C000067C5024A000
(1498256922.654797) can0 372#00B0000000000000
(1498256922.657792) can0 156#0100000000000028
(1498256922.657811) can0 3D1#9B100000FD000000
(1498256922.658788) can0 370#FFFF200180020000
(1498256922.659797) can0 002#00477009C0000000
(1498256922.660825) can0 152#E1EC000000000880
(1498256922.660845) can0 140#000B004000001600
(1498256922.660847) can0 141#5626722700803F00
(1498256922.661806) can0 284#C107000E00000000
(1498256922.665839) can0 0D0#DCFF000000000000
(1498256922.665858) can0 0D1#00000080
(1498256922.665862) can0 0D2#0000FFFF10000000
(1498256922.666803) can0 0D3#8046C04E0000DF
(1498256922.666822) can0 0D4#0000000000000000
(1498256922.668786) can0 280#0007180000000000
(1498256922.668804) can0 002#0047700BC2000000
(1498256922.670873) can0 376#AD
(1498256922.670893) can0 371#FFFF0000802C0000
(1498256922.670896) can0 140#000C004000001600
(1498256922.670897) can0 141#5626722700803F00
(1498256922.671806) can0 144#C000067C5024A000
(1498256922.671823) can0 360#000045462F000100
(1498256922.671826) can0 361#00013DD16C000000
(1498256922.671828) can0 362#DA7189BE7561BE04
(1498256922.677700) can0 156#0100000000000028
(1498256922.679681) can0 002#0047700DC4000000
(1498256922.680732) can0 152#E9FC000000000880
(1498256922.680748) can0 140#000D004000001600
(1498256922.680837) can0 141#5626722700803F00
(1498256922.685834) can0 0D0#DCFF000000000000
(1498256922.685853) can0 0D1#00000080
(1498256922.685855) can0 0D2#0000FFFF10000000
(1498256922.686811) can0 0D3#8046C04E0000E0
(1498256922.686831) can0 0D4#0000000000000000
(1498256922.688824) can0 280#0008180000000000
(1498256922.688845) can0 25C#A400000000000000
(1498256922.689797) can0 002#0047700FC6000000
(1498256922.690789) can0 371#FFFF0000802D0000
(1498256922.690808) can0 140#000E004000001600
(1498256922.690811) can0 141#5626722700803F00
(1498256922.691739) can0 144#C000067C5024A000
(1498256922.697824) can0 156#0100000000000028
(1498256922.697848) can0 282#89F0008282013A00
(1498256922.699734) can0 002#00477001B8000000
(1498256922.700867) can0 152#E90C000000000880
(1498256922.700885) can0 140#000F004000001600
(1498256922.700887) can0 141#5626722700803F00
(1498256922.705738) can0 0D0#DCFF000000000000
(1498256922.705757) can0 0D1#00000080
(1498256922.705761) can0 0D2#0000FFFF10000000
(1498256922.706808) can0 0D3#0046C04E0000E1
(1498256922.706827) can0 0D4#0000000000000000
(1498256922.706829) can0 370#FFFF200180030000
(1498256922.708820) can0 280#0009180000000000
(1498256922.709769) can0 002#00477003BA000000
(1498256922.710745) can0 371#FFFF0000802D0000
(1498256922.710774) can0 140#0000004000001600
(1498256922.710781) can0 141#5626722700803F00
(1498256922.711736) can0 144#C000067C5024A000
(1498256922.717707) can0 156#0100000000000028
(1498256922.718777) can0 002#00477005BC000000
(1498256922.720741) can0 152#E11C000000000880
(1498256922.720751) can0 376#AD
(1498256922.720753) can0 140#0001004000001600
(1498256922.720755) can0 141#5626722700803F00
(1498256922.720940) can0 360#000045462F000100
(1498256922.721679) can0 361#00013DD16D000000
(1498256922.721682) can0 362#DA7189BE7561BE04
(1498256922.721719) can0 660#FFFF0BA9000008FB
(1498256922.725694) can0 0D0#DCFF000000000000
(1498256922.725703) can0 0D1#00000080
(1498256922.725704) can0 0D2#0000FFFF10000000
(1498256922.726685) can0 0D3#0046C04E0000E2
(1498256922.726692) can0 0D4#0000000000000000
(1498256922.726717) can0 378#7100000000000000
(1498256922.728696) can0 280#000A180000000000
(1498256922.729677) can0 002#00477007BE000000
(1498256922.730742) can0 371#FFFF0000802D0000
(1498256922.730747) can0 140#0002004000001600
(1498256922.730748) can0 141#5626722700803F00
(1498256922.731675) can0 144#C000067C5024A000
(1498256922.737699) can0 156#0100000000000028
(1498256922.739682) can0 002#00477009C0000000
(1498256922.740759) can0 152#E12C000000000880
(1498256922.740763) can0 140#0003004000001600
(1498256922.740764) can0 141#5626722700803F00
(1498256922.740818) can0 375#0300000120000200
(1498256922.745692) can0 0D0#DCFF000000000000
(1498256922.745698) can0 0D1#00000080
(1498256922.745699) can0 0D2#0000FFFF10000000
(1498256922.746696) can0 0D3#8046C04E0000E3
(1498256922.746700) can0 0D4#0000000000000000
(1498256922.747681) can0 282#8900008282013A00
(1498256922.748696) can0 280#000B180000000000
(1498256922.748700) can0 25C#2500000000000000
(1498256922.749662) can0 002#0047700BC2000000
(1498256922.750680) can0 371#FFFF0000802C0000
(1498256922.750683) can0 140#0004004000001600
(1498256922.750735) can0 141#5626722700803F00
(1498256922.751676) can0 144#C000067C5024A000
(1498256922.754668) can0 372#00C8000000000000
(1498256922.754683) can0 370#FFFF200180040000
(1498256922.757736) can0 156#0100000000000028
(1498256922.757740) can0 3D1#9B100000FD000000
(1498256922.759678) can0 002#0047700DC4000000
(1498256922.760754) can0 152#E93C000000000880
(1498256922.760757) can0 140#0005004000001600
(1498256922.760758) can0 141#5626722700803F00
(1498256922.761680) can0 284#C108000E00000000
(1498256922.765727) can0 0D0#DCFF000000000000
(1498256922.765740) can0 0D1#00000080
(1498256922.765746) can0 0D2#0000FFFF10000000
(1498256922.765947) can0 0D3#0046C04E0000E4
(1498256922.766723) can0 0D4#0000000000000000
(1498256922.767703) can0 6D1#7835020000000000
(1498256922.768795) can0 280#000C180000000000
(1498256922.768813) can0 002#0047700FC6000000
(1498256922.770866) can0 376#AD
(1498256922.770885) can0 140#0006004000001600
(1498256922.770888) can0 141#5626722700803F00
(1498256922.770890) can0 144#C000067C5024A000
(1498256922.771768) can0 360#000045462F000100
(1498256922.771781) can0 361#00013DD16E000000
(1498256922.771784) can0 362#DB7189BE7561BE04
(1498256922.771786) can0 371#FFFF0000802C0000
(1498256922.777821) can0 156#0100000000000028
(1498256922.779710) can0 002#00477001B8000000
(1498256922.780792) can0 152#E14C000000000880
(1498256922.780812) can0 140#0007004000001600
(1498256922.780814) can0 141#5626722700803F00
(1498256922.785835) can0 0D0#DCFF000000000000
(1498256922.785854) can0 0D1#00000080
(1498256922.785857) can0 0D2#0000FFFF10000000
(1498256922.786789) can0 0D3#8046C04E0000E5
(1498256922.786809) can0 0D4#0000000000000000
(1498256922.788798) can0 280#000D180000000000
(1498256922.789790) can0 002#00477003BA000000
(1498256922.790885) can0 371#FFFF0000802C0000
(1498256922.790910) can0 140#0008004000001600
(1498256922.790913) can0 141#5626712700803F00
(1498256922.790916) can0 144#C000067C5024A000
(1498256922.797749) can0 156#0100000000000028
(1498256922.797774) can0 282#8910008282013A00
(1498256922.798809) can0 002#00477005BC000000
(1498256922.800866) can0 152#E95C000000000880
(1498256922.800886) can0 140#0009004000001600
(1498256922.800889) can0 141#5626722700803F00
(1498256922.802786) can0 370#FFFF200180050000
(1498256922.805839) can0 0D0#DCFF000000000000
(1498256922.805858) can0 0D1#00000080
(1498256922.805861) can0 0D2#0000FFFF10000000
(1498256922.806806) can0 0D3#8046C04E0000E6
(1498256922.806826) can0 0D4#0000000000000000
(1498256922.808805) can0 280#000E180000000000
(1498256922.808829) can0 25C#2600000000000000
(1498256922.809788) can0 002#00477007BE000000
(1498256922.810876) can0 140#000A004000001600
(1498256922.810896) can0 141#5626722700803F00
(1498256922.810898) can0 144#C000067C5024A000
(1498256922.810901) can0 371#FFFF0000802D0000
(1498256922.817811) can0 156#0100000000000028
(1498256922.819798) can0 002#00477009C0000000
(1498256922.820874) can0 152#E96C000000000880
(1498256922.820896) can0 140#000B004000001600
(1498256922.820899) can0 141#5626722700803F00
(1498256922.820900) can0 360#000045462F000100
(1498256922.821815) can0 361#00013DD16F000000
(1498256922.821836) can0 362#DB7189BE7561BE04
(1498256922.821838) can0 376#AD
(1498256922.825839) can0 0D0#DCFF000000000000
(1498256922.825858) can0 0D1#00000080
(1498256922.825861) can0 0D2#0000FFFF10000000
(1498256922.826807) can0 0D3#0046C04E0000E7
(1498256922.826826) can0 0D4#0000000000000000
(1498256922.828763) can0 280#000F180000000000
(1498256922.828783) can0 002#0047700BC2000000
(1498256922.830758) can0 371#FFFF0000802C0000
(1498256922.830778) can0 140#000C004000001600
(1498256922.830781) can0 141#5626722700803F00
(1498256922.831800) can0 144#C000067C5024A000
(1498256922.837810) can0 156#0100000000000028
(1498256922.839802) can0 002#0047700DC4000000
(1498256922.840814) can0 152#E17C000000000880
(1498256922.840833) can0 140#000D004000001600
(1498256922.840836) can0 141#5626722700803F00
(1498256922.845837) can0 0D0#DCFF000000000000
(1498256922.845856) can0 0D1#00000080
(1498256922.845858) can0 0D2#0000FFFF10000000
(1498256922.846809) can0 0D3#0046C04E0000E8
(1498256922.846828) can0 0D4#0000000000000000
(1498256922.847774) can0 282#8920008282013A00
(1498256922.848808) can0 280#0000180000000000
(1498256922.848827) can0 002#0047700FC6000000
(1498256922.850863) can0 140#000E004000001600
(1498256922.850884) can0 141#5626722700803F00
(1498256922.850887) can0 144#C000067C5024A000
(1498256922.850889) can0 370#FFFF200180060000
(1498256922.851806) can0 371#FFFF0000802D0000
(1498256922.853799) can0 372#00D0000000000000
(1498256922.857818) can0 156#0100000000000028
(1498256922.857838) can0 3D1#9A100000FD000000
(1498256922.859799) can0 002#00477001B8000000
(1498256922.860873) can0 152#E18C000000000880
(1498256922.860892) can0 140#000F004000001600
(1498256922.860895) can0 141#5626722700803F00
(1498256922.861798) can0 284#C109000E00000000
(1498256922.865821) can0 0D0#DCFF000000000000
(1498256922.865841) can0 0D1#00000080
(1498256922.865843) can0 0D2#0000FFFF10000000
(1498256922.866790) can0 0D3#8046C04E0000E9
(1498256922.866810) can0 0D4#0000000000000000
(1498256922.868825) can0 280#0001180000000000
(1498256922.868844) can0 25C#A700000000000000
(1498256922.869793) can0 002#00477003BA000000
(1498256922.870881) can0 376#AD
(1498256922.870901) can0 371#FFFF0000802C0000
(1498256922.870904) can0 140#0000004000001600
(1498256922.870907) can0 141#5626722700803F00
(1498256922.871829) can0 144#C000067C5024A000
(1498256922.871849) can0 360#000045462F000100
(1498256922.871852) can0 361#00013DD160000000
(1498256922.871854) can0 362#DA7189BE7561BE04
(1498256922.877812) can0 156#0100000000000028
(1498256922.878801) can0 002#00477005BC000000
(1498256922.880828) can0 152#E99C000000000880
(1498256922.880847) can0 140#0001004000001600
(1498256922.880850) can0 141#5626722700803F00
(1498256922.885839) can0 0D0#DCFF000000000000
(1498256922.885859) can0 0D1#00000080
(1498256922.885862) can0 0D2#0000FFFF10000000
(1498256922.886804) can0 0D3#8046C04E0000EA
(1498256922.886823) can0 0D4#0000000000000000
(1498256922.888799) can0 280#0002180000000000
(1498256922.888819) can0 002#00477007BE000000
(1498256922.890880) can0 140#0002004000001600
(1498256922.890899) can0 141#5626722700803F00
(1498256922.890901) can0 144#C000067C5024A000
(1498256922.890903) can0 371#FFFF0000802D0000
(1498256922.897802) can0 156#0100000000000028
(1498256922.897822) can0 282#8930008282013A00
(1498256922.898792) can0 370#FFFF200180070000
(1498256922.899794) can0 002#00477009C0000000
(1498256922.900827) can0 140#0003004000001600
(1498256922.900846) can0 141#5626722700803F00
(1498256922.900849) can0 152#E9AC000000000880
(1498256922.905835) can0 0D0#DCFF000000000000
(1498256922.905854) can0 0D1#00000080
(1498256922.905857) can0 0D2#0000FFFF10000000
(1498256922.906756) can0 0D3#0046C04E0000EB
(1498256922.906771) can0 0D4#0000000000000000
(1498256922.908804) can0 280#0003180000000000
(1498256922.908823) can0 002#0047700BC2000000
(1498256922.910876) can0 371#FFFF0000802C0000
(1498256922.910895) can0 140#0004004000001600
(1498256922.910898) can0 141#5626722700803F00
(1498256922.911792) can0 144#C000067C5024A000
(1498256922.917804) can0 156#0100000000000028
(1498256922.918804) can0 002#0047700DC4000000
(1498256922.920890) can0 140#0005004000001600
(1498256922.920909) can0 141#5626722700803F00
(1498256922.920912) can0 152#E1BC000000000880
(1498256922.920918) can0 360#000045462F000100
(1498256922.921794) can0 361#00013DD161000000
(1498256922.921814) can0 362#DA7189BE7561BE04
(1498256922.921816) can0 376#AD
(1498256922.925830) can0 0D0#DCFF000000000000
(1498256922.925851) can0 0D1#00000080
(1498256922.925853) can0 0D2#0000FFFF10000000
(1498256922.926773) can0 0D3#8046C04E0000EC
(1498256922.926793) can0 0D4#0000000000000000
(1498256922.928829) can0 280#0004180000000000
(1498256922.928850) can0 25C#2000000000000000
(1498256922.929794) can0 002#0047700FC6000000
(1498256922.930803) can0 140#0006004000001600
(1498256922.930825) can0 141#5626722700803F00
(1498256922.930827) can0 144#C000067C5024A000
(1498256922.930829) can0 371#FFFF0000802C0000
(1498256922.937810) can0 156#0100000000000028
(1498256922.938729) can0 002#00477001B8000000
(1498256922.940827) can0 140#0007004000001600
(1498256922.940848) can0 141#5626722700803F00
(1498256922.940851) can0 152#E9CC000000000880
(1498256922.940853) can0 374#0808000080000000
(1498256922.945844) can0 0D0#DCFF000000000000
(1498256922.945874) can0 0D1#00000080
(1498256922.945878) can0 0D2#0000FFFF10000000
(1498256922.945881) can0 0D3#0046C04E0000ED
(1498256922.946740) can0 0D4#0000000000000000
(1498256922.946762) can0 370#FFFF200180080000
(1498256922.947800) can0 282#8A40008282013A00
(1498256922.948801) can0 280#0005180000000000
(1498256922.948827) can0 002#00477003BA000000
(1498256922.950796) can0 140#0008004000001600
(1498256922.950823) can0 141#5626722700803F00
(1498256922.950826) can0 144#C000067C5024A000
(1498256922.951782) can0 371#FFFF0000802D0000
(1498256922.953795) can0 372#00E0000000000000
(1498256922.957815) can0 156#0100000000000028
(1498256922.957838) can0 3D1#9B100000FD000000
(1498256922.958780) can0 002#00477005BC000000
(1498256922.960862) can0 140#0009004000001600
(1498256922.960883) can0 141#5626722700803F00
(1498256922.960886) can0 152#E1DC000000000880
(1498256922.962750) can0 284#C10A000E00000000
(1498256922.965796) can0 0D0#DCFF000000000000
(1498256922.965821) can0 0D1#00000080
(1498256922.965824) can0 0D2#0000FFFF10000000
(1498256922.966800) can0 0D3#0046C04E0000EE
(1498256922.966823) can0 0D4#0000000000000000
(1498256922.968815) can0 280#0006180000000000
(1498256922.968837) can0 002#00477007BE000000
(1498256922.970804) can0 140#000A004000001600
(1498256922.970831) can0 141#5626722700803F00
(1498256922.970835) can0 144#C000067C5024A000
(1498256922.970838) can0 360#000045462F000100
(1498256922.970842) can0 361#00013DD162000000
(1498256922.971726) can0 362#D87189BE7561BE04
(1498256922.971742) can0 371#FFFF0000802C0000
(1498256922.971744) can0 376#AD
(1498256922.977778) can0 156#0100000000000028
(1498256922.978785) can0 002#00477009C0000000
(1498256922.980836) can0 152#E1EC000000000880
(1498256922.980855) can0 140#000B004000001600
(1498256922.980859) can0 141#5626722700803F00
(1498256922.982808) can0 37A#0000000000040000
(1498256922.985840) can0 0D0#DCFF000000000000
(1498256922.985860) can0 0D1#00000080
(1498256922.985863) can0 0D2#0000FFFF10000000
(1498256922.986811) can0 0D3#8046C04E0000EF
(1498256922.986832) can0 0D4#0000000000000000
(1498256922.988752) can0 280#0007180000000000
(1498256922.988773) can0 25C#A100000000000000
(1498256922.989787) can0 002#0047700BC2000000
(1498256922.990828) can0 140#000C004000001600
(1498256922.990850) can0 141#5626722700803F00
(1498256922.990853) can0 144#C000067C5024A000
(1498256922.990855) can0 371#FFFF0000802C0000
(1498256922.994787) can0 370#FFFF200180090000
(1498256922.997761) can0 156#0100000000000028
(1498256922.997780) can0 282#8A50008282013A00
(1498256922.998710) can0 002#0047700DC4000000
(1498256923.000738) can0 140#000D004000001600
(1498256923.000748) can0 141#5626722700803F00
(1498256923.000750) can0 152#E9FC000000000880
(1498256923.005696) can0 0D0#DCFF000000000000
(1498256923.005704) can0 0D1#00000080
(1498256923.005706) can0 0D2#0000FFFF10000000
(1498256923.006710) can0 0D3#0046C04E0000F0
(1498256923.006723) can0 0D4#0000000000000000
(1498256923.008814) can0 280#0008180000000000
(1498256923.008833) can0 002#0047700FC6000000
(1498256923.010807) can0 140#000E004000001600
(1498256923.010827) can0 141#5626722700803F00
(1498256923.010829) can0 144#C000067C5024A000
(1498256923.010832) can0 371#FFFF0000802C0000
(1498256923.017742) can0 156#0100000000000028
(1498256923.018725) can0 002#00477001B8000000
(1498256923.020805) can0 140#000F004000001600
(1498256923.020823) can0 141#5626722700803F00
(1498256923.020825) can0 152#E90C000000000880
(1498256923.020827) can0 360#000045462F000100
(1498256923.021809) can0 361#00013DD163000000
(1498256923.021829) can0 362#D87189BE7561BE04
(1498256923.021832) can0 376#AD
(1498256923.025826) can0 0D0#DCFF000000000000
(1498256923.025846) can0 0D1#00000080
(1498256923.025853) can0 0D2#0000FFFF10000000
(1498256923.026786) can0 0D3#8046C04E0000F1
(1498256923.026805) can0 0D4#0000000000000000
(1498256923.028779) can0 280#0009180000000000
(1498256923.028798) can0 002#00477003BA000000
(1498256923.030812) can0 140#0000004000001600
(1498256923.030833) can0 141#5626722700803F00
(1498256923.030836) can0 144#C000067C5024A000
(1498256923.030838) can0 371#FFFF0000802D0000
(1498256923.037737) can0 156#0100000000000028
(1498256923.038732) can0 002#00477005BC000000
(1498256923.040811) can0 140#0001004000001600
(1498256923.040831) can0 141#5626722700803F00
(1498256923.040833) can0 152#E11C000000000880
(1498256923.042785) can0 370#FFFF2001800A0000
(1498256923.045832) can0 0D0#DCFF000000000000
(1498256923.045851) can0 0D1#00000080
(1498256923.045854) can0 0D2#0000FFFF10000000
(1498256923.046793) can0 0D3#8046C04E0000F2
(1498256923.046812) can0 0D4#0000000000000000
(1498256923.047723) can0 282#8A60008282013A00
(1498256923.048821) can0 280#000A180000000000
(1498256923.048841) can0 25C#A200000000000000
(1498256923.049809) can0 002#00477007BE000000
(1498256923.049829) can0 140#0002004000001600
(1498256923.050845) can0 141#5626722700803F00
(1498256923.050863) can0 144#C000067C5024A000
(1498256923.050866) can0 371#FFFF0000802D0000
(1498256923.053707) can0 372#00F8000000000000
(1498256923.057814) can0 156#0100000000000028
(1498256923.057834) can0 3D1#9B100000FD000000
