(1498257459.246107) can0 002#FFEF700765000000
(1498257459.247103) can0 370#FFFF200180020000
(1498257459.247125) can0 371#FFFF000080560100
(1498257459.248147) can0 140#000C004000001600
(1498257459.248156) can0 141#5626712700803F00
(1498257459.248158) can0 144#C000067C5024A000
(1498257459.248160) can0 282#8940008181013A00
(1498257459.250073) can0 152#E1BC000000000880
(1498257459.251088) can0 0D0#3200000000000000
(1498257459.251097) can0 0D1#00000080
(1498257459.252115) can0 0D2#0000FFFF10000000
(1498257459.252121) can0 0D3#8046C04E0000AD
(1498257459.252129) can0 0D4#0000000000000000
(1498257459.256080) can0 002#FFEF700967000000
(1498257459.258169) can0 140#000D004000001600
(1498257459.258182) can0 141#5626712700803F00
(1498257459.258184) can0 280#0001180000000000
(1498257459.259082) can0 156#0100000000000028
(1498257459.259088) can0 3D1#97100000FD000000
(1498257459.266096) can0 002#FFEF700B69000000
(1498257459.267075) can0 371#FFFF000080550100
(1498257459.267245) can0 140#000E004000001600
(1498257459.268138) can0 141#5626712700803F00
(1498257459.268143) can0 144#C000067C5024A000
(1498257459.268144) can0 360#000045462F000100
(1498257459.268165) can0 361#0001CBD166000000
(1498257459.268285) can0 362#1F7289B87561BC04
(1498257459.269060) can0 372#0040000000000000
(1498257459.270061) can0 152#E9CC000000000880
(1498257459.271073) can0 0D0#3200000000000000
(1498257459.271080) can0 0D1#00000080
(1498257459.272113) can0 0D2#0000FFFF10000000
(1498257459.272125) can0 0D3#8046C04E0000AE
(1498257459.272132) can0 0D4#0000000000000000
(1498257459.276148) can0 002#FFEF700D6B000000
(1498257459.278218) can0 140#000F004000001600
(1498257459.278240) can0 141#5626712700803F00
(1498257459.278242) can0 156#0100000000000028
(1498257459.278254) can0 280#0002180000000000
(1498257459.279125) can0 25C#2300000000000000
(1498257459.279137) can0 376#AD
(1498257459.286117) can0 002#FFEF700F6D000000
(1498257459.287097) can0 371#FFFF000080550100
(1498257459.288109) can0 140#0000004000001600
(1498257459.288138) can0 141#5626712700803F00
(1498257459.288140) can0 144#C000067C5024A000
(1498257459.290133) can0 152#E1DC000000000880
(1498257459.291151) can0 0D0#3200000000000000
(1498257459.291161) can0 0D1#00000080
(1498257459.292149) can0 0D2#0000FFFF10000000
(1498257459.292161) can0 0D3#0046C04E0000AF
(1498257459.292167) can0 0D4#0000000000000000
(1498257459.295121) can0 370#FFFF200180030000
(1498257459.296115) can0 002#FFEF70015F000000
(1498257459.298211) can0 140#0001004000001600
(1498257459.298241) can0 141#5626712700803F00
(1498257459.298244) can0 280#0003180000000000
(1498257459.298247) can0 156#0100000000000028
(1498257459.299203) can0 282#8950008181013A00
(1498257459.302151) can0 284#C10A000E00000000
(1498257459.306192) can0 002#FFEF700361000000
(1498257459.307203) can0 371#FFFF000080550100
(1498257459.307226) can0 140#0002004000001600
(1498257459.308201) can0 141#5626712700803F00
(1498257459.308224) can0 144#C000067C5024A000
(1498257459.310189) can0 152#E1EC000000000880
(1498257459.311087) can0 0D0#3200000000000000
(1498257459.311105) can0 0D1#00000080
(1498257459.312131) can0 0D2#0000FFFF10000000
(1498257459.312151) can0 0D3#8046C04E0000B0
(1498257459.312166) can0 0D4#0000000000000000
(1498257459.316131) can0 002#FFEF700563000000
(1498257459.318137) can0 140#0003004000001600
(1498257459.318167) can0 141#5626712700803F00
(1498257459.318170) can0 360#000045462F000100
(1498257459.318174) can0 361#0001CBD167000000
(1498257459.318178) can0 156#0100000000000028
(1498257459.319137) can0 280#0004180000000000
(1498257459.319162) can0 362#1F7289B87561BC04
(1498257459.322105) can0 37A#0000000000040000
(1498257459.326079) can0 002#FFEF700765000000
(1498257459.327096) can0 371#FFFF000080560100
(1498257459.328150) can0 140#0004004000001600
(1498257459.328176) can0 141#5626712700803F00
(1498257459.328180) can0 144#C000067C5024A000
(1498257459.330194) can0 152#E9FC000000000880
(1498257459.330226) can0 376#AD
(1498257459.331179) can0 0D0#3200000000000000
(1498257459.331201) can0 0D1#00000080
(1498257459.332226) can0 0D2#0000FFFF10000000
(1498257459.332248) can0 0D3#0046C04E0000B1
(1498257459.332260) can0 0D4#0000000000000000
(1498257459.336193) can0 002#FFEF700967000000
(1498257459.337143) can0 140#0005004000001600
(1498257459.338220) can0 141#5626712700803F00
(1498257459.338244) can0 280#0005180000000000
(1498257459.338258) can0 156#0100000000000028
(1498257459.339193) can0 25C#A400000000000000
(1498257459.343182) can0 370#FFFF200180040000
(1498257459.346188) can0 002#FFEF700B69000000
(1498257459.347223) can0 371#FFFF000080550100
(1498257459.347254) can0 140#0006004000001600
(1498257459.348225) can0 141#5626722700803F00
(1498257459.348256) can0 144#C000067C5024A000
(1498257459.348259) can0 282#8960008181013A00
(1498257459.350189) can0 152#E90C000000000880
(1498257459.351146) can0 0D0#3200000000000000
(1498257459.351168) can0 0D1#00000080
(1498257459.352237) can0 0D2#0000FFFF10000000
(1498257459.352260) can0 0D3#0046C04E0000B2
(1498257459.352271) can0 0D4#0000000000000000
(1498257459.356190) can0 002#FFEF700D6B000000
(1498257459.357189) can0 140#0007004000001600
(1498257459.358225) can0 141#5626712700803F00
(1498257459.358255) can0 280#0006180000000000
(1498257459.359165) can0 156#0100000000000028
(1498257459.359187) can0 3D1#97100000FD000000
(1498257459.366192) can0 002#FFEF700F6D000000
(1498257459.367209) can0 371#FFFF000080560100
(1498257459.368253) can0 140#0008004000001600
(1498257459.368290) can0 141#5626712700803F00
(1498257459.368295) can0 144#C000067C5024A000
(1498257459.368300) can0 360#000045462F000100
(1498257459.368306) can0 361#0001CBD168000000
(1498257459.369200) can0 362#1E7289B87561BC04
(1498257459.369234) can0 372#0058000000000000
(1498257459.370168) can0 152#E11C000000000880
(1498257459.371168) can0 0D0#3200000000000000
(1498257459.371190) can0 0D1#00000080
(1498257459.372189) can0 0D2#0000FFFF10000000
(1498257459.372209) can0 0D3#8046C04E0000B3
(1498257459.372221) can0 0D4#0000000000000000
(1498257459.376208) can0 002#FFEF70015F000000
(1498257459.378195) can0 140#0009004000001600
(1498257459.378225) can0 141#5626712700803F00
(1498257459.378229) can0 280#0007180000000000
(1498257459.378233) can0 156#0100000000000028
(1498257459.379188) can0 376#AD
(1498257459.386206) can0 002#FFEF700361000000
(1498257459.387225) can0 371#FFFF000080560100
(1498257459.387247) can0 140#000A004000001600
(1498257459.388184) can0 141#5626712700803F00
(1498257459.388205) can0 144#C000067C5024A000
(1498257459.390196) can0 152#E12C000000000880
(1498257459.391203) can0 370#FFFF200180050000
(1498257459.391234) can0 0D0#3200000000000000
(1498257459.391237) can0 0D1#00000080
(1498257459.392189) can0 0D2#0000FFFF10000000
(1498257459.392209) can0 0D3#0046C04E0000B4
(1498257459.392222) can0 0D4#0000000000000000
(1498257459.396207) can0 002#FFEF700563000000
(1498257459.397177) can0 140#000B004000001600
(1498257459.398214) can0 141#5626712700803F00
(1498257459.398234) can0 280#0008180000000000
(1498257459.398248) can0 156#0100000000000028
(1498257459.399217) can0 282#8970008181013A00
(1498257459.399248) can0 25C#2500000000000000
(1498257459.402169) can0 284#C10B000E00000000
(1498257459.406207) can0 002#FFEF700765000000
(1498257459.407151) can0 371#FFFF000080550100
(1498257459.407180) can0 140#000C004000001600
(1498257459.408218) can0 141#5626712700803F00
(1498257459.408240) can0 144#C000067C5024A000
(1498257459.410193) can0 152#E93C000000000880
(1498257459.411187) can0 0D0#3200000000000000
(1498257459.411208) can0 0D1#00000080
(1498257459.412188) can0 0D2#0000FFFF10000000
(1498257459.412209) can0 0D3#8046C04E0000B5
(1498257459.412220) can0 0D4#0000000000000000
(1498257459.416139) can0 002#FFEF700967000000
(1498257459.417144) can0 140#000D004000001600
(1498257459.418205) can0 141#5626712700803F00
(1498257459.418231) can0 360#000045462F000100
(1498257459.418236) can0 361#0001CBD169000000
(1498257459.418255) can0 280#0009180000000000
(1498257459.418288) can0 156#0100000000000028
(1498257459.419199) can0 362#1E7289B87561BC04
(1498257459.426209) can0 002#FFEF700B69000000
(1498257459.427226) can0 371#FFFF000080550100
(1498257459.427247) can0 140#000E004000001600
(1498257459.427261) can0 141#5626712700803F00
(1498257459.428126) can0 144#C000067C5024A000
(1498257459.430194) can0 152#E14C000000000880
(1498257459.430225) can0 376#AD
(1498257459.431167) can0 0D0#3200000000000000
(1498257459.431190) can0 0D1#00000080
(1498257459.432235) can0 0D2#0000FFFF10000000
(1498257459.432256) can0 0D3#8046C04E0000B6
(1498257459.432268) can0 0D4#0000000000000000
(1498257459.436140) can0 002#FFEF700D6B000000
(1498257459.437205) can0 140#000F004000001600
(1498257459.438219) can0 141#5626712700803F00
(1498257459.438242) can0 280#000A180000000000
(1498257459.438254) can0 156#0100000000000028
(1498257459.439178) can0 370#FFFF200180060000
(1498257459.446207) can0 002#FFEF700F6D000000
(1498257459.447194) can0 371#FFFF000080560100
(1498257459.447223) can0 140#0000004000001600
(1498257459.448205) can0 141#5626712700803F00
(1498257459.448226) can0 144#C000067C5024A000
(1498257459.448230) can0 282#8980008181013A00
(1498257459.450192) can0 152#E95C000000000880
(1498257459.451188) can0 0D0#3200000000000000
(1498257459.451208) can0 0D1#00000080
(1498257459.452236) can0 0D2#0000FFFF10000000
(1498257459.452256) can0 0D3#0046C04E0000B7
(1498257459.452270) can0 0D4#0000000000000000
(1498257459.456208) can0 002#FFEF70015F000000
(1498257459.457156) can0 140#0001004000001600
(1498257459.458209) can0 141#5626712700803F00
(1498257459.458230) can0 280#000B180000000000
(1498257459.459189) can0 156#0100000000000028
(1498257459.459215) can0 3D1#97100000FD000000
(1498257459.459219) can0 25C#2600000000000000
(1498257459.466198) can0 002#FFEF700361000000
(1498257459.467207) can0 371#FFFF000080550100
(1498257459.467238) can0 140#0002004000001600
(1498257459.467246) can0 141#5626712700803F00
(1498257459.468225) can0 144#C000067C5024A000
(1498257459.468246) can0 360#000045462F000100
(1498257459.468250) can0 361#0001CBD16A000000
(1498257459.468262) can0 362#1C7289B87561BC04
(1498257459.469209) can0 372#0068000000000000
(1498257459.469239) can0 6D1#7835020000000000
(1498257459.470192) can0 152#E96C000000000880
(1498257459.471184) can0 6C8#E000000000000000
(1498257459.471214) can0 0D0#3200000000000000
(1498257459.471217) can0 0D1#00000080
(1498257459.472177) can0 0D2#0000FFFF10000000
(1498257459.472199) can0 0D3#0046C04E0000B8
(1498257459.472212) can0 0D4#0000000000000000
(1498257459.476207) can0 002#FFEF700563000000
(1498257459.478217) can0 140#0003004000001600
(1498257459.478246) can0 141#5626712700803F00
(1498257459.478249) can0 280#000C180000000000
(1498257459.478253) can0 156#0100000000000028
(1498257459.479164) can0 376#AD
(1498257459.486208) can0 002#FFEF700765000000
(1498257459.487186) can0 370#FFFF200180070000
(1498257459.487217) can0 371#FFFF000080560100
(1498257459.487221) can0 140#0004004000001600
(1498257459.488208) can0 141#5626712700803F00
(1498257459.488228) can0 144#C000067C5024A000
(1498257459.490204) can0 152#E17C000000000880
(1498257459.491201) can0 0D0#3200000000000000
(1498257459.491223) can0 0D1#00000080
(1498257459.492232) can0 0D2#0000FFFF10000000
(1498257459.492253) can0 0D3#8046C04E0000B9
(1498257459.492266) can0 0D4#0000000000000000
(1498257459.496205) can0 002#FFEF700967000000
(1498257459.497207) can0 140#0005004000001600
(1498257459.498186) can0 141#5626712700803F00
(1498257459.498207) can0 280#000D180000000000
(1498257459.499205) can0 156#0100000000000028
(1498257459.499226) can0 282#8990008181013A00
(1498257459.502190) can0 284#C10C000E00000000
(1498257459.506203) can0 002#FFEF700B69000000
(1498257459.507158) can0 371#FFFF000080550100
(1498257459.507199) can0 140#0006004000001600
(1498257459.507222) can0 141#5626712700803F00
(1498257459.507290) can0 144#C000067C5024A000
(1498257459.510128) can0 152#E18C000000000880
(1498257459.511092) can0 0D0#3200000000000000
(1498257459.511109) can0 0D1#00000080
(1498257459.512146) can0 0D2#0000FFFF10000000
(1498257459.512158) can0 0D3#8046C04E0000BA
(1498257459.512167) can0 0D4#0000000000000000
(1498257459.516153) can0 002#FFEF700D6B000000
(1498257459.517148) can0 140#0007004000001600
(1498257459.517182) can0 141#5626712700803F00
(1498257459.518283) can0 360#000045462F000100
(1498257459.518305) can0 361#0001CBD16B000000
(1498257459.518317) can0 362#1C7289B87561BC04
(1498257459.518320) can0 280#000E180000000000
(1498257459.519177) can0 156#0100000000000028
(1498257459.519200) can0 25C#A700000000000000
(1498257459.526192) can0 002#FFEF700F6D000000
(1498257459.527203) can0 371#FFFF000080560100
(1498257459.527233) can0 140#0008004000001600
(1498257459.528143) can0 141#5626712700803F00
(1498257459.528164) can0 144#C000067C5024A000
(1498257459.530199) can0 152#E99C000000000880
(1498257459.530228) can0 376#AD
(1498257459.531210) can0 0D0#3200000000000000
(1498257459.531231) can0 0D1#00000080
(1498257459.532235) can0 0D2#0000FFFF10000000
(1498257459.532256) can0 0D3#0046C04E0000BB
(1498257459.532268) can0 0D4#0000000000000000
(1498257459.535168) can0 370#FFFF200180080000
(1498257459.536205) can0 002#FFEF70015F000000
(1498257459.537147) can0 140#0009004000001600
(1498257459.537180) can0 141#5626712700803F00
(1498257459.538144) can0 280#000F180000000000
(1498257459.539094) can0 156#0100000000000028
(1498257459.546202) can0 002#FFEF700361000000
(1498257459.547281) can0 371#FFFF000080550100
(1498257459.547312) can0 140#000A004000001600
(1498257459.547316) can0 141#5626712700803F00
(1498257459.547319) can0 144#C000067C5024A000
(1498257459.548187) can0 282#89A0008181013A00
(1498257459.550202) can0 152#E9AC000000000880
(1498257459.551188) can0 0D0#3200000000000000
(1498257459.551212) can0 0D1#00000080
(1498257459.552231) can0 0D2#0000FFFF10000000
(1498257459.552251) can0 0D3#8046C04E0000BC
(1498257459.552263) can0 0D4#0000000000000000
(1498257459.556128) can0 002#FFEF700563000000
(1498257459.557127) can0 140#000B004000001600
(1498257459.557146) can0 141#5626712700803F00
(1498257459.558110) can0 280#0000180000000000
(1498257459.559124) can0 156#0100000000000028
(1498257459.559137) can0 3D1#97100000FD000000
(1498257459.566113) can0 002#FFEF700765000000
(1498257459.567113) can0 371#FFFF000080560100
(1498257459.567131) can0 140#000C004000001600
(1498257459.567135) can0 141#5626712700803F00
(1498257459.568123) can0 144#C000067C5024A000
(1498257459.568138) can0 360#000045462F000100
(1498257459.568143) can0 361#0001CBD16C000000
(1498257459.568155) can0 362#1A7289B87561BC04
(1498257459.569103) can0 372#0070000000000000
(1498257459.570104) can0 152#E1BC000000000880
(1498257459.571114) can0 0D0#3200000000000000
(1498257459.571126) can0 0D1#00000080
(1498257459.572134) can0 0D2#0000FFFF10000000
(1498257459.572153) can0 0D3#0046C04E0000BD
(1498257459.572161) can0 0D4#0000000000000000
(1498257459.576196) can0 002#FFEF700967000000
(1498257459.577201) can0 140#000D004000001600
(1498257459.578132) can0 141#5626712700803F00
(1498257459.578160) can0 280#0001180000000000
(1498257459.578185) can0 156#0100000000000028
(1498257459.579136) can0 25C#2000000000000000
(1498257459.579162) can0 376#AD
(1498257459.583093) can0 370#FFFF200180090000
(1498257459.586109) can0 002#FFEF700B69000000
(1498257459.587200) can0 371#FFFF000080560100
(1498257459.587213) can0 140#000E004000001600
(1498257459.587221) can0 141#5626712700803F00
(1498257459.587224) can0 144#C000067C5024A000
(1498257459.590111) can0 152#E9CC000000000880
(1498257459.591122) can0 0D0#3200000000000000
(1498257459.591134) can0 0D1#00000080
(1498257459.592151) can0 0D2#0000FFFF10000000
(1498257459.592162) can0 0D3#0046C04E0000BE
(1498257459.592169) can0 0D4#0000000000000000
(1498257459.596120) can0 002#FFEF700D6B000000
(1498257459.597128) can0 140#000F004000001600
(1498257459.597144) can0 141#5626712700803F00
(1498257459.598128) can0 280#0002180000000000
(1498257459.598144) can0 156#0100000000000028
(1498257459.599096) can0 282#89B0008181013A00
(1498257459.602133) can0 284#C10D000E00000000
(1498257459.606112) can0 002#FFEF700F6D000000
(1498257459.607147) can0 371#FFFF000080560100
(1498257459.607159) can0 140#0000004000001600
(1498257459.607167) can0 141#5626712700803F00
(1498257459.608104) can0 144#C000067C5024A000
(1498257459.610104) can0 152#E1DC000000000880
(1498257459.611113) can0 0D0#3200000000000000
(1498257459.611125) can0 0D1#00000080
(1498257459.612192) can0 0D2#0000FFFF10000000
(1498257459.612212) can0 0D3#8046C04E0000BF
(1498257459.612225) can0 0D4#0000000000000000
(1498257459.616206) can0 002#FFEF70015F000000
(1498257459.617144) can0 140#0001004000001600
(1498257459.617173) can0 141#5626712700803F00
(1498257459.618227) can0 360#000045462F000100
(1498257459.618261) can0 361#0001CBD16D000000
(1498257459.618276) can0 362#1A7289B87561BC04
(1498257459.618282) can0 280#0003180000000000
(1498257459.618292) can0 156#0100000000000028
(1498257459.626213) can0 002#FFEF700361000000
(1498257459.627287) can0 371#FFFF000080560100
(1498257459.627307) can0 140#0002004000001600
(1498257459.627321) can0 141#5626712700803F00
(1498257459.627323) can0 144#C000067C5024A000
(1498257459.630143) can0 152#E1EC000000000880
(1498257459.630170) can0 376#AD
(1498257459.631164) can0 370#FFFF2001800A0000
(1498257459.631192) can0 0D0#3200000000000000
(1498257459.631195) can0 0D1#00000080
(1498257459.632242) can0 0D2#0000FFFF10000000
(1498257459.632262) can0 0D3#0046C04E0000C0
(1498257459.632274) can0 0D4#0000000000000000
(1498257459.636221) can0 002#FFEF700563000000
(1498257459.637214) can0 140#0003004000001600
(1498257459.637245) can0 141#5626712700803F00
(1498257459.638210) can0 280#0004180000000000
(1498257459.638240) can0 156#0100000000000028
(1498257459.639200) can0 25C#A100000000000000
(1498257459.646196) can0 002#FFEF700765000000
(1498257459.647255) can0 371#FFFF000080550100
(1498257459.647285) can0 140#0004004000001600
(1498257459.647289) can0 141#5626712700803F00
(1498257459.648205) can0 144#C000067C5024A000
(1498257459.648227) can0 282#8AC0008181013A00
(1498257459.650186) can0 152#E9FC000000000880
(1498257459.651184) can0 0D0#3200000000000000
(1498257459.651205) can0 0D1#00000080
(1498257459.652230) can0 0D2#0000FFFF10000000
(1498257459.652251) can0 0D3#8046C04E0000C1
(1498257459.652263) can0 0D4#0000000000000000
(1498257459.656196) can0 002#FFEF700967000000
(1498257459.657208) can0 140#0005004000001600
(1498257459.657245) can0 141#5626712700803F00
(1498257459.658198) can0 280#0005180000000000
(1498257459.659213) can0 156#0100000000000028
(1498257459.659233) can0 3D1#97100000FD000000
(1498257459.666196) can0 002#FFEF700B69000000
(1498257459.667281) can0 371#FFFF000080550100
(1498257459.667302) can0 140#0006004000001600
(1498257459.667315) can0 141#5626712700803F00
(1498257459.667318) can0 144#C000067C5024A000
(1498257459.668169) can0 360#000045462F000100
(1498257459.668191) can0 361#0001CBD16E000000
(1498257459.668203) can0 362#1B7289B87561BC04
(1498257459.668207) can0 372#0080000000000000
(1498257459.670207) can0 152#E90C000000000880
(1498257459.671162) can0 0D0#3200000000000000
(1498257459.671178) can0 0D1#00000080
(1498257459.672181) can0 0D2#0000FFFF10000000
(1498257459.672201) can0 0D3#8046C04E0000C2
(1498257459.672215) can0 0D4#0000000000000000
(1498257459.676207) can0 002#FFEF700D6B000000
(1498257459.677211) can0 140#0007004000001600
(1498257459.677242) can0 141#5626712700803F00
(1498257459.678191) can0 280#0006180000000000
(1498257459.679184) can0 156#0100000000000028
(1498257459.679205) can0 370#FFFF2001800B0000
(1498257459.679218) can0 376#AD
(1498257459.686205) can0 002#FFEF700F6D000000
(1498257459.687220) can0 371#FFFF000080560100
(1498257459.687275) can0 140#0008004000001600
(1498257459.687282) can0 141#5626712700803F00
(1498257459.687287) can0 144#C000067C5024A000
(1498257459.690193) can0 152#E11C000000000880
(1498257459.691206) can0 0D0#3200000000000000
(1498257459.691227) can0 0D1#00000080
(1498257459.692203) can0 0D2#0000FFFF10000000
(1498257459.692224) can0 0D3#0046C04E0000C3
(1498257459.692236) can0 0D4#0000000000000000
(1498257459.696209) can0 002#FFEF70015F000000
(1498257459.697212) can0 140#0009004000001600
(1498257459.697242) can0 141#5626712700803F00
(1498257459.698202) can0 280#0007180000000000
(1498257459.698233) can0 156#0100000000000028
(1498257459.699189) can0 282#8AD0008181013A00
(1498257459.699220) can0 25C#A200000000000000
(1498257459.702199) can0 284#C10E000E00000000
(1498257459.706204) can0 002#FFEF700361000000
(1498257459.707197) can0 371#FFFF000080560100
(1498257459.707218) can0 140#000A004000001600
(1498257459.707232) can0 141#5626712700803F00
(1498257459.707235) can0 144#C000067C5024A000
(1498257459.710190) can0 152#E12C000000000880
(1498257459.711107) can0 0D0#3200000000000000
(1498257459.711125) can0 0D1#00000080
(1498257459.712187) can0 0D2#0000FFFF10000000
(1498257459.712208) can0 0D3#8046C04E0000C4
(1498257459.712220) can0 0D4#0000000000000000
(1498257459.716204) can0 002#FFEF700563000000
(1498257459.717191) can0 140#000B004000001600
(1498257459.717222) can0 141#5626712700803F00
(1498257459.717225) can0 360#000045462F000100
(1498257459.718275) can0 361#0001CBD16F000000
(1498257459.718305) can0 362#1B7289B87561BC04
(1498257459.718308) can0 280#0008180000000000
(1498257459.719184) can0 156#0100000000000028
(1498257459.726201) can0 378#0100000000000000
(1498257459.726232) can0 002#FFEF700765000000
(1498257459.727265) can0 370#FFFF2001800C0000
(1498257459.727295) can0 371#FFFF000080560100
(1498257459.727298) can0 140#000C004000001600
(1498257459.727302) can0 141#5626712700803F00
(1498257459.728175) can0 144#C000067C5024A000
(1498257459.730214) can0 152#E93C000000000880
(1498257459.730244) can0 376#AD
(1498257459.730249) can0 660#FFFF0BA900001DF5
(1498257459.731204) can0 0D0#3200000000000000
(1498257459.731225) can0 0D1#00000080
(1498257459.732207) can0 0D2#0000FFFF10000000
(1498257459.732229) can0 0D3#0046C04E0000C5
(1498257459.732242) can0 0D4#0000000000000000
(1498257459.736205) can0 002#FFEF700967000000
(1498257459.737148) can0 140#000D004000001600
(1498257459.737179) can0 141#5626712700803F00
(1498257459.738137) can0 280#0009180000000000
(1498257459.739097) can0 156#0100000000000028
(1498257459.746206) can0 002#FFEF700B69000000
(1498257459.747273) can0 371#FFFF000080560100
(1498257459.747295) can0 140#000E004000001600
(1498257459.747308) can0 141#5626712700803F00
(1498257459.747311) can0 144#C000067C5024A000
(1498257459.749189) can0 282#8AE0008181013A00
(1498257459.750208) can0 152#E14C000000000880
(1498257459.750239) can0 375#0300000120000200
(1498257459.751208) can0 0D0#3200000000000000
(1498257459.751229) can0 0D1#00000080
(1498257459.752205) can0 0D2#0000FFFF10000000
(1498257459.752227) can0 0D3#0046C04E0000C6
(1498257459.752239) can0 0D4#0000000000000000
(1498257459.756194) can0 002#FFEF700D6B000000
(1498257459.757190) can0 140#000F004000001600
(1498257459.757220) can0 141#5626712700803F00
(1498257459.758196) can0 280#000A180000000000
(1498257459.759174) can0 156#0100000000000028
(1498257459.759196) can0 3D1#97100000FD000000
(1498257459.759200) can0 25C#2300000000000000
(1498257459.766208) can0 002#FFEF700F6D000000
(1498257459.767217) can0 371#FFFF000080560100
(1498257459.767238) can0 140#0000004000001600
(1498257459.767256) can0 141#5626712700803F00
(1498257459.767259) can0 144#C000067C5024A000
(1498257459.768273) can0 360#000045462F000100
(1498257459.768295) can0 361#0001CBD160000000
(1498257459.768307) can0 362#1A7289B87561BC04
(1498257459.768310) can0 372#0098000000000000
(1498257459.770188) can0 152#E95C000000000880
(1498257459.771208) can0 0D0#3200000000000000
(1498257459.771229) can0 0D1#00000080
(1498257459.772183) can0 0D2#0000FFFF10000000
(1498257459.772204) can0 0D3#8046C04E0000C7
(1498257459.772215) can0 0D4#0000000000000000
(1498257459.775177) can0 370#FFFF2001800D0000
(1498257459.776198) can0 002#FFEF70015F000000
(1498257459.778226) can0 140#0001004000001600
(1498257459.778255) can0 141#5626712700803F00
(1498257459.778259) can0 280#000B180000000000
(1498257459.779105) can0 156#0100000000000028
(1498257459.779120) can0 376#AD
(1498257459.786121) can0 002#FFEF700361000000
(1498257459.787207) can0 371#FFFF000080560100
(1498257459.787228) can0 140#0002004000001600
(1498257459.787239) can0 141#5626712700803F00
(1498257459.787241) can0 144#C000067C5024A000
(1498257459.790201) can0 152#E96C000000000880
(1498257459.791167) can0 0D0#3200000000000000
(1498257459.791189) can0 0D1#00000080
(1498257459.792233) can0 0D2#0000FFFF10000000
(1498257459.792254) can0 0D3#8046C04E0000C8
(1498257459.792265) can0 0D4#0000000000000000
(1498257459.796192) can0 002#FFEF700563000000
(1498257459.797186) can0 140#0003004000001600
(1498257459.797215) can0 141#5626712700803F00
(1498257459.798205) can0 280#000C180000000000
(1498257459.799201) can0 156#0100000000000028
(1498257459.799224) can0 282#8AF0008181013A00
(1498257459.802199) can0 284#C10F000E00000000
(1498257459.806196) can0 002#FFEF700765000000
(1498257459.807253) can0 371#FFFF000080550100
(1498257459.807281) can0 140#0004004000001600
(1498257459.807286) can0 141#5626712700803F00
(1498257459.807288) can0 144#C000067C5024A000
(1498257459.810141) can0 152#E17C000000000880
(1498257459.811180) can0 0D0#3200000000000000
(1498257459.811202) can0 0D1#00000080
(1498257459.812172) can0 0D2#0000FFFF10000000
(1498257459.812194) can0 0D3#0046C04E0000C9
(1498257459.812207) can0 0D4#0000000000000000
(1498257459.816203) can0 002#FFEF700967000000
(1498257459.817191) can0 140#0005004000001600
(1498257459.817222) can0 141#5626712700803F00
(1498257459.817225) can0 360#000045462F000100
(1498257459.818220) can0 361#0001CBD161000000
(1498257459.818249) can0 362#1A7289B87561BC04
(1498257459.818252) can0 280#000D180000000000
(1498257459.819207) can0 156#0100000000000028
(1498257459.819229) can0 25C#A400000000000000
(1498257459.823180) can0 370#FFFF2001800E0000
(1498257459.826137) can0 002#FFEF700B69000000
(1498257459.827153) can0 371#FFFF000080550100
(1498257459.827173) can0 140#0006004000001600
(1498257459.827186) can0 141#5626712700803F00
(1498257459.827190) can0 144#C000067C5024A000
(1498257459.830107) can0 152#E18C000000000880
(1498257459.830126) can0 376#AD
(1498257459.831112) can0 0D0#3200000000000000
(1498257459.831124) can0 0D1#00000080
(1498257459.832106) can0 0D2#0000FFFF10000000
(1498257459.832122) can0 0D3#0046C04E0000CA
(1498257459.832137) can0 0D4#0000000000000000
(1498257459.836107) can0 002#FFEF700D6B000000
(1498257459.837122) can0 140#0007004000001600
(1498257459.837138) can0 141#5626712700803F00
(1498257459.838108) can0 280#000E180000000000
(1498257459.839078) can0 156#0100000000000028
(1498257459.846139) can0 002#FFEF700F6D000000
(1498257459.847166) can0 371#FFFF000080560100
(1498257459.847184) can0 140#0008004000001600
(1498257459.847186) can0 141#5626712700803F00
(1498257459.847187) can0 144#C000067C5024A000
(1498257459.849095) can0 282#8900008181013A00
(1498257459.850143) can0 152#E99C000000000880
(1498257459.851208) can0 0D0#3200000000000000
(1498257459.851229) can0 0D1#00000080
(1498257459.852213) can0 0D2#0000FFFF10000000
(1498257459.852234) can0 0D3#8046C04E0000CB
(1498257459.852247) can0 0D4#0000000000000000
(1498257459.856215) can0 002#FFEF70015F000000
(1498257459.857218) can0 140#0009004000001600
(1498257459.857246) can0 141#5626712700803F00
(1498257459.858183) can0 280#000F180000000000
(1498257459.859207) can0 156#0100000000000028
(1498257459.859228) can0 3D1#97100000FD000000
(1498257459.866229) can0 002#FFEF700361000000
(1498257459.867274) can0 371#FFFF000080560100
(1498257459.867295) can0 140#000A004000001600
(1498257459.867308) can0 141#5626712700803F00
(1498257459.867311) can0 144#C000067C5024A000
(1498257459.867313) can0 360#000045462F000100
(1498257459.868261) can0 361#0001CBD162000000
(1498257459.868291) can0 362#197289B87561BC04
(1498257459.868296) can0 372#00A8000000000000
(1498257459.870201) can0 152#E9AC000000000880
(1498257459.871084) can0 370#FFFF2001800F0000
(1498257459.871115) can0 0D0#3200000000000000
(1498257459.871119) can0 0D1#00000080
(1498257459.872234) can0 0D2#0000FFFF10000000
(1498257459.872255) can0 0D3#0046C04E0000CC
(1498257459.872267) can0 0D4#0000000000000000
(1498257459.876177) can0 002#FFEF700563000000
(1498257459.877185) can0 140#000B004000001600
(1498257459.877214) can0 141#5626712700803F00
(1498257459.878198) can0 280#0000180000000000
(1498257459.879146) can0 156#0100000000000028
(1498257459.879167) can0 25C#2500000000000000
(1498257459.879179) can0 376#AD
(1498257459.886200) can0 002#FFEF700765000000
(1498257459.887250) can0 371#FFFF000080550100
(1498257459.887278) can0 140#000C004000001600
(1498257459.887282) can0 141#5626712700803F00
(1498257459.887285) can0 144#C000067C5024A000
(1498257459.890168) can0 152#E1BC000000000880
(1498257459.891191) can0 0D0#3200000000000000
(1498257459.891212) can0 0D1#00000080
(1498257459.892230) can0 0D2#0000FFFF10000000
(1498257459.892251) can0 0D3#8046C04E0000CD
(1498257459.892263) can0 0D4#0000000000000000
(1498257459.896202) can0 002#FFEF700967000000
(1498257459.897193) can0 140#000D004000001600
(1498257459.897222) can0 141#5626712700803F00
(1498257459.898193) can0 280#0001180000000000
(1498257459.899205) can0 156#0100000000000028
(1498257459.899226) can0 282#8910008181013A00
(1498257459.902130) can0 284#C100000E00000000
(1498257459.906208) can0 002#FFEF700B69000000
(1498257459.906238) can0 371#FFFF000080560100
(1498257459.907264) can0 140#000E004000001600
(1498257459.907292) can0 141#5626712700803F00
(1498257459.907295) can0 144#C000067C5024A000
(1498257459.910129) can0 152#E9CC000000000880
(1498257459.911077) can0 0D0#3200000000000000
(1498257459.911094) can0 0D1#00000080
(1498257459.912224) can0 0D2#0000FFFF10000000
(1498257459.912245) can0 0D3#8046C04E0000CE
(1498257459.912257) can0 0D4#0000000000000000
(1498257459.916208) can0 002#FFEF700D6B000000
(1498257459.917205) can0 140#000F004000001600
(1498257459.917245) can0 141#5626712700803F00
(1498257459.917250) can0 360#000045462F000100
(1498257459.917256) can0 361#0001CBD163000000
(1498257459.917354) can0 362#197289B87561BC04
(1498257459.918208) can0 280#0002180000000000
(1498257459.919157) can0 370#FFFF200180000000
(1498257459.919188) can0 156#0100000000000028
(1498257459.926208) can0 002#FFEF700F6D000000
(1498257459.927268) can0 371#FFFF000080560100
(1498257459.927290) can0 140#0000004000001600
(1498257459.927303) can0 141#5626712700803F00
(1498257459.927306) can0 144#C000067C5024A000
(1498257459.930186) can0 152#E1DC000000000880
(1498257459.930215) can0 376#AD
(1498257459.931197) can0 0D0#3200000000000000
(1498257459.931218) can0 0D1#00000080
(1498257459.932222) can0 0D2#0000FFFF10000000
(1498257459.932243) can0 0D3#0046C04E0000CF
(1498257459.932255) can0 0D4#0000000000000000
(1498257459.936201) can0 002#FFEF70015F000000
(1498257459.937188) can0 140#0001004000001600
(1498257459.937217) can0 141#5626712700803F00
(1498257459.938127) can0 280#0003180000000000
(1498257459.939127) can0 156#0100000000000028
(1498257459.939145) can0 25C#2600000000000000
(1498257459.946201) can0 002#FFEF700361000000
(1498257459.947211) can0 371#FFFF000080560100
(1498257459.947231) can0 140#0002004000001600
(1498257459.947243) can0 141#5626712700803F00
(1498257459.947246) can0 144#C000067C5024A000
(1498257459.949189) can0 282#8920008181013A00
(1498257459.950161) can0 152#E1EC000000000880
(1498257459.950182) can0 374#0808000080000000
(1498257459.951185) can0 0D0#3200000000000000
(1498257459.951205) can0 0D1#00000080
(1498257459.952202) can0 0D2#0000FFFF10000000
(1498257459.952224) can0 0D3#8046C04E0000D0
(1498257459.952235) can0 0D4#0000000000000000
(1498257459.956194) can0 002#FFEF700563000000
(1498257459.957185) can0 140#0003004000001600
(1498257459.957215) can0 141#5626712700803F00
(1498257459.958127) can0 280#0004180000000000
(1498257459.959188) can0 156#0100000000000028
(1498257459.959210) can0 3D1#97100000FD000000
(1498257459.966200) can0 002#FFEF700765000000
(1498257459.967203) can0 370#FFFF200180010000
(1498257459.967232) can0 140#0004004000001600
(1498257459.967236) can0 141#5626712700803F00
(1498257459.967240) can0 144#C000067C5024A000
(1498257459.968277) can0 360#000045462F000100
(1498257459.968298) can0 361#0001CBD164000000
(1498257459.968309) can0 362#197289B87561BC04
(1498257459.968312) can0 371#FFFF000080550100
(1498257459.968315) can0 372#00B0000000000000
(1498257459.970179) can0 152#E9FC000000000880
(1498257459.971184) can0 0D0#3200000000000000
(1498257459.971205) can0 0D1#00000080
(1498257459.972166) can0 0D2#0000FFFF10000000
(1498257459.972187) can0 0D3#0046C04E0000D1
(1498257459.972199) can0 0D4#0000000000000000
(1498257459.976186) can0 002#FFEF700967000000
(1498257459.977214) can0 140#0005004000001600
(1498257459.977243) can0 141#5626712700803F00
(1498257459.978194) can0 280#0005180000000000
(1498257459.979204) can0 156#0100000000000028
(1498257459.979224) can0 376#AD
(1498257459.986203) can0 002#FFEF700B69000000
(1498257459.987240) can0 371#FFFF000080560100
(1498257459.987269) can0 140#0006004000001600
(1498257459.987274) can0 141#5626712700803F00
(1498257459.987277) can0 144#C000067C5024A000
(1498257459.990201) can0 152#E90C000000000880
(1498257459.991195) can0 0D0#3200000000000000
(1498257459.991216) can0 0D1#00000080
(1498257459.992227) can0 0D2#0000FFFF10000000
(1498257459.992247) can0 0D3#0046C04E0000D2
(1498257459.992260) can0 0D4#0000000000000000
(1498257459.996208) can0 002#FFEF700D6B000000
(1498257459.997190) can0 140#0007004000001600
(1498257459.997220) can0 141#5626712700803F00
(1498257459.998195) can0 280#0006180000000000
(1498257459.999237) can0 156#0100000000000028
(1498257459.999257) can0 282#8930008181013A00
(1498257459.999269) can0 25C#A700000000000000
(1498257460.002204) can0 284#C101000E00000000
(1498257460.006187) can0 002#FFEF700F6D000000
(1498257460.007265) can0 371#FFFF000080550100
(1498257460.007293) can0 140#0008004000001600
(1498257460.007298) can0 141#5626712700803F00
(1498257460.007302) can0 144#C000067C5024A000
(1498257460.010188) can0 152#E11C000000000880
(1498257460.011206) can0 0D0#3200000000000000
(1498257460.011228) can0 0D1#00000080
(1498257460.012232) can0 0D2#0000FFFF10000000
(1498257460.012252) can0 0D3#8046C04E0000D3
(1498257460.012263) can0 0D4#0000000000000000
(1498257460.014156) can0 370#FFFF200180020000
(1498257460.016181) can0 002#FFEF70015F000000
(1498257460.017281) can0 140#0009004000001600
(1498257460.017310) can0 141#5626712700803F00
(1498257460.017313) can0 360#000045462F000100
(1498257460.017316) can0 361#0001CBD165000000
(1498257460.017321) can0 362#197289B87561BC04
(1498257460.018177) can0 280#0007180000000000
(1498257460.019198) can0 156#0100000000000028
(1498257460.026211) can0 002#FFEF700361000000
(1498257460.026239) can0 140#000A004000001600
(1498257460.027212) can0 141#5626712700803F00
(1498257460.027233) can0 144#C000067C5024A000
(1498257460.027236) can0 371#FFFF000080550100
(1498257460.030185) can0 152#E12C000000000880
(1498257460.030214) can0 376#AD
(1498257460.031150) can0 0D0#3200000000000000
(1498257460.031170) can0 0D1#00000080
(1498257460.032215) can0 0D2#0000FFFF10000000
(1498257460.032236) can0 0D3#0046C04E0000D4
(1498257460.032248) can0 0D4#0000000000000000
(1498257460.036215) can0 002#FFEF700563000000
(1498257460.036243) can0 140#000B004000001600
(1498257460.037197) can0 141#5626712700803F00
(1498257460.038198) can0 280#0008180000000000
(1498257460.039189) can0 156#0100000000000028
(1498257460.046216) can0 002#FFEF700765000000
(1498257460.046245) can0 371#FFFF000080560100
(1498257460.047184) can0 140#000C004000001600
(1498257460.047214) can0 141#5626712700803F00
(1498257460.047217) can0 144#C000067C5024A000
(1498257460.049197) can0 282#8940008181013A00
(1498257460.050180) can0 152#E93C000000000880
(1498257460.051206) can0 0D0#3200000000000000
(1498257460.051226) can0 0D1#00000080
(1498257460.052165) can0 0D2#0000FFFF10000000
(1498257460.052187) can0 0D3#8046C04E0000D5
(1498257460.052200) can0 0D4#0000000000000000
(1498257460.056204) can0 002#FFEF700967000000
(1498257460.057206) can0 140#000D004000001600
(1498257460.057234) can0 141#5626712700803F00
(1498257460.058108) can0 280#0009180000000000
(1498257460.059210) can0 156#0100000000000028
(1498257460.059231) can0 25C#2000000000000000
(1498257460.059243) can0 3D1#97100000FD000000
(1498257460.062190) can0 370#FFFF200180030000
(1498257460.066210) can0 002#FFEF700B69000000
(1498257460.066239) can0 140#000E004000001600
(1498257460.067209) can0 141#5626712700803F00
(1498257460.067230) can0 144#C000067C5024A000
(1498257460.067233) can0 360#000045462F000100
(1498257460.067236) can0 361#0001CBD166000000
(1498257460.068217) can0 362#197289B87561BC04
(1498257460.068238) can0 371#FFFF000080550100
(1498257460.068255) can0 372#00C8000000000000
(1498257460.070184) can0 152#E14C000000000880
(1498257460.071201) can0 0D0#3200000000000000
(1498257460.071222) can0 0D1#00000080
(1498257460.072230) can0 0D2#0000FFFF10000000
(1498257460.072250) can0 0D3#8046C04E0000D6
(1498257460.072261) can0 0D4#0000000000000000
(1498257460.076200) can0 002#FFEF700D6B000000
(1498257460.077184) can0 140#000F004000001600
(1498257460.077212) can0 141#5626712700803F00
(1498257460.078194) can0 280#000A180000000000
(1498257460.079180) can0 156#0100000000000028
(1498257460.079202) can0 376#AD
(1498257460.086211) can0 002#FFEF700F6D000000
(1498257460.086239) can0 371#FFFF000080560100
(1498257460.087258) can0 140#0000004000001600
(1498257460.087288) can0 141#5626712700803F00
(1498257460.087291) can0 144#C000067C5024A000
(1498257460.090200) can0 152#E95C000000000880
(1498257460.091200) can0 0D0#3200000000000000
(1498257460.091220) can0 0D1#00000080
(1498257460.092227) can0 0D2#0000FFFF10000000
(1498257460.092248) can0 0D3#0046C04E0000D7
(1498257460.092259) can0 0D4#0000000000000000
(1498257460.096213) can0 002#FFEF70015F000000
(1498257460.096242) can0 140#0001004000001600
(1498257460.097184) can0 141#5626722700803F00
(1498257460.098192) can0 280#000B180000000000
(1498257460.099213) can0 156#0100000000000028
(1498257460.099234) can0 282#8950008181013A00
(1498257460.103184) can0 284#C102000E00000000
(1498257460.106210) can0 002#FFEF700361000000
(1498257460.106237) can0 140#0002004000001600
(1498257460.107260) can0 141#5626712700803F00
(1498257460.107288) can0 144#C000067C5024A000
(1498257460.107292) can0 371#FFFF000080560100
(1498257460.110209) can0 152#E96C000000000880
(1498257460.110237) can0 370#FFFF200180040000
(1498257460.111090) can0 0D0#3200000000000000
(1498257460.111108) can0 0D1#00000080
(1498257460.112237) can0 0D2#0000FFFF10000000
(1498257460.112257) can0 0D3#0046C04E0000D8
(1498257460.112269) can0 0D4#0000000000000000
(1498257460.116209) can0 002#FFEF700563000000
(1498257460.116236) can0 140#0003004000001600
(1498257460.117272) can0 141#5626712700803F00
(1498257460.117293) can0 360#000045462F000100
(1498257460.117297) can0 361#0001CBD167000000
(1498257460.117307) can0 362#197289B87561BC04
(1498257460.118191) can0 280#000C180000000000
(1498257460.119189) can0 156#0100000000000028
(1498257460.119209) can0 25C#A100000000000000
(1498257460.126209) can0 002#FFEF700765000000
(1498257460.126237) can0 371#FFFF000080550100
(1498257460.127188) can0 140#0004004000001600
(1498257460.127215) can0 141#5626712700803F00
(1498257460.127219) can0 144#C000067C5024A000
(1498257460.130133) can0 152#E17C000000000880
(1498257460.130175) can0 376#AD
(1498257460.131110) can0 0D0#3200000000000000
(1498257460.131127) can0 0D1#00000080
(1498257460.132104) can0 0D2#0000FFFF10000000
(1498257460.132117) can0 0D3#8046C04E0000D9
(1498257460.132125) can0 0D4#0000000000000000
(1498257460.136100) can0 002#FFEF700967000000
(1498257460.136131) can0 140#0005004000001600
(1498257460.137063) can0 141#5626712700803F00
(1498257460.138063) can0 280#000D180000000000
(1498257460.139086) can0 156#0100000000000028
(1498257460.146164) can0 002#FFEF700B69000000
(1498257460.146172) can0 140#0006004000001600
(1498257460.147136) can0 141#5626722700803F00
(1498257460.147147) can0 144#C000067C5024A000
(1498257460.147152) can0 371#FFFF000080560100
(1498257460.149047) can0 282#8960008181013A00
(1498257460.150042) can0 152#E18C000000000880
(1498257460.151065) can0 0D0#3200000000000000
(1498257460.151071) can0 0D1#00000080
(1498257460.152094) can0 0D2#0000FFFF10000000
(1498257460.152098) can0 0D3#8046C04E0000DA
(1498257460.152112) can0 0D4#0000000000000000
(1498257460.156090) can0 002#FFEF700D6B000000
(1498257460.156123) can0 140#0007004000001600
(1498257460.157068) can0 141#5626712700803F00
(1498257460.158061) can0 280#000E180000000000
(1498257460.159033) can0 370#FFFF200180050000
(1498257460.159041) can0 156#0100000000000028
(1498257460.159072) can0 3D1#97100000FD000000
(1498257460.166059) can0 002#FFEF700F6D000000
(1498257460.166124) can0 371#FFFF000080560100
(1498257460.167138) can0 140#0008004000001600
(1498257460.167145) can0 141#5626712700803F00
(1498257460.167146) can0 144#C000067C5024A000
(1498257460.167147) can0 360#000045462F000100
(1498257460.168095) can0 361#0001CBD168000000
(1498257460.168102) can0 362#197289B87561BC04
(1498257460.168103) can0 372#00D0000000000000
(1498257460.170076) can0 152#E99C000000000880
(1498257460.171067) can0 0D0#3200000000000000
(1498257460.171073) can0 0D1#00000080
(1498257460.172108) can0 0D2#0000FFFF10000000
(1498257460.172113) can0 0D3#0046C04E0000DB
(1498257460.172116) can0 0D4#0000000000000000
(1498257460.176064) can0 002#FFEF70015F000000
(1498257460.177073) can0 140#0009004000001600
(1498257460.177091) can0 141#5626712700803F00
(1498257460.178076) can0 280#000F180000000000
(1498257460.179088) can0 156#0100000000000028
(1498257460.179094) can0 25C#A200000000000000
(1498257460.179100) can0 376#AD
(1498257460.186139) can0 002#FFEF700361000000
(1498257460.186166) can0 140#000A004000001600
(1498257460.187190) can0 141#5626712700803F00
(1498257460.187200) can0 144#C000067C5024A000
(1498257460.187202) can0 371#FFFF000080560100
(1498257460.190127) can0 152#E9AC000000000880
(1498257460.191108) can0 0D0#3200000000000000
(1498257460.191128) can0 0D1#00000080
(1498257460.192162) can0 0D2#0000FFFF10000000
(1498257460.192172) can0 0D3#8046C04E0000DC
(1498257460.192176) can0 0D4#0000000000000000
(1498257460.196137) can0 002#FFEF700563000000
(1498257460.196149) can0 140#000B004000001600
(1498257460.197123) can0 141#5626712700803F00
(1498257460.198125) can0 280#0000180000000000
(1498257460.199141) can0 156#0100000000000028
(1498257460.199161) can0 282#8970008181013A00
(1498257460.203116) can0 284#C103000E00000000
(1498257460.206136) can0 002#FFEF700765000000
(1498257460.206149) can0 140#000C004000001600
(1498257460.207182) can0 141#5626712700803F00
(1498257460.207192) can0 144#C000067C5024A000
(1498257460.207194) can0 370#FFFF200180060000
(1498257460.207199) can0 371#FFFF000080560100
(1498257460.210117) can0 152#E1BC000000000880
(1498257460.211110) can0 0D0#3200000000000000
(1498257460.211120) can0 0D1#00000080
(1498257460.212165) can0 0D2#0000FFFF10000000
(1498257460.212184) can0 0D3#0046C04E0000DD
(1498257460.212189) can0 0D4#0000000000000000
(1498257460.216129) can0 002#FFEF700967000000
(1498257460.216141) can0 140#000D004000001600
(1498257460.217195) can0 141#5626712700803F00
(1498257460.217214) can0 360#000045462F000100
(1498257460.217216) can0 361#0001CBD169000000
(1498257460.217221) can0 362#197289B87561BC04
(1498257460.218117) can0 280#0001180000000000
(1498257460.219116) can0 281#0000FCFC40000000
(1498257460.219135) can0 156#0100000000000028
(1498257460.226136) can0 002#FFEF700B69000000
(1498257460.226148) can0 140#000E004000001600
(1498257460.227143) can0 141#5626712700803F00
(1498257460.227164) can0 144#C000067C5024A000
(1498257460.227166) can0 371#FFFF000080560100
(1498257460.230126) can0 152#E9CC000000000880
(1498257460.230143) can0 376#AD
(1498257460.230146) can0 660#FFFF0BA900001DFA
(1498257460.231112) can0 0D0#3200000000000000
(1498257460.231123) can0 0D1#00000080
(1498257460.232112) can0 0D2#0000FFFF10000000
(1498257460.232123) can0 0D3#0046C04E0000DE
(1498257460.232128) can0 0D4#0000000000000000
(1498257460.236114) can0 002#FFEF700D6B000000
(1498257460.236127) can0 140#000F004000001600
(1498257460.237102) can0 141#5626712700803F00
(1498257460.238104) can0 280#0002180000000000
(1498257460.239073) can0 156#0100000000000028
(1498257460.239084) can0 25C#2300000000000000
(1498257460.246116) can0 002#FFEF700F6D000000
(1498257460.246140) can0 140#0000004000001600
(1498257460.247131) can0 141#5626712700803F00
(1498257460.247142) can0 144#C000067C5024A000
(1498257460.247146) can0 371#FFFF000080560100
(1498257460.249112) can0 282#8980008181013A00
(1498257460.250109) can0 152#E1DC000000000880
(1498257460.251125) can0 0D0#3200000000000000
(1498257460.251135) can0 0D1#00000080
(1498257460.252113) can0 0D2#0000FFFF10000000
(1498257460.252136) can0 0D3#8046C04E0000DF
(1498257460.252144) can0 0D4#0000000000000000
(1498257460.254103) can0 370#FFFF200180070000
(1498257460.256114) can0 002#FFEF70015F000000
(1498257460.256139) can0 140#0001004000001600
(1498257460.257072) can0 141#5626712700803F00
(1498257460.258070) can0 280#0003180000000000
(1498257460.259109) can0 156#0100000000000028
(1498257460.259116) can0 3D1#97100000FD000000
(1498257460.266111) can0 140#0002004000001600
(1498257460.266117) can0 002#FFEF700361000000
(1498257460.267101) can0 141#5626712700803F00
(1498257460.267215) can0 144#C000067C5024A000
(1498257460.267219) can0 360#000045462F000100
(1498257460.267221) can0 361#0001CBD16A000000
(1498257460.268130) can0 362#1B7289B87561BC04
(1498257460.268147) can0 371#FFFF000080560100
(1498257460.268149) can0 372#00E0000000000000
(1498257460.270100) can0 152#E1EC000000000880
(1498257460.271101) can0 0D0#3200000000000000
(1498257460.271112) can0 0D1#00000080
(1498257460.272148) can0 0D2#0000FFFF10000000
(1498257460.272159) can0 0D3#8046C04E0000E0
(1498257460.272165) can0 0D4#0000000000000000
(1498257460.276110) can0 002#FFEF700563000000
(1498257460.276138) can0 140#0003004000001600
(1498257460.277111) can0 141#5626712700803F00
(1498257460.278125) can0 280#0004180000000000
(1498257460.279107) can0 156#0100000000000028
(1498257460.279119) can0 376#AD
(1498257460.286107) can0 002#FFEF700765000000
(1498257460.286125) can0 140#0004004000001600
(1498257460.287146) can0 141#5626712700803F00
(1498257460.287159) can0 144#C000067C5024A000
(1498257460.287161) can0 371#FFFF000080550100
(1498257460.290105) can0 152#E9FC000000000880
(1498257460.291101) can0 0D0#3200000000000000
(1498257460.291113) can0 0D1#00000080
(1498257460.292142) can0 0D2#0000FFFF10000000
(1498257460.292154) can0 0D3#0046C04E0000E1
(1498257460.292161) can0 0D4#0000000000000000
(1498257460.296118) can0 002#FFEF700967000000
(1498257460.296134) can0 140#0005004000001600
(1498257460.297088) can0 141#5626712700803F00
(1498257460.298099) can0 280#0005180000000000
(1498257460.299165) can0 156#0100000000000028
(1498257460.299177) can0 282#8990008181013A00
(1498257460.299184) can0 25C#A400000000000000
(1498257460.302103) can0 370#FFFF200180080000
(1498257460.303070) can0 284#C104000E00000000
(1498257460.306117) can0 140#0006004000001600
(1498257460.306133) can0 002#FFEF700B69000000
(1498257460.307119) can0 141#5626712700803F00
(1498257460.307131) can0 144#C000067C5024A000
(1498257460.307134) can0 371#FFFF000080560100
(1498257460.310096) can0 152#E90C000000000880
(1498257460.311094) can0 0D0#3200000000000000
(1498257460.311100) can0 0D1#00000080
(1498257460.312120) can0 0D2#0000FFFF10000000
(1498257460.312124) can0 0D3#0046C04E0000E2
(1498257460.312128) can0 0D4#0000000000000000
(1498257460.316135) can0 002#FFEF700D6B000000
(1498257460.316148) can0 140#0007004000001600
(1498257460.317173) can0 141#5626712700803F00
(1498257460.317196) can0 360#000045462F000100
(1498257460.317199) can0 361#0001CBD16B000000
(1498257460.317205) can0 362#1B7289B87561BC04
(1498257460.318084) can0 280#0006180000000000
(1498257460.319077) can0 156#0100000000000028
(1498257460.323112) can0 37A#0000000000040000
(1498257460.326097) can0 002#FFEF700F6D000000
(1498257460.326109) can0 140#0008004000001600
(1498257460.327143) can0 141#5626712700803F00
(1498257460.327161) can0 144#C000067C5024A000
(1498257460.327164) can0 371#FFFF000080560100
(1498257460.330202) can0 152#E11C000000000880
(1498257460.330232) can0 376#AD
(1498257460.331206) can0 0D0#3200000000000000
(1498257460.331226) can0 0D1#00000080
(1498257460.332190) can0 0D2#0000FFFF10000000
(1498257460.332211) can0 0D3#8046C04E0000E3
(1498257460.332225) can0 0D4#0000000000000000
(1498257460.336142) can0 002#FFEF70015F000000
(1498257460.336174) can0 140#0009004000001600
(1498257460.337121) can0 141#5626712700803F00
(1498257460.338134) can0 280#0007180000000000
(1498257460.339074) can0 156#0100000000000028
(1498257460.346204) can0 140#000A004000001600
(1498257460.346239) can0 002#FFEF700361000000
(1498257460.346244) can0 141#5626712700803F00
(1498257460.347191) can0 144#C000067C5024A000
(1498257460.347213) can0 371#FFFF000080560100
(1498257460.349187) can0 282#89A0008181013A00
(1498257460.350193) can0 152#E12C000000000880
(1498257460.350225) can0 370#FFFF200180090000
(1498257460.351172) can0 0D0#3200000000000000
(1498257460.351196) can0 0D1#00000080
(1498257460.352175) can0 0D2#0000FFFF10000000
(1498257460.352201) can0 0D3#0046C04E0000E4
(1498257460.352214) can0 0D4#0000000000000000
(1498257460.356197) can0 140#000B004000001600
(1498257460.356232) can0 002#FFEF700563000000
(1498257460.357153) can0 141#5626712700803F00
(1498257460.358182) can0 280#0008180000000000
(1498257460.359155) can0 156#0100000000000028
(1498257460.359180) can0 25C#2500000000000000
(1498257460.360172) can0 3D1#97100000FD000000
(1498257460.366201) can0 002#FFEF700765000000
(1498257460.366237) can0 140#000C004000001600
(1498257460.367155) can0 141#5626712700803F00
(1498257460.367178) can0 144#C000067C5024A000
(1498257460.367181) can0 360#000045462F000100
(1498257460.367184) can0 361#0001CBD16C000000
(1498257460.368200) can0 362#1C7289B87561BC04
(1498257460.368231) can0 371#FFFF000080560100
(1498257460.368234) can0 372#00F8000000000000
(1498257460.370114) can0 152#E93C000000000880
(1498257460.371120) can0 0D0#3200000000000000
(1498257460.371139) can0 0D1#00000080
(1498257460.372177) can0 0D2#0000FFFF10000000
(1498257460.372199) can0 0D3#8046C04E0000E5
(1498257460.372207) can0 0D4#0000000000000000
(1498257460.376197) can0 002#FFEF700967000000
(1498257460.376229) can0 140#000D004000001600
(1498257460.377177) can0 141#5626712700803F00
(1498257460.378184) can0 280#0009180000000000
(1498257460.379189) can0 156#0100000000000028
(1498257460.379211) can0 376#AD
(1498257460.386134) can0 140#000E004000001600
(1498257460.386164) can0 002#FFEF700B69000000
(1498257460.386169) can0 141#5626712700803F00
(1498257460.387202) can0 144#C000067C5024A000
(1498257460.387226) can0 371#FFFF000080560100
(1498257460.390188) can0 152#E14C000000000880
(1498257460.391171) can0 0D0#3200000000000000
(1498257460.391196) can0 0D1#00000080
(1498257460.392218) can0 0D2#0000FFFF10000000
(1498257460.392241) can0 0D3#8046C04E0000E6
(1498257460.392253) can0 0D4#0000000000000000
(1498257460.396199) can0 140#000F004000001600
(1498257460.396231) can0 002#FFEF700D6B000000
(1498257460.397173) can0 141#5626712700803F00
(1498257460.398186) can0 280#000A180000000000
(1498257460.399188) can0 370#FFFF2001800A0000
(1498257460.399220) can0 156#0100000000000028
(1498257460.399223) can0 282#89B0008181013A00
(1498257460.403175) can0 284#C105000E00000000
(1498257460.406203) can0 140#0000004000001600
(1498257460.406239) can0 002#FFEF700F6D000000
(1498257460.407207) can0 141#5626712700803F00
(1498257460.407233) can0 144#C000067C5024A000
(1498257460.407236) can0 371#FFFF000080560100
(1498257460.410170) can0 152#E95C000000000880
(1498257460.411192) can0 0D0#3200000000000000
(1498257460.411217) can0 0D1#00000080
(1498257460.412218) can0 0D2#0000FFFF10000000
(1498257460.412241) can0 0D3#0046C04E0000E7
(1498257460.412253) can0 0D4#0000000000000000
(1498257460.416119) can0 140#0001004000001600
(1498257460.416162) can0 002#FFEF70015F000000
(1498257460.416236) can0 141#5626712700803F00
(1498257460.417257) can0 360#000045462F000100
(1498257460.417280) can0 361#0001CBD16D000000
(1498257460.417293) can0 362#1C7289B87561BC04
(1498257460.418180) can0 280#000B180000000000
(1498257460.419208) can0 156#0100000000000028
(1498257460.419230) can0 25C#2600000000000000
(1498257460.426230) can0 140#0002004000001600
(1498257460.426260) can0 002#FFEF700361000000
(1498257460.426264) can0 141#5626712700803F00
(1498257460.427180) can0 144#C000067C5024A000
(1498257460.427203) can0 371#FFFF000080550100
(1498257460.430201) can0 152#E96C000000000880
(1498257460.430235) can0 376#AD
(1498257460.431142) can0 0D0#3200000000000000
(1498257460.431159) can0 0D1#00000080
(1498257460.432178) can0 0D2#0000FFFF10000000
(1498257460.432199) can0 0D3#0046C04E0000E8
(1498257460.432210) can0 0D4#0000000000000000
(1498257460.436159) can0 140#0003004000001600
(1498257460.436190) can0 002#FFEF700563000000
(1498257460.437178) can0 141#5626712700803F00
(1498257460.438193) can0 280#000C180000000000
(1498257460.439179) can0 156#0100000000000028
(1498257460.446136) can0 140#0004004000001600
(1498257460.446163) can0 002#FFEF700765000000
(1498257460.447129) can0 141#5626712700803F00
(1498257460.447153) can0 144#C000067C5024A000
(1498257460.447159) can0 370#FFFF2001800B0000
(1498257460.447170) can0 371#FFFF000080550100
(1498257460.449192) can0 282#89C0008181013A00
(1498257460.450180) can0 152#E17C000000000880
(1498257460.451196) can0 0D0#3200000000000000
(1498257460.451218) can0 0D1#00000080
(1498257460.452193) can0 0D2#0000FFFF10000000
(1498257460.452218) can0 0D3#8046C04E0000E9
(1498257460.452230) can0 0D4#0000000000000000
(1498257460.456209) can0 140#0005004000001600
(1498257460.456240) can0 002#FFEF700967000000
(1498257460.456244) can0 141#5626712700803F00
(1498257460.458188) can0 280#000D180000000000
(1498257460.459119) can0 156#0100000000000028
(1498257460.459140) can0 3D1#97100000FD000000
(1498257460.466259) can0 140#0006004000001600
(1498257460.466288) can0 141#5626712700803F00
(1498257460.466291) can0 002#FFEF700B69000000
(1498257460.467184) can0 144#C000067C5024A000
(1498257460.467209) can0 360#000045462F000100
(1498257460.467215) can0 361#0001CBD16E000000
(1498257460.467232) can0 362#1A7289B87561BC04
(1498257460.467236) can0 371#FFFF000080560100
(1498257460.468194) can0 372#0008000000000000
(1498257460.470193) can0 152#E18C000000000880
(1498257460.471200) can0 0D0#3200000000000000
(1498257460.471221) can0 0D1#00000080
(1498257460.472206) can0 0D2#0000FFFF10000000
(1498257460.472226) can0 0D3#8046C04E0000EA
(1498257460.472238) can0 0D4#0000000000000000
(1498257460.472240) can0 6C8#F000000000000000
(1498257460.476196) can0 002#FFEF700D6B000000
(1498257460.476232) can0 140#0007004000001600
(1498257460.476302) can0 141#5626712700803F00
(1498257460.478197) can0 280#000E180000000000
(1498257460.479189) can0 156#0100000000000028
(1498257460.479211) can0 25C#A700000000000000
(1498257460.479223) can0 376#AD
(1498257460.486221) can0 140#0008004000001600
(1498257460.486252) can0 002#FFEF700F6D000000
(1498257460.487205) can0 141#5626712700803F00
(1498257460.487227) can0 144#C000067C5024A000
(1498257460.487230) can0 371#FFFF000080560100
(1498257460.490191) can0 152#E99C000000000880
(1498257460.491202) can0 0D0#3200000000000000
(1498257460.491224) can0 0D1#00000080
(1498257460.492231) can0 0D2#0000FFFF10000000
(1498257460.492253) can0 0D3#0046C04E0000EB
(1498257460.492265) can0 0D4#0000000000000000
(1498257460.494190) can0 370#FFFF2001800C0000
(1498257460.496227) can0 140#0009004000001600
(1498257460.496257) can0 002#FFEF70015F000000
(1498257460.496262) can0 141#5626712700803F00
(1498257460.498190) can0 280#000F180000000000
(1498257460.499207) can0 156#0100000000000028
(1498257460.499229) can0 282#89D0008181013A00
(1498257460.503189) can0 284#C106000E00000000
(1498257460.506263) can0 140#000A004000001600
(1498257460.506293) can0 141#5626712700803F00
(1498257460.506297) can0 002#FFEF700361000000
(1498257460.507186) can0 144#C000067C5024A000
(1498257460.507208) can0 371#FFFF000080560100
(1498257460.510132) can0 152#E9AC000000000880
(1498257460.511113) can0 0D0#3200000000000000
(1498257460.511132) can0 0D1#00000080
(1498257460.512137) can0 0D2#0000FFFF10000000
(1498257460.512150) can0 0D3#8046C04E0000EC
(1498257460.512159) can0 0D4#0000000000000000
(1498257460.516188) can0 140#000B004000001600
(1498257460.516208) can0 002#FFEF700563000000
(1498257460.516215) can0 141#5626712700803F00
(1498257460.517119) can0 360#000045462F000100
(1498257460.517133) can0 361#0001CBD16F000000
(1498257460.517140) can0 362#1A7289B87561BC04
(1498257460.518101) can0 280#0000180000000000
(1498257460.519100) can0 156#0100000000000028
(1498257460.526115) can0 140#000C004000001600
(1498257460.526133) can0 002#FFEF700765000000
(1498257460.526134) can0 141#5626712700803F00
(1498257460.527055) can0 144#C000067C5024A000
(1498257460.527059) can0 371#FFFF000080560100
(1498257460.530204) can0 152#E1BC000000000880
(1498257460.530234) can0 376#AD
(1498257460.531135) can0 0D0#3200000000000000
(1498257460.531157) can0 0D1#00000080
(1498257460.532208) can0 0D2#0000FFFF10000000
(1498257460.532230) can0 0D3#0046C04E0000ED
(1498257460.532245) can0 0D4#0000000000000000
(1498257460.536274) can0 140#000D004000001600
(1498257460.536303) can0 002#FFEF700967000000
(1498257460.536307) can0 141#5626712700803F00
(1498257460.538139) can0 280#0001180000000000
(1498257460.539107) can0 156#0100000000000028
(1498257460.539129) can0 25C#2000000000000000
(1498257460.542131) can0 370#FFFF2001800D0000
(1498257460.546280) can0 140#000E004000001600
(1498257460.546308) can0 141#5626712700803F00
(1498257460.546311) can0 002#FFEF700B69000000
(1498257460.546314) can0 144#C000067C5024A000
(1498257460.547188) can0 371#FFFF000080560100
(1498257460.549204) can0 282#8AE0008181013A00
(1498257460.550127) can0 152#E9CC000000000880
(1498257460.551202) can0 0D0#3200000000000000
(1498257460.551221) can0 0D1#00000080
(1498257460.552185) can0 0D2#0000FFFF10000000
(1498257460.552204) can0 0D3#0046C04E0000EE
(1498257460.552215) can0 0D4#0000000000000000
(1498257460.556254) can0 140#000F004000001600
(1498257460.556282) can0 141#5626712700803F00
(1498257460.556285) can0 002#FFEF700D6B000000
(1498257460.558208) can0 280#0002180000000000
(1498257460.559179) can0 156#0100000000000028
(1498257460.559205) can0 3D1#97100000FD000000
(1498257460.566244) can0 140#0000004000001600
(1498257460.566281) can0 002#FFEF700F6D000000
(1498257460.566286) can0 141#5626712700803F00
(1498257460.567174) can0 144#C000067C5024A000
(1498257460.567200) can0 360#000045462F000100
(1498257460.567206) can0 361#0001CBD160000000
(1498257460.567220) can0 362#1A7289B87561BC04
(1498257460.567267) can0 371#FFFF000080560100
(1498257460.568179) can0 372#0010000000000000
(1498257460.570182) can0 152#E1DC000000000880
(1498257460.571139) can0 0D0#3200000000000000
(1498257460.571155) can0 0D1#00000080
(1498257460.572215) can0 0D2#0000FFFF10000000
(1498257460.572238) can0 0D3#8046C04E0000EF
(1498257460.572250) can0 0D4#0000000000000000
(1498257460.576179) can0 140#0001004000001600
(1498257460.576211) can0 002#FFEF70015F000000
(1498257460.577174) can0 141#5626712700803F00
(1498257460.578187) can0 280#0003180000000000
(1498257460.579194) can0 156#0100000000000028
(1498257460.579217) can0 376#AD
(1498257460.586186) can0 140#0002004000001600
(1498257460.586214) can0 141#5626712700803F00
(1498257460.586217) can0 002#FFEF700361000000
(1498257460.586222) can0 144#C000067C5024A000
(1498257460.587185) can0 371#FFFF000080560100
(1498257460.590202) can0 152#E1EC000000000880
(1498257460.590232) can0 370#FFFF2001800E0000
(1498257460.591148) can0 0D0#3200000000000000
(1498257460.591169) can0 0D1#00000080
(1498257460.592217) can0 0D2#0000FFFF10000000
(1498257460.592241) can0 0D3#0046C04E0000F0
(1498257460.592252) can0 0D4#0000000000000000
(1498257460.596200) can0 140#0003004000001600
(1498257460.596230) can0 141#5626712700803F00
(1498257460.596233) can0 002#FFEF700563000000
(1498257460.598193) can0 280#0004180000000000
(1498257460.599258) can0 156#0100000000000028
(1498257460.599280) can0 25C#A100000000000000
(1498257460.599293) can0 282#8AF0008181013A00
(1498257460.603180) can0 284#C107000E00000000
(1498257460.606267) can0 140#0004004000001600
(1498257460.606298) can0 141#5626712700803F00
(1498257460.606301) can0 002#FFEF700765000000
(1498257460.607174) can0 144#C000067C5024A000
(1498257460.607196) can0 371#FFFF000080560100
(1498257460.610180) can0 152#E9FC000000000880
(1498257460.611202) can0 0D0#3200000000000000
(1498257460.611223) can0 0D1#00000080
(1498257460.612226) can0 0D2#0000FFFF10000000
(1498257460.612248) can0 0D3#8046C04E0000F1
(1498257460.612264) can0 0D4#0000000000000000
(1498257460.616160) can0 140#0005004000001600
(1498257460.616201) can0 141#5626712700803F00
(1498257460.616209) can0 002#FFEF700967000000
(1498257460.616217) can0 360#000045462F000100
(1498257460.617123) can0 361#0001CBD161000000
(1498257460.617148) can0 362#1A7289B87561BC04
(1498257460.618177) can0 280#0005180000000000
(1498257460.619189) can0 156#0100000000000028
(1498257460.626277) can0 140#0006004000001600
(1498257460.626310) can0 141#5626712700803F00
(1498257460.626313) can0 002#FFEF700B69000000
(1498257460.626317) can0 144#C000067C5024A000
(1498257460.627181) can0 371#FFFF000080560100
(1498257460.630201) can0 152#E90C000000000880
(1498257460.630232) can0 376#AD
(1498257460.631172) can0 0D0#3200000000000000
(1498257460.631197) can0 0D1#00000080
(1498257460.632151) can0 0D2#0000FFFF10000000
(1498257460.632172) can0 0D3#8046C04E0000F2
(1498257460.632184) can0 0D4#0000000000000000
(1498257460.636268) can0 140#0007004000001600
(1498257460.636302) can0 141#5626712700803F00
(1498257460.636308) can0 002#FFEF700D6B000000
(1498257460.638211) can0 370#FFFF2001800F0000
(1498257460.639170) can0 280#0006180000000000
(1498257460.639205) can0 156#0100000000000028
(1498257460.646284) can0 140#0008004000001600
(1498257460.646319) can0 141#5626712700803F00
(1498257460.646326) can0 002#FFEF700F6D000000
(1498257460.646331) can0 144#C000067C5024A000
(1498257460.647194) can0 371#FFFF000080560100
(1498257460.649205) can0 282#8A00008181013A00
(1498257460.650179) can0 152#E11C000000000880
(1498257460.651202) can0 0D0#3200000000000000
(1498257460.651233) can0 0D1#00000080
(1498257460.652215) can0 0D2#0000FFFF10000000
(1498257460.652247) can0 0D3#0046C04E0000F3
(1498257460.652258) can0 0D4#0000000000000000
(1498257460.656265) can0 140#0009004000001600
(1498257460.656303) can0 141#5626712700803F00
(1498257460.656306) can0 002#FFEF70015F000000
(1498257460.658215) can0 280#0007180000000000
(1498257460.659223) can0 25C#A200000000000000
(1498257460.659257) can0 156#0100000000000028
(1498257460.660201) can0 3D1#97100000FD000000
(1498257460.666272) can0 140#000A004000001600
(1498257460.666320) can0 141#5626712700803F00
(1498257460.666327) can0 002#FFEF700361000000
(1498257460.666336) can0 144#C000067C5024A000
(1498257460.666344) can0 360#000045462F000100
(1498257460.667271) can0 361#0001CBD162000000
(1498257460.667312) can0 362#1C7289B87561BC04
(1498257460.667318) can0 371#FFFF000080550100
(1498257460.668142) can0 372#0020000000000000
(1498257460.669191) can0 6D1#7835020000000000
(1498257460.670190) can0 152#E12C000000000880
(1498257460.671177) can0 0D0#3200000000000000
(1498257460.671197) can0 0D1#00000080
(1498257460.672229) can0 0D2#0000FFFF10000000
(1498257460.672251) can0 0D3#8046C04E0000F4
(1498257460.672263) can0 0D4#0000000000000000
(1498257460.676179) can0 140#000B004000001600
(1498257460.676208) can0 002#FFEF700563000000
(1498257460.676212) can0 141#5626712700803F00
(1498257460.678191) can0 280#0008180000000000
(1498257460.679197) can0 156#0100000000000028
(1498257460.679217) can0 376#AD
(1498257460.686182) can0 140#000C004000001600
(1498257460.686212) can0 141#5626712700803F00
(1498257460.686215) can0 002#FFEF700765000000
(1498257460.686219) can0 144#C000067C5024A000
(1498257460.687178) can0 370#FFFF200180000000
(1498257460.687209) can0 371#FFFF000080560100
(1498257460.690183) can0 152#E93C000000000880
(1498257460.691200) can0 0D0#3200000000000000
(1498257460.691221) can0 0D1#00000080
(1498257460.692222) can0 0D2#0000FFFF10000000
(1498257460.692243) can0 0D3#0046C04E0000F5
(1498257460.692255) can0 0D4#0000000000000000
(1498257460.696189) can0 140#000D004000001600
(1498257460.696219) can0 141#5626712700803F00
(1498257460.696222) can0 002#FFEF700967000000
(1498257460.698182) can0 280#0009180000000000
(1498257460.699207) can0 156#0100000000000028
(1498257460.699228) can0 282#8A10008181013A00
(1498257460.703168) can0 284#C108000E00000000
(1498257460.706273) can0 140#000E004000001600
(1498257460.706303) can0 141#5626712700803F00
(1498257460.706306) can0 144#C000067C5024A000
(1498257460.706309) can0 002#FFEF700B69000000
(1498257460.706312) can0 371#FFFF000080560100
(1498257460.710180) can0 152#E14C000000000880
(1498257460.711155) can0 0D0#3200000000000000
(1498257460.711174) can0 0D1#00000080
(1498257460.712207) can0 0D2#0000FFFF10000000
(1498257460.712228) can0 0D3#0046C04E0000F6
(1498257460.712239) can0 0D4#0000000000000000
(1498257460.716197) can0 140#000F004000001600
(1498257460.716234) can0 141#5626712700803F00
(1498257460.716240) can0 002#FFEF700D6B000000
(1498257460.716246) can0 360#000045462F000100
(1498257460.717085) can0 361#0001CBD163000000
(1498257460.717101) can0 362#1C7289B87561BC04
(1498257460.718179) can0 280#000A180000000000
(1498257460.719182) can0 156#0100000000000028
(1498257460.719203) can0 25C#2300000000000000
(1498257460.726267) can0 140#0000004000001600
(1498257460.726297) can0 141#5626712700803F00
(1498257460.726301) can0 002#FFEF700F6D000000
(1498257460.726305) can0 144#C000067C5024A000
(1498257460.727195) can0 371#FFFF000080560100
(1498257460.727217) can0 378#1100000000000000
(1498257460.730212) can0 152#E95C000000000880
(1498257460.730240) can0 376#AD
(1498257460.730244) can0 660#FFFF0BA900001DFF
(1498257460.731187) can0 0D0#3200000000000000
(1498257460.731208) can0 0D1#00000080
(1498257460.732149) can0 0D2#0000FFFF10000000
(1498257460.732165) can0 0D3#8046C04E0000F7
(1498257460.732176) can0 0D4#0000000000000000
(1498257460.734196) can0 370#FFFF200180010000
(1498257460.736174) can0 140#0001004000001600
(1498257460.736202) can0 141#5626712700803F00
(1498257460.736206) can0 002#FFEF70015F000000
(1498257460.738115) can0 280#000B180000000000
(1498257460.739090) can0 156#0100000000000028
(1498257460.746127) can0 140#0002004000001600
(1498257460.746158) can0 141#5626712700803F00
(1498257460.746164) can0 144#C000067C5024A000
(1498257460.746168) can0 002#FFEF700361000000
(1498257460.746173) can0 371#FFFF000080550100
(1498257460.749194) can0 282#8920008181013A00
(1498257460.750200) can0 152#E96C000000000880
(1498257460.750225) can0 375#0300000120000200
(1498257460.751145) can0 0D0#3200000000000000
(1498257460.751162) can0 0D1#00000080
(1498257460.752220) can0 0D2#0000FFFF10000000
(1498257460.752237) can0 0D3#8046C04E0000F8
(1498257460.752248) can0 0D4#0000000000000000
(1498257460.756184) can0 140#0003004000001600
(1498257460.756208) can0 141#5626712700803F00
(1498257460.756210) can0 002#FFEF700563000000
(1498257460.758188) can0 280#000C180000000000
(1498257460.759163) can0 156#0100000000000028
(1498257460.760162) can0 3D1#97100000FD000000
(1498257460.766206) can0 140#0004004000001600
(1498257460.766233) can0 141#5626712700803F00
(1498257460.766237) can0 002#FFEF700765000000
(1498257460.766241) can0 144#C000067C5024A000
(1498257460.767187) can0 360#000045462F000100
(1498257460.767208) can0 361#0001CBD164000000
(1498257460.767220) can0 362#1D7289B87561BC04
(1498257460.767223) can0 371#FFFF000080560100
(1498257460.768184) can0 372#0038000000000000
(1498257460.770220) can0 152#E17C000000000880
(1498257460.771157) can0 0D0#3200000000000000
(1498257460.771178) can0 0D1#00000080
(1498257460.772175) can0 0D2#0000FFFF10000000
(1498257460.772195) can0 0D3#0046C04E0000F9
(1498257460.772207) can0 0D4#0000000000000000
(1498257460.776219) can0 002#FFEF700967000000
(1498257460.776248) can0 140#0005004000001600
(1498257460.777177) can0 141#5626712700803F00
(1498257460.778195) can0 280#000D180000000000
(1498257460.779178) can0 156#0100000000000028
(1498257460.779200) can0 25C#A400000000000000
(1498257460.779213) can0 376#AD
(1498257460.782100) can0 370#FFFF200180020000
(1498257460.786160) can0 140#0006004000001600
(1498257460.786189) can0 141#5626712700803F00
(1498257460.786192) can0 144#C000067C5024A000
(1498257460.786195) can0 002#FFEF700B69000000
(1498257460.786199) can0 371#FFFF000080560100
(1498257460.790199) can0 152#E18C000000000880
(1498257460.791205) can0 0D0#3200000000000000
(1498257460.791224) can0 0D1#00000080
(1498257460.792186) can0 0D2#0000FFFF10000000
(1498257460.792207) can0 0D3#0046C04E0000FA
(1498257460.792220) can0 0D4#0000000000000000
(1498257460.796215) can0 140#0007004000001600
(1498257460.796241) can0 141#5626712700803F00
(1498257460.796244) can0 002#FFEF700D6B000000
(1498257460.798196) can0 280#000E180000000000
(1498257460.799187) can0 156#0100000000000028
(1498257460.799209) can0 282#8930008181013A00
(1498257460.803147) can0 284#C109000E00000000
(1498257460.806221) can0 140#0008004000001600
(1498257460.806251) can0 141#5626712700803F00
(1498257460.806255) can0 144#C000067C5024A000
(1498257460.806262) can0 002#FFEF700F6D000000
(1498257460.807179) can0 371#FFFF000080550100
(1498257460.810167) can0 152#E99C000000000880
(1498257460.811134) can0 0D0#3200000000000000
(1498257460.811154) can0 0D1#00000080
(1498257460.812150) can0 0D2#0000FFFF10000000
(1498257460.812166) can0 0D3#8046C04E0000FB
(1498257460.812178) can0 0D4#0000000000000000
(1498257460.816176) can0 140#0009004000001600
(1498257460.816202) can0 141#5626712700803F00
(1498257460.816205) can0 360#000045462F000100
(1498257460.816209) can0 002#FFEF70015F000000
(1498257460.816212) can0 361#0001CBD165000000
(1498257460.817100) can0 362#1D7289B87561BC04
(1498257460.818099) can0 280#000F180000000000
(1498257460.819099) can0 156#0100000000000028
(1498257460.825097) can0 140#000A004000001600
(1498257460.826213) can0 141#5626712700803F00
(1498257460.826225) can0 144#C000067C5024A000
(1498257460.826228) can0 002#FFEF700361000000
(1498257460.826235) can0 371#FFFF000080550100
(1498257460.830122) can0 152#E9AC000000000880
(1498257460.830138) can0 376#AD
(1498257460.830142) can0 370#FFFF200180030000
(1498257460.831073) can0 0D0#3200000000000000
(1498257460.831086) can0 0D1#00000080
(1498257460.832121) can0 0D2#0000FFFF10000000
(1498257460.832135) can0 0D3#0046C04E0000FC
(1498257460.832145) can0 0D4#0000000000000000
(1498257460.836104) can0 140#000B004000001600
(1498257460.836131) can0 141#5626712700803F00
(1498257460.836134) can0 002#FFEF700563000000
(1498257460.838102) can0 280#0000180000000000
(1498257460.839114) can0 156#0100000000000028
(1498257460.839126) can0 25C#2500000000000000
(1498257460.846101) can0 140#000C004000001600
(1498257460.846175) can0 141#5626712700803F00
(1498257460.846181) can0 144#C000067C5024A000
(1498257460.846183) can0 002#FFEF700765000000
(1498257460.846190) can0 371#FFFF000080560100
(1498257460.849101) can0 282#8940008181013A00
(1498257460.850100) can0 152#E1BC000000000880
(1498257460.851087) can0 0D0#3200000000000000
(1498257460.851099) can0 0D1#00000080
(1498257460.852136) can0 0D2#0000FFFF10000000
(1498257460.852148) can0 0D3#8046C04E0000FD
(1498257460.852156) can0 0D4#0000000000000000
(1498257460.856098) can0 140#000D004000001600
(1498257460.856115) can0 141#5626712700803F00
(1498257460.856117) can0 002#FFEF700967000000
(1498257460.858099) can0 280#0001180000000000
(1498257460.859098) can0 156#0100000000000028
(1498257460.860070) can0 3D1#97100000FD000000
(1498257460.865101) can0 140#000E004000001600
(1498257460.866220) can0 141#5626712700803F00
(1498257460.866232) can0 144#C000067C5024A000
(1498257460.866235) can0 002#FFEF700B69000000
(1498257460.866242) can0 360#000045462F000100
(1498257460.866244) can0 361#0001CBD166000000
(1498257460.867107) can0 362#1D7289B87561BC04
(1498257460.867119) can0 371#FFFF000080560100
(1498257460.867122) can0 372#0040000000000000
(1498257460.870102) can0 152#E9CC000000000880
(1498257460.871081) can0 0D0#3200000000000000
(1498257460.871091) can0 0D1#00000080
(1498257460.872107) can0 0D2#0000FFFF10000000
(1498257460.872119) can0 0D3#8046C04E0000FE
(1498257460.872126) can0 0D4#0000000000000000
(1498257460.876162) can0 140#000F004000001600
(1498257460.876178) can0 141#5626712700803F00
(1498257460.876181) can0 002#FFEF700D6B000000
(1498257460.878108) can0 370#FFFF200180040000
(1498257460.878125) can0 280#0002180000000000
(1498257460.879083) can0 156#0100000000000028
(1498257460.879095) can0 376#AD
(1498257460.886166) can0 140#0000004000001600
(1498257460.886182) can0 141#5626712700803F00
(1498257460.886185) can0 144#C000067C5024A000
(1498257460.886187) can0 002#FFEF700F6D000000
(1498257460.886191) can0 371#FFFF000080560100
(1498257460.890101) can0 152#E1DC000000000880
(1498257460.891105) can0 0D0#3200000000000000
(1498257460.891116) can0 0D1#00000080
(1498257460.892121) can0 0D2#0000FFFF10000000
(1498257460.892132) can0 0D3#0046C04E0000FF
(1498257460.892139) can0 0D4#0000000000000000
(1498257460.896120) can0 140#0001004000001600
(1498257460.896136) can0 141#5626712700803F00
(1498257460.896139) can0 002#FFEF70015F000000
(1498257460.898100) can0 280#0003180000000000
(1498257460.899103) can0 156#0100000000000028
(1498257460.899116) can0 25C#2600000000000000
(1498257460.899327) can0 282#8950008181013A00
(1498257460.903193) can0 284#C10A000E00000000
(1498257460.905198) can0 140#0002004000001600
(1498257460.906200) can0 141#5626712700803F00
(1498257460.906223) can0 144#C000067C5024A000
(1498257460.906226) can0 002#FFEF700361000000
(1498257460.906237) can0 371#FFFF000080550100
(1498257460.910169) can0 152#E1EC000000000880
(1498257460.911069) can0 0D0#3200000000000000
(1498257460.911086) can0 0D1#00000080
(1498257460.912069) can0 0D2#0000FFFF10000000
(1498257460.912109) can0 0D3#0046C04E000000
(1498257460.912124) can0 0D4#0000000000000000
(1498257460.915192) can0 140#0003004000001600
(1498257460.916178) can0 141#5626712700803F00
(1498257460.916194) can0 360#000045462F000100
(1498257460.916199) can0 002#FFEF700563000000
(1498257460.916207) can0 361#0001CBD167000000
(1498257460.917178) can0 362#1D7289B87561BC04
(1498257460.918191) can0 280#0004180000000000
(1498257460.919178) can0 156#0100000000000028
(1498257460.925186) can0 140#0004004000001600
(1498257460.926206) can0 141#5626712700803F00
(1498257460.926232) can0 144#C000067C5024A000
(1498257460.926237) can0 002#FFEF700765000000
(1498257460.926254) can0 370#FFFF200180050000
(1498257460.926344) can0 371#FFFF000080560100
(1498257460.930159) can0 152#E9FC000000000880
(1498257460.930189) can0 376#AD
(1498257460.931186) can0 0D0#3200000000000000
(1498257460.931207) can0 0D1#00000080
(1498257460.932223) can0 0D2#0000FFFF10000000
(1498257460.932245) can0 0D3#8046C04E000001
(1498257460.932258) can0 0D4#0000000000000000
(1498257460.935133) can0 140#0005004000001600
(1498257460.936099) can0 141#5626712700803F00
(1498257460.936112) can0 002#FFEF700967000000
(1498257460.938074) can0 280#0005180000000000
(1498257460.939071) can0 156#0100000000000028
(1498257460.945147) can0 140#0006004000001600
(1498257460.946201) can0 141#5626712700803F00
(1498257460.946225) can0 144#C000067C5024A000
(1498257460.946229) can0 002#FFEF700B69000000
(1498257460.946241) can0 371#FFFF000080550100
(1498257460.949180) can0 282#8A60008181013A00
(1498257460.950189) can0 152#E90C000000000880
(1498257460.950220) can0 374#0808000080000000
(1498257460.951183) can0 0D0#3200000000000000
(1498257460.951206) can0 0D1#00000080
(1498257460.952218) can0 0D2#0000FFFF10000000
(1498257460.952240) can0 0D3#8046C04E000002
(1498257460.952252) can0 0D4#0000000000000000
(1498257460.955186) can0 140#0007004000001600
(1498257460.956152) can0 141#5626712700803F00
(1498257460.956174) can0 002#FFEF700D6B000000
(1498257460.958187) can0 280#0006180000000000
(1498257460.959165) can0 25C#A700000000000000
(1498257460.960178) can0 156#0100000000000028
(1498257460.960200) can0 3D1#97100000FD000000
(1498257460.965184) can0 140#0008004000001600
(1498257460.966268) can0 141#5626712700803F00
(1498257460.966290) can0 144#C000067C5024A000
(1498257460.966297) can0 002#FFEF700F6D000000
(1498257460.966307) can0 360#000045462F000100
(1498257460.967182) can0 361#0001CBD168000000
(1498257460.967213) can0 362#1E7289B87561BC04
(1498257460.967217) can0 371#FFFF000080560100
(1498257460.967221) can0 372#0058000000000000
(1498257460.970184) can0 152#E11C000000000880
(1498257460.971100) can0 0D0#3200000000000000
(1498257460.971122) can0 0D1#00000080
(1498257460.972173) can0 0D2#0000FFFF10000000
(1498257460.972196) can0 0D3#0046C04E000003
(1498257460.972208) can0 0D4#0000000000000000
(1498257460.974185) can0 370#FFFF200180060000
(1498257460.976205) can0 140#0009004000001600
(1498257460.976233) can0 141#5626712700803F00
(1498257460.976237) can0 002#FFEF70015F000000
(1498257460.978192) can0 280#0007180000000000
(1498257460.979195) can0 156#0100000000000028
(1498257460.979217) can0 376#AD
(1498257460.985207) can0 140#000A004000001600
(1498257460.985235) can0 141#5626722700803F00
(1498257460.986196) can0 144#C000067C5024A000
(1498257460.986218) can0 002#FFEF700361000000
(1498257460.986230) can0 371#FFFF000080560100
(1498257460.990193) can0 152#E12C000000000880
(1498257460.991176) can0 0D0#3200000000000000
(1498257460.991197) can0 0D1#00000080
(1498257460.992198) can0 0D2#0000FFFF10000000
(1498257460.992220) can0 0D3#8046C04E000004
(1498257460.992231) can0 0D4#0000000000000000
(1498257460.995195) can0 140#000B004000001600
(1498257460.996194) can0 141#5626712700803F00
(1498257460.996222) can0 002#FFEF700563000000
(1498257460.998191) can0 280#0008180000000000
(1498257460.999181) can0 156#0100000000000028
(1498257460.999202) can0 282#8A70008181013A00
(1498257461.003190) can0 284#C10B000E00000000
(1498257461.005200) can0 140#000C004000001600
(1498257461.006199) can0 141#5626722700803F00
(1498257461.006228) can0 144#C000067C5024A000
(1498257461.006232) can0 002#FFEF700765000000
(1498257461.006236) can0 371#FFFF000080550100
(1498257461.010198) can0 152#E93C000000000880
(1498257461.011196) can0 0D0#3200000000000000
(1498257461.011217) can0 0D1#00000080
(1498257461.012199) can0 0D2#0000FFFF10000000
(1498257461.012221) can0 0D3#0046C04E000005
(1498257461.012232) can0 0D4#0000000000000000
(1498257461.015198) can0 140#000D004000001600
(1498257461.016172) can0 141#5626712700803F00
(1498257461.016206) can0 360#000045462F000100
(1498257461.016210) can0 361#0001CBD169000000
(1498257461.016214) can0 002#FFEF700967000000
(1498257461.016217) can0 362#1E7289B87561BC04
(1498257461.018186) can0 280#0009180000000000
(1498257461.019206) can0 25C#2000000000000000
(1498257461.019234) can0 156#0100000000000028
(1498257461.022194) can0 370#FFFF200180070000
(1498257461.025190) can0 140#000E004000001600
(1498257461.025219) can0 141#5626712700803F00
(1498257461.026255) can0 144#C000067C5024A000
(1498257461.026277) can0 002#FFEF700B69000000
(1498257461.026288) can0 371#FFFF000080560100
(1498257461.030201) can0 152#E14C000000000880
(1498257461.030230) can0 376#AD
(1498257461.031176) can0 0D0#3200000000000000
(1498257461.031199) can0 0D1#00000080
(1498257461.032228) can0 0D2#0000FFFF10000000
(1498257461.032248) can0 0D3#0046C04E000006
(1498257461.032259) can0 0D4#0000000000000000
(1498257461.035200) can0 140#000F004000001600
(1498257461.035229) can0 141#5626712700803F00
(1498257461.036186) can0 002#FFEF700D6B000000
(1498257461.038190) can0 280#000A180000000000
(1498257461.039163) can0 156#0100000000000028
(1498257461.045117) can0 140#0000004000001600
(1498257461.046163) can0 141#5626712700803F00
(1498257461.046187) can0 144#C000067C5024A000
(1498257461.046191) can0 002#FFEF700F6D000000
(1498257461.046200) can0 371#FFFF000080550100
(1498257461.049112) can0 282#8980008181013A00
(1498257461.050145) can0 152#E95C000000000880
(1498257461.051182) can0 0D0#3200000000000000
(1498257461.051204) can0 0D1#00000080
(1498257461.052173) can0 0D2#0000FFFF10000000
(1498257461.052196) can0 0D3#8046C04E000007
(1498257461.052208) can0 0D4#0000000000000000
(1498257461.055182) can0 140#0001004000001600
(1498257461.056192) can0 141#5626712700803F00
(1498257461.056216) can0 002#FFEF70015F000000
(1498257461.058201) can0 280#000B180000000000
(1498257461.060189) can0 156#0100000000000028
(1498257461.060214) can0 3D1#97100000FD000000
(1498257461.065214) can0 140#0002004000001600
(1498257461.065247) can0 141#5626712700803F00
(1498257461.066254) can0 144#C000067C5024A000
(1498257461.066292) can0 360#000045462F000100
(1498257461.066296) can0 002#FFEF700361000000
(1498257461.066310) can0 361#0001CBD16A000000
(1498257461.066316) can0 362#1E7289B87561BC04
(1498257461.067201) can0 371#FFFF000080560100
(1498257461.067234) can0 372#0068000000000000
(1498257461.070219) can0 152#E96C000000000880
(1498257461.070254) can0 370#FFFF200180080000
(1498257461.071186) can0 0D0#3200000000000000
(1498257461.071211) can0 0D1#00000080
(1498257461.072207) can0 0D2#0000FFFF10000000
(1498257461.072229) can0 0D3#8046C04E000008
(1498257461.072241) can0 0D4#0000000000000000
(1498257461.075202) can0 140#0003004000001600
(1498257461.076211) can0 141#5626712700803F00
(1498257461.076235) can0 002#FFEF700563000000
(1498257461.078202) can0 280#000C180000000000
(1498257461.079185) can0 25C#A100000000000000
(1498257461.079218) can0 156#0100000000000028
(1498257461.079223) can0 376#AD
(1498257461.085215) can0 140#0004004000001600
(1498257461.085249) can0 141#5626712700803F00
(1498257461.086217) can0 144#C000067C5024A000
(1498257461.086240) can0 002#FFEF700765000000
(1498257461.086253) can0 371#FFFF000080560100
(1498257461.090196) can0 152#E17C000000000880
(1498257461.091223) can0 0D0#3200000000000000
(1498257461.091245) can0 0D1#00000080
(1498257461.092213) can0 0D2#0000FFFF10000000
(1498257461.092237) can0 0D3#0046C04E000009
(1498257461.092249) can0 0D4#0000000000000000
(1498257461.095214) can0 140#0005004000001600
(1498257461.095247) can0 141#5626712700803F00
(1498257461.096196) can0 002#FFEF700967000000
(1498257461.098204) can0 280#000D180000000000
(1498257461.099202) can0 156#0100000000000028
(1498257461.099226) can0 282#8990008181013A00
(1498257461.103174) can0 284#C10C000E00000000
(1498257461.105224) can0 140#0006004000001600
(1498257461.105257) can0 141#5626712700803F00
(1498257461.106201) can0 144#C000067C5024A000
(1498257461.106225) can0 002#FFEF700B69000000
(1498257461.106239) can0 371#FFFF000080560100
(1498257461.110204) can0 152#E18C000000000880
(1498257461.111129) can0 0D0#3200000000000000
(1498257461.111148) can0 0D1#00000080
(1498257461.112127) can0 0D2#0000FFFF10000000
(1498257461.112142) can0 0D3#0046C04E00000A
(1498257461.112153) can0 0D4#0000000000000000
(1498257461.115122) can0 140#0007004000001600
(1498257461.115142) can0 141#5626712700803F00
(1498257461.116131) can0 360#000045462F000100
(1498257461.116148) can0 361#0001CBD16B000000
(1498257461.116157) can0 002#FFEF700D6B000000
(1498257461.116162) can0 362#1E7289B87561BC04
(1498257461.118114) can0 370#FFFF200180090000
(1498257461.118132) can0 280#000E180000000000
(1498257461.119076) can0 156#0100000000000028
(1498257461.125110) can0 140#0008004000001600
(1498257461.125127) can0 141#5626712700803F00
(1498257461.126164) can0 144#C000067C5024A000
(1498257461.126176) can0 002#FFEF700F6D000000
(1498257461.126184) can0 371#FFFF000080560100
(1498257461.130107) can0 152#E99C000000000880
(1498257461.130124) can0 376#AD
(1498257461.131103) can0 0D0#3200000000000000
(1498257461.131115) can0 0D1#00000080
(1498257461.132135) can0 0D2#0000FFFF10000000
(1498257461.132147) can0 0D3#8046C04E00000B
(1498257461.132155) can0 0D4#0000000000000000
(1498257461.135091) can0 140#0009004000001600
(1498257461.135111) can0 141#5626712700803F00
(1498257461.136097) can0 002#FFEF70015F000000
(1498257461.138102) can0 280#000F180000000000
(1498257461.139099) can0 25C#A200000000000000
(1498257461.139123) can0 156#0100000000000028
(1498257461.145201) can0 140#000A004000001600
(1498257461.145232) can0 141#5626712700803F00
(1498257461.145235) can0 144#C000067C5024A000
(1498257461.146188) can0 002#FFEF700361000000
(1498257461.146212) can0 371#FFFF000080560100
(1498257461.149188) can0 282#89A0008181013A00
(1498257461.150129) can0 152#E9AC000000000880
(1498257461.151178) can0 0D0#3200000000000000
(1498257461.151197) can0 0D1#00000080
(1498257461.152217) can0 0D2#0000FFFF10000000
(1498257461.152235) can0 0D3#0046C04E00000C
(1498257461.152244) can0 0D4#0000000000000000
(1498257461.155126) can0 140#000B004000001600
(1498257461.155153) can0 141#5626712700803F00
(1498257461.156098) can0 002#FFEF700563000000
(1498257461.158201) can0 280#0000180000000000
(1498257461.160190) can0 156#0100000000000028
(1498257461.160212) can0 3D1#97100000FD000000
(1498257461.165197) can0 140#000C004000001600
(1498257461.165226) can0 141#5626712700803F00
(1498257461.166172) can0 144#C000067C5024A000
(1498257461.166196) can0 360#000045462F000100
(1498257461.166200) can0 002#FFEF700765000000
(1498257461.166211) can0 361#0001CBD16C000000
(1498257461.167171) can0 362#1D7289B87561BC04
(1498257461.167200) can0 370#FFFF2001800A0000
(1498257461.167204) can0 371#FFFF000080560100
(1498257461.167207) can0 372#0070000000000000
(1498257461.170125) can0 152#E1BC000000000880
(1498257461.171129) can0 0D0#3200000000000000
(1498257461.171155) can0 0D1#00000080
(1498257461.172194) can0 0D2#0000FFFF10000000
(1498257461.172215) can0 0D3#8046C04E00000D
(1498257461.172226) can0 0D4#0000000000000000
(1498257461.175192) can0 140#000D004000001600
(1498257461.176182) can0 141#5626712700803F00
(1498257461.176202) can0 002#FFEF700967000000
(1498257461.178183) can0 280#0001180000000000
(1498257461.179172) can0 156#0100000000000028
(1498257461.179193) can0 376#AD
(1498257461.185213) can0 140#000E004000001600
(1498257461.185246) can0 141#5626712700803F00
(1498257461.185250) can0 144#C000067C5024A000
(1498257461.186197) can0 371#FFFF000080560100
(1498257461.186218) can0 002#FFEF700B69000000
(1498257461.190176) can0 152#E9CC000000000880
(1498257461.191198) can0 0D0#3200000000000000
(1498257461.191218) can0 0D1#00000080
(1498257461.192219) can0 0D2#0000FFFF10000000
(1498257461.192239) can0 0D3#8046C04E00000E
(1498257461.192250) can0 0D4#0000000000000000
(1498257461.195178) can0 140#000F004000001600
(1498257461.195208) can0 141#5626712700803F00
(1498257461.196186) can0 002#FFEF700D6B000000
(1498257461.198189) can0 280#0002180000000000
(1498257461.199160) can0 25C#2300000000000000
(1498257461.199188) can0 156#0100000000000028
(1498257461.200178) can0 282#89B0008181013A00
(1498257461.203189) can0 284#C10D000E00000000
(1498257461.205215) can0 140#0000004000001600
(1498257461.205244) can0 141#5626712700803F00
(1498257461.206197) can0 144#C000067C5024A000
(1498257461.206218) can0 371#FFFF000080560100
(1498257461.206223) can0 002#FFEF700F6D000000
(1498257461.210197) can0 152#E1DC000000000880
(1498257461.211195) can0 0D0#3200000000000000
(1498257461.211215) can0 0D1#00000080
(1498257461.212211) can0 0D2#0000FFFF10000000
(1498257461.212232) can0 0D3#0046C04E00000F
(1498257461.212243) can0 0D4#0000000000000000
(1498257461.214124) can0 370#FFFF2001800B0000
(1498257461.215168) can0 140#0001004000001600
(1498257461.215196) can0 141#5626712700803F00
(1498257461.216191) can0 360#000045462F000100
(1498257461.216212) can0 361#0001CBD16D000000
(1498257461.216224) can0 002#FFEF70015F000000
(1498257461.216228) can0 362#1D7289B87561BC04
(1498257461.218188) can0 280#0003180000000000
(1498257461.219205) can0 281#0000FCFC40000000
(1498257461.219226) can0 156#0100000000000028
(1498257461.225166) can0 140#0002004000001600
(1498257461.225191) can0 141#5626712700803F00
(1498257461.225194) can0 144#C000067C5024A000
(1498257461.226202) can0 002#FFEF700361000000
(1498257461.226232) can0 371#FFFF000080560100
(1498257461.230216) can0 152#E1EC000000000880
(1498257461.230246) can0 376#AD
(1498257461.230250) can0 660#FFFF0BA900001E04
(1498257461.231177) can0 0D0#3200000000000000
(1498257461.231198) can0 0D1#00000080
(1498257461.232201) can0 0D2#0000FFFF10000000
(1498257461.232222) can0 0D3#8046C04E000010
(1498257461.232234) can0 0D4#0000000000000000
(1498257461.235192) can0 140#0003004000001600
(1498257461.235220) can0 141#5626712700803F00
(1498257461.236184) can0 002#FFEF700563000000
(1498257461.238189) can0 280#0004180000000000
(1498257461.239185) can0 156#0100000000000028
(1498257461.245138) can0 140#0004004000001600
(1498257461.245166) can0 141#5626712700803F00
(1498257461.246197) can0 144#C000067C5024A000
(1498257461.246217) can0 371#FFFF000080560100
(1498257461.246221) can0 002#FFEF700765000000
(1498257461.249197) can0 282#89C0008181013A00
(1498257461.250191) can0 152#E9FC000000000880
(1498257461.251095) can0 0D0#3200000000000000
(1498257461.251115) can0 0D1#00000080
(1498257461.252224) can0 0D2#0000FFFF10000000
(1498257461.252245) can0 0D3#0046C04E000011
(1498257461.252256) can0 0D4#0000000000000000
(1498257461.255197) can0 140#0005004000001600
(1498257461.255226) can0 141#5626712700803F00
(1498257461.256163) can0 002#FFEF700967000000
(1498257461.258172) can0 280#0005180000000000
(1498257461.259178) can0 25C#A400000000000000
(1498257461.260127) can0 156#0100000000000028
(1498257461.260150) can0 3D1#97100000FD000000
(1498257461.262180) can0 370#FFFF2001800C0000
(1498257461.265168) can0 140#0006004000001600
(1498257461.265202) can0 141#5626712700803F00
(1498257461.265206) can0 144#C000067C5024A000
(1498257461.266168) can0 360#000045462F000100
(1498257461.266195) can0 361#0001CBD16E000000
(1498257461.266211) can0 002#FFEF700B69000000
(1498257461.266215) can0 362#1D7289B87561BC04
(1498257461.266218) can0 371#FFFF000080550100
(1498257461.267180) can0 372#0080000000000000
(1498257461.270113) can0 152#E90C000000000880
(1498257461.271208) can0 0D0#3200000000000000
(1498257461.271231) can0 0D1#00000080
(1498257461.272188) can0 0D2#0000FFFF10000000
(1498257461.272212) can0 0D3#0046C04E000012
(1498257461.272225) can0 0D4#0000000000000000
(1498257461.275213) can0 140#0007004000001600
(1498257461.275241) can0 141#5626712700803F00
(1498257461.276185) can0 002#FFEF700D6B000000
(1498257461.278176) can0 280#0006180000000000
(1498257461.279170) can0 156#0100000000000028
(1498257461.279190) can0 376#AD
(1498257461.285215) can0 140#0008004000001600
(1498257461.285247) can0 141#5626712700803F00
(1498257461.285250) can0 144#C000067C5024A000
(1498257461.286177) can0 371#FFFF000080550100
(1498257461.286198) can0 002#FFEF700F6D000000
(1498257461.290187) can0 152#E11C000000000880
(1498257461.291196) can0 0D0#3200000000000000
(1498257461.291217) can0 0D1#00000080
(1498257461.292202) can0 0D2#0000FFFF10000000
(1498257461.292223) can0 0D3#8046C04E000013
(1498257461.292235) can0 0D4#0000000000000000
(1498257461.295173) can0 140#0009004000001600
(1498257461.295201) can0 141#5626712700803F00
(1498257461.296141) can0 002#FFEF70015F000000
(1498257461.298183) can0 280#0007180000000000
(1498257461.299184) can0 156#0100000000000028
(1498257461.300185) can0 282#89D0008181013A00
(1498257461.303176) can0 284#C10E000E00000000
(1498257461.305189) can0 140#000A004000001600
(1498257461.305217) can0 141#5626712700803F00
(1498257461.305221) can0 144#C000067C5024A000
(1498257461.306179) can0 371#FFFF000080560100
(1498257461.306208) can0 002#FFEF700361000000
(1498257461.310209) can0 152#E12C000000000880
(1498257461.310239) can0 370#FFFF2001800D0000
(1498257461.311096) can0 0D0#3200000000000000
(1498257461.311113) can0 0D1#00000080
(1498257461.312162) can0 0D2#0000FFFF10000000
(1498257461.312183) can0 0D3#0046C04E000014
(1498257461.312195) can0 0D4#0000000000000000
(1498257461.315201) can0 140#000B004000001600
(1498257461.315229) can0 141#5626712700803F00
(1498257461.315232) can0 360#000045462F000100
(1498257461.316171) can0 361#0001CBD16F000000
(1498257461.316200) can0 362#1D7289B87561BC04
(1498257461.316204) can0 002#FFEF700563000000
(1498257461.318187) can0 280#0008180000000000
(1498257461.319174) can0 25C#2500000000000000
(1498257461.319204) can0 156#0100000000000028
(1498257461.323184) can0 37A#0000000000040000
(1498257461.325181) can0 140#000C004000001600
(1498257461.325210) can0 141#5626712700803F00
(1498257461.325213) can0 144#C000067C5024A000
(1498257461.326202) can0 371#FFFF000080550100
(1498257461.326232) can0 002#FFEF700765000000
(1498257461.330177) can0 152#E93C000000000880
(1498257461.330204) can0 376#AD
(1498257461.331196) can0 0D0#3200000000000000
(1498257461.331219) can0 0D1#00000080
(1498257461.332220) can0 0D2#0000FFFF10000000
(1498257461.332241) can0 0D3#8046C04E000015
(1498257461.332252) can0 0D4#0000000000000000
(1498257461.335180) can0 140#000D004000001600
(1498257461.335209) can0 141#5626712700803F00
(1498257461.336170) can0 002#FFEF700967000000
(1498257461.338131) can0 280#0009180000000000
(1498257461.339104) can0 156#0100000000000028
(1498257461.345187) can0 140#000E004000001600
(1498257461.345218) can0 141#5626712700803F00
(1498257461.345222) can0 144#C000067C5024A000
(1498257461.346190) can0 371#FFFF000080560100
(1498257461.346224) can0 002#FFEF700B69000000
(1498257461.349181) can0 282#89E0008181013A00
(1498257461.350180) can0 152#E14C000000000880
(1498257461.351169) can0 0D0#3200000000000000
(1498257461.351192) can0 0D1#00000080
(1498257461.352215) can0 0D2#0000FFFF10000000
(1498257461.352237) can0 0D3#8046C04E000016
(1498257461.352249) can0 0D4#0000000000000000
(1498257461.355185) can0 140#000F004000001600
(1498257461.355213) can0 141#5626712700803F00
(1498257461.356177) can0 002#FFEF700D6B000000
(1498257461.358194) can0 370#FFFF2001800E0000
(1498257461.358224) can0 280#000A180000000000
(1498257461.360193) can0 156#0100000000000028
(1498257461.360215) can0 3D1#97100000FD000000
(1498257461.365175) can0 140#0000004000001600
(1498257461.365210) can0 141#5626712700803F00
(1498257461.365213) can0 144#C000067C5024A000
(1498257461.366203) can0 360#000045462F000100
(1498257461.366226) can0 361#0001CBD160000000
(1498257461.366237) can0 002#FFEF700F6D000000
(1498257461.366241) can0 362#1D7289B87561BC04
(1498257461.367180) can0 371#FFFF000080550100
(1498257461.367212) can0 372#0098000000000000
(1498257461.370183) can0 152#E95C000000000880
(1498257461.371105) can0 0D0#3200000000000000
(1498257461.371133) can0 0D1#00000080
(1498257461.372150) can0 0D2#0000FFFF10000000
(1498257461.372172) can0 0D3#0046C04E000017
(1498257461.372183) can0 0D4#0000000000000000
(1498257461.375177) can0 140#0001004000001600
(1498257461.375207) can0 141#5626712700803F00
(1498257461.376183) can0 002#FFEF70015F000000
(1498257461.378179) can0 280#000B180000000000
(1498257461.379203) can0 25C#2600000000000000
(1498257461.379233) can0 156#0100000000000028
(1498257461.379237) can0 376#AD
(1498257461.385257) can0 140#0002004000001600
(1498257461.385286) can0 141#5626712700803F00
(1498257461.385290) can0 144#C000067C5024A000
(1498257461.386192) can0 371#FFFF000080560100
(1498257461.386220) can0 002#FFEF700361000000
(1498257461.390164) can0 152#E96C000000000880
(1498257461.391175) can0 0D0#3200000000000000
(1498257461.391197) can0 0D1#00000080
(1498257461.392184) can0 0D2#0000FFFF10000000
(1498257461.392206) can0 0D3#0046C04E000018
(1498257461.392218) can0 0D4#0000000000000000
(1498257461.395202) can0 140#0003004000001600
(1498257461.395233) can0 141#5626712700803F00
(1498257461.396191) can0 002#FFEF700563000000
(1498257461.398185) can0 280#000C180000000000
(1498257461.399174) can0 156#0100000000000028
(1498257461.400187) can0 282#89F0008181013A00
(1498257461.403183) can0 284#C10F000E00000000
(1498257461.405254) can0 140#0004004000001600
(1498257461.405284) can0 141#5626712700803F00
(1498257461.405287) can0 144#C000067C5024A000
(1498257461.406252) can0 370#FFFF2001800F0000
(1498257461.406282) can0 002#FFEF700765000000
(1498257461.406287) can0 371#FFFF000080560100
(1498257461.410191) can0 152#E17C000000000880
(1498257461.411195) can0 0D0#3200000000000000
(1498257461.411217) can0 0D1#00000080
(1498257461.412172) can0 0D2#0000FFFF10000000
(1498257461.412193) can0 0D3#8046C04E000019
(1498257461.412204) can0 0D4#0000000000000000
(1498257461.415253) can0 140#0005004000001600
(1498257461.415283) can0 141#5626712700803F00
(1498257461.415286) can0 360#000045462F000100
(1498257461.415289) can0 361#0001CBD161000000
(1498257461.416126) can0 362#1D7289B87561BC04
(1498257461.416143) can0 002#FFEF700967000000
(1498257461.418187) can0 280#000D180000000000
(1498257461.419186) can0 156#0100000000000028
(1498257461.425192) can0 140#0006004000001600
(1498257461.425222) can0 141#5626712700803F00
(1498257461.425225) can0 144#C000067C5024A000
(1498257461.426203) can0 371#FFFF000080560100
(1498257461.426225) can0 002#FFEF700B69000000
(1498257461.430197) can0 152#E18C000000000880
(1498257461.430226) can0 376#AD
(1498257461.431178) can0 0D0#3200000000000000
(1498257461.431201) can0 0D1#00000080
(1498257461.432211) can0 0D2#0000FFFF10000000
(1498257461.432233) can0 0D3#8046C04E00001A
(1498257461.432245) can0 0D4#0000000000000000
(1498257461.435189) can0 140#0007004000001600
(1498257461.435218) can0 141#5626712700803F00
(1498257461.436113) can0 002#FFEF700D6B000000
(1498257461.438188) can0 280#000E180000000000
(1498257461.439176) can0 25C#A700000000000000
(1498257461.439206) can0 156#0100000000000028
(1498257461.445206) can0 140#0008004000001600
(1498257461.445235) can0 141#5626712700803F00
(1498257461.445239) can0 144#C000067C5024A000
(1498257461.446201) can0 371#FFFF000080560100
(1498257461.446222) can0 002#FFEF700F6D000000
(1498257461.449186) can0 282#8900008181013A00
(1498257461.450156) can0 152#E99C000000000880
(1498257461.451174) can0 0D0#3200000000000000
(1498257461.451195) can0 0D1#00000080
(1498257461.452219) can0 0D2#0000FFFF10000000
(1498257461.452242) can0 0D3#0046C04E00001B
(1498257461.452252) can0 0D4#0000000000000000
(1498257461.454188) can0 370#FFFF200180000000
(1498257461.455166) can0 140#0009004000001600
(1498257461.455195) can0 141#5626712700803F00
(1498257461.456186) can0 002#FFEF70015F000000
(1498257461.458184) can0 280#000F180000000000
(1498257461.460208) can0 156#0100000000000028
(1498257461.460230) can0 3D1#97100000FD000000
(1498257461.465197) can0 140#000A004000001600
(1498257461.465229) can0 141#5626712700803F00
(1498257461.465233) can0 144#C000067C5024A000
(1498257461.465235) can0 360#000045462F000100
(1498257461.466171) can0 361#0001CBD162000000
(1498257461.466201) can0 362#1C7289B87561BC04
(1498257461.466206) can0 002#FFEF700361000000
(1498257461.466209) can0 371#FFFF000080560100
(1498257461.467186) can0 372#00A8000000000000
(1498257461.470192) can0 152#E9AC000000000880
(1498257461.471176) can0 0D0#3200000000000000
(1498257461.471198) can0 0D1#00000080
(1498257461.472182) can0 0D2#0000FFFF10000000
(1498257461.472205) can0 0D3#8046C04E00001C
(1498257461.472216) can0 0D4#0000000000000000
(1498257461.472219) can0 6C8#0000000000000000
(1498257461.475202) can0 140#000B004000001600
(1498257461.475232) can0 141#5626712700803F00
(1498257461.476180) can0 002#FFEF700563000000
(1498257461.478184) can0 280#0000180000000000
(1498257461.479187) can0 156#0100000000000028
(1498257461.479211) can0 376#AD
(1498257461.485254) can0 140#000C004000001600
(1498257461.485283) can0 141#5626712700803F00
(1498257461.485286) can0 144#C000067C5024A000
(1498257461.486175) can0 371#FFFF000080560100
(1498257461.486197) can0 002#FFEF700765000000
(1498257461.490195) can0 152#E1BC000000000880
(1498257461.491196) can0 0D0#3200000000000000
(1498257461.491219) can0 0D1#00000080
(1498257461.492198) can0 0D2#0000FFFF10000000
(1498257461.492222) can0 0D3#0046C04E00001D
(1498257461.492233) can0 0D4#0000000000000000
(1498257461.495203) can0 140#000D004000001600
(1498257461.495232) can0 141#5626712700803F00
(1498257461.496178) can0 002#FFEF700967000000
(1498257461.498183) can0 280#0001180000000000
(1498257461.499162) can0 25C#2000000000000000
(1498257461.499203) can0 156#0100000000000028
(1498257461.500175) can0 282#8910008181013A00
(1498257461.502177) can0 370#FFFF200180010000
(1498257461.503165) can0 284#C100000E00000000
(1498257461.505185) can0 140#000E004000001600
(1498257461.505215) can0 141#5626712700803F00
(1498257461.505218) can0 144#C000067C5024A000
